EC-Lab ASCII FILE
Nb header lines : 63                          

Potentio Electrochemical Impedance Spectroscopy


Run on channel : 1 (SN 66354)
User : 
CE vs. WE compliance from -10 V to 10 V
Electrode connection : standard
Potential control : Ewe
Ewe ctrl range : min = -10.00 V, max = 10.00 V
Safety Limits :
	Do not start on E overload
Acquisition started on : 09/15/2025 10:21:49.411
Loaded Setting File :  C:\Users\Celltest\OneDrive - store-dot.com\Documents\EC-Lab\Data\Gyutae\EIS_SOC0_C01.mpr
Saved on :
	File : 14380_R229-G1, Nb2O5 30% blending_C01.mpr
	Directory : C:\Users\Celltest\OneDrive - store-dot.com\Documents\EC-Lab\Data\Gyutae\
	Host : 169.254.61.224
Device : VMP-3e (SN .003165)
Address : USB
EC-LAB for windows v11.62 (software)
Internet server v27.00 (firmware)
Command interpretor v12.03 (firmware)
Electrode material : 
Initial state : 
Electrolyte : 
Comments : 
Electrode surface area : 0.001 cm²
Characteristic mass : 0.001 g
Equivalent Weight : 0.000 g/eq.
Density : 0.000 g/cm3
Volume (V) : 0.001 cm³
Cycle Definition : Charge/Discharge alternance
Mode                Single sine         
E (V)               0.0000              
vs.                 Eoc                 
tE (h:m:s)          0:00:0.0000         
record              0                   
dI                  0.000               
unit dI             mA                  
dt (s)              0.000               
fi                  100.000             
unit fi             kHz                 
ff                  10.000              
unit ff             mHz                 
Nd                  6                   
Points              per decade          
spacing             Logarithmic         
Va (mV)             5.0                 
pw                  0.10                
Na                  2                   
corr                0                   
E range min (V)     -10.000             
E range max (V)     10.000              
I Range             Auto                
Bandwidth           5                   
nc cycles           0                   
goto Ns'            0                   
nr cycles           0                   
inc. cycle          0                   

freq/Hz	Re(Z)/Ohm	-Im(Z)/Ohm	|Z|/Ohm	Phase(Z)/deg	time/s	<Ewe>/V	<I>/mA	Cs/µF	Cp/µF	cycle number	I Range	|Ewe|/V	|I|/A	Ns	(Q-Qo)/mA.h	Re(Y)/Ohm-1	Im(Y)/Ohm-1	|Y|/Ohm-1	Phase(Y)/deg	Re(C)/nF	Im(C)/nF	|C|/nF	Phase(C)/deg	Re(M)	Im(M)	|M|	Phase(M)/deg	Re(Permittivity)	Im(Permittivity)	|Permittivity|	Phase(Permittivity)/deg	Re(Resistivity)/Ohm.cm	Im(Resistivity)/Ohm.cm	|Resistivity|/Ohm.cm	Phase(Resistivity)/deg	Re(Conductivity)/mS/cm	Im(Conductivity)/mS/cm	|Conductivity|/mS/cm	Phase(Conductivity)/deg	Tan(Delta)	Loss Angle(Delta)/deg	dq/mA.h	Pwe/W	Rwe/Ohm	
1.0000371E+005	1.1705441E+000	2.6771641E-001	1.2007688E+000	-1.2882605E+001	2.067474604846211E+000	3.6641937E-001	7.4280612E-002	5.9446869E+000	2.9550183E-001	1.000000000000000E+000	9	4.7482816E-003	3.9543677E-003	0	5.031861493777897E-006	8.1183732E-001	1.8567617E-001	8.3279979E-001	1.2882605E+001	2.9550186E+002	1.2920311E+003	1.3253927E+003	-7.7117393E+001	0.0000000E+000	0.0000000E+000	0.0000000E+000	7.7117393E+001	0.0000000E+000	0.0000000E+000	0.0000000E+000	-7.7117393E+001	0.0000000E+000	0.0000000E+000	0.0000000E+000	-1.2882605E+001	0.0000000E+000	0.0000000E+000	0.0000000E+000	1.2882605E+001	4.3723288E+000	7.7117393E+001	5.031861493777897E-006	2.7217855E-005	4.9329072E+003
6.8132047E+004	1.2356019E+000	3.0108330E-001	1.2717559E+000	-1.3694573E+001	2.645492205600021E+000	3.6642337E-001	7.7708006E-002	7.7585759E+000	4.3485835E-001	1.000000000000000E+000	9	5.0459942E-003	3.9677378E-003	0	2.043846621673502E-005	7.6396066E-001	1.8615688E-001	7.8631437E-001	1.3694573E+001	4.3485834E+002	1.7845952E+003	1.8368130E+003	-7.6305428E+001	0.0000000E+000	0.0000000E+000	0.0000000E+000	7.6305428E+001	0.0000000E+000	0.0000000E+000	0.0000000E+000	-7.6305428E+001	0.0000000E+000	0.0000000E+000	0.0000000E+000	-1.3694573E+001	0.0000000E+000	0.0000000E+000	0.0000000E+000	1.3694573E+001	4.1038542E+000	7.6305428E+001	1.540660472295713E-005	2.8474029E-005	4.7153877E+003
4.6420355E+004	1.3077210E+000	3.3602452E-001	1.3502024E+000	-1.4410639E+001	3.223477753082989E+000	3.6642507E-001	7.6161943E-002	1.0203301E+001	6.3195312E-001	1.000000000000000E+000	9	5.0156647E-003	3.7147501E-003	0	3.845549535678907E-005	7.1732724E-001	1.8432030E-001	7.4062967E-001	1.4410639E+001	6.3195300E+002	2.4593989E+003	2.5392927E+003	-7.5589363E+001	0.0000000E+000	0.0000000E+000	0.0000000E+000	7.5589363E+001	0.0000000E+000	0.0000000E+000	0.0000000E+000	-7.5589363E+001	0.0000000E+000	0.0000000E+000	0.0000000E+000	-1.4410639E+001	0.0000000E+000	0.0000000E+000	0.0000000E+000	1.4410639E+001	3.8917427E+000	7.5589363E+001	1.801702914005404E-005	2.7907645E-005	4.8111309E+003
3.1621139E+004	1.3841870E+000	3.8393545E-001	1.4364470E+000	-1.5502554E+001	3.801490740530426E+000	3.6642259E-001	6.9064990E-002	1.3109448E+001	9.3652987E-001	1.000000000000000E+000	9	5.0790654E-003	3.5358530E-003	0	3.763154657024683E-005	6.7083472E-001	1.8607113E-001	6.9616210E-001	1.5502554E+001	9.3653003E+002	3.3764333E+003	3.5039106E+003	-7.4497444E+001	0.0000000E+000	0.0000000E+000	0.0000000E+000	7.4497444E+001	0.0000000E+000	0.0000000E+000	0.0000000E+000	-7.4497444E+001	0.0000000E+000	0.0000000E+000	0.0000000E+000	-1.5502554E+001	0.0000000E+000	0.0000000E+000	0.0000000E+000	1.5502554E+001	3.6052597E+000	7.4497444E+001	-8.239487865422337E-007	2.5306972E-005	5.3054751E+003
2.1544684E+004	1.4716582E+000	4.3817320E-001	1.5355043E+000	-1.6580435E+001	4.238487507944228E+000	3.6642218E-001	7.3870793E-002	1.6859093E+001	1.3728521E+000	1.000000000000000E+000	9	5.2452944E-003	3.4160076E-003	0	4.284805024655200E-005	6.2417281E-001	1.8584193E-001	6.5125179E-001	1.6580435E+001	1.3728522E+003	4.6108911E+003	4.8109292E+003	-7.3419563E+001	0.0000000E+000	0.0000000E+000	0.0000000E+000	7.3419563E+001	0.0000000E+000	0.0000000E+000	0.0000000E+000	-7.3419563E+001	0.0000000E+000	0.0000000E+000	0.0000000E+000	-1.6580435E+001	0.0000000E+000	0.0000000E+000	0.0000000E+000	1.6580435E+001	3.3586221E+000	7.3419563E+001	5.216503676305164E-006	2.7067897E-005	4.9603120E+003
1.4678594E+004	1.5757389E+000	4.9597153E-001	1.6519506E+000	-1.7471651E+001	4.675476915406762E+000	3.6641866E-001	7.2119832E-002	2.1861448E+001	1.9705992E+000	1.000000000000000E+000	9	4.9489038E-003	2.9957942E-003	0	5.276939712695053E-005	5.7741773E-001	1.8174507E-001	6.0534495E-001	1.7471651E+001	1.9705991E+003	6.2607422E+003	6.5635474E+003	-7.2528351E+001	0.0000000E+000	0.0000000E+000	0.0000000E+000	7.2528351E+001	0.0000000E+000	0.0000000E+000	0.0000000E+000	-7.2528351E+001	0.0000000E+000	0.0000000E+000	0.0000000E+000	-1.7471651E+001	0.0000000E+000	0.0000000E+000	0.0000000E+000	1.7471651E+001	3.1770754E+000	7.2528351E+001	9.921346880398532E-006	2.6426053E-005	5.0806919E+003
1.0002226E+004	1.6781462E+000	5.6579393E-001	1.7709595E+000	-1.8631746E+001	5.112497709487798E+000	3.6641783E-001	7.1784541E-002	2.8123232E+001	2.8705461E+000	1.000000000000000E+000	9	4.9040262E-003	2.7691352E-003	0	6.116690452684027E-005	5.3507239E-001	1.8040188E-001	5.6466568E-001	1.8631746E+001	2.8705459E+003	8.5140469E+003	8.9849336E+003	-7.1368256E+001	0.0000000E+000	0.0000000E+000	0.0000000E+000	7.1368256E+001	0.0000000E+000	0.0000000E+000	0.0000000E+000	-7.1368256E+001	0.0000000E+000	0.0000000E+000	0.0000000E+000	-1.8631746E+001	0.0000000E+000	0.0000000E+000	0.0000000E+000	1.8631746E+001	2.9660025E+000	7.1368256E+001	8.397507399889744E-006	2.6303136E-005	5.1044111E+003
6.8110674E+003	1.8155916E+000	6.5779305E-001	1.9310786E+000	-1.9915569E+001	5.490497114107711E+000	3.6618316E-001	-6.3206561E-002	3.5523491E+001	4.1218705E+000	1.000000000000000E+000	9	4.6184040E-003	2.3916189E-003	0	5.493366318603512E-005	4.8687589E-001	1.7639627E-001	5.1784533E-001	1.9915569E+001	4.1218711E+003	1.1376881E+004	1.2100547E+004	-7.0084427E+001	0.0000000E+000	0.0000000E+000	0.0000000E+000	7.0084427E+001	0.0000000E+000	0.0000000E+000	0.0000000E+000	-7.0084427E+001	0.0000000E+000	0.0000000E+000	0.0000000E+000	-1.9915569E+001	0.0000000E+000	0.0000000E+000	0.0000000E+000	1.9915569E+001	2.7601259E+000	7.0084427E+001	-6.233241340805155E-006	-2.3145178E-005	5.7934360E+003
4.6414854E+003	1.9573797E+000	7.5902849E-001	2.0993950E+000	-2.1195190E+001	6.184685947111575E+000	3.6639896E-001	1.0373013E-001	4.5175720E+001	5.9051766E+000	1.000000000000000E+000	9	4.8577595E-003	2.3138854E-003	0	7.210607526261204E-005	4.4410610E-001	1.7221452E-001	4.7632769E-001	2.1195190E+001	5.9051768E+003	1.5228246E+004	1.6333113E+004	-6.8804810E+001	0.0000000E+000	0.0000000E+000	0.0000000E+000	6.8804810E+001	0.0000000E+000	0.0000000E+000	0.0000000E+000	-6.8804810E+001	0.0000000E+000	0.0000000E+000	0.0000000E+000	-2.1195190E+001	0.0000000E+000	0.0000000E+000	0.0000000E+000	2.1195190E+001	2.5787961E+000	6.8804810E+001	1.717241207657692E-005	3.8006612E-005	3.5322327E+003
3.1610117E+003	2.1249087E+000	8.7810141E-001	2.2991953E+000	-2.2452467E+001	6.651670609295252E+000	3.6640570E-001	1.0512716E-001	5.7338898E+001	8.3634787E+000	1.000000000000000E+000	9	4.7823922E-003	2.0800286E-003	0	8.586895246503021E-005	4.0196529E-001	1.6610892E-001	4.3493479E-001	2.2452467E+001	8.3634795E+003	2.0238697E+004	2.1898691E+004	-6.7547531E+001	0.0000000E+000	0.0000000E+000	0.0000000E+000	6.7547531E+001	0.0000000E+000	0.0000000E+000	0.0000000E+000	-6.7547531E+001	0.0000000E+000	0.0000000E+000	0.0000000E+000	-2.2452467E+001	0.0000000E+000	0.0000000E+000	0.0000000E+000	2.2452467E+001	2.4198899E+000	6.7547531E+001	1.376287720241817E-005	3.8519192E-005	3.4853569E+003
2.1556899E+003	2.2948661E+000	1.0187445E+000	2.5108266E+000	-2.3937550E+001	7.118682311476732E+000	3.6640766E-001	1.0693399E-001	7.2471718E+001	1.1930693E+001	1.000000000000000E+000	9	4.7463984E-003	1.8903728E-003	0	9.823851229153419E-005	3.6401889E-001	1.6159646E-001	3.9827523E-001	2.3937550E+001	1.1930690E+004	2.6875574E+004	2.9404725E+004	-6.6062454E+001	0.0000000E+000	0.0000000E+000	0.0000000E+000	6.6062454E+001	0.0000000E+000	0.0000000E+000	0.0000000E+000	-6.6062454E+001	0.0000000E+000	0.0000000E+000	0.0000000E+000	-2.3937550E+001	0.0000000E+000	0.0000000E+000	0.0000000E+000	2.3937550E+001	2.2526414E+000	6.6062454E+001	1.236955982650398E-005	3.9181432E-005	3.4264846E+003
1.4685898E+003	2.4854369E+000	1.2108028E+000	2.7646773E+000	-2.5973440E+001	7.585934413655195E+000	3.6640644E-001	1.0378599E-001	8.9504776E+001	1.7167385E+001	1.000000000000000E+000	9	4.7164983E-003	1.7059852E-003	0	1.095316382922675E-004	3.2517254E-001	1.5841070E-001	3.6170587E-001	2.5973440E+001	1.7167387E+004	3.5239809E+004	3.9199020E+004	-6.4026558E+001	0.0000000E+000	0.0000000E+000	0.0000000E+000	6.4026558E+001	0.0000000E+000	0.0000000E+000	0.0000000E+000	-6.4026558E+001	0.0000000E+000	0.0000000E+000	0.0000000E+000	-2.5973440E+001	0.0000000E+000	0.0000000E+000	0.0000000E+000	2.5973440E+001	2.0527182E+000	6.4026558E+001	1.129312600073333E-005	3.8027854E-005	3.5304036E+003
1.0003202E+003	2.6812134E+000	1.4532096E+000	3.0497088E+000	-2.8457560E+001	8.054678062602761E+000	3.6640629E-001	1.0611439E-001	1.0948454E+002	2.4859512E+001	1.000000000000000E+000	9	4.6983426E-003	1.5405873E-003	0	1.235093114415779E-004	2.8828007E-001	1.5624693E-001	3.2790014E-001	2.8457560E+001	2.4859510E+004	4.5866512E+004	5.2170223E+004	-6.1542442E+001	0.0000000E+000	0.0000000E+000	0.0000000E+000	6.1542442E+001	0.0000000E+000	0.0000000E+000	0.0000000E+000	-6.1542442E+001	0.0000000E+000	0.0000000E+000	0.0000000E+000	-2.8457560E+001	0.0000000E+000	0.0000000E+000	0.0000000E+000	2.8457560E+001	1.8450286E+000	6.1542442E+001	1.397767314931036E-005	3.8880979E-005	3.4529370E+003
6.8108978E+002	2.9284613E+000	1.8074484E+000	3.4413304E+000	-3.1682915E+001	8.775413536786800E+000	3.6637905E-001	-1.0683701E-002	1.2928552E+002	3.5663910E+001	1.000000000000000E+000	10	4.7795251E-003	1.3888597E-003	0	1.280978355604069E-004	2.4727871E-001	1.5262060E-001	2.9058528E-001	3.1682915E+001	3.5663910E+004	5.7783324E+004	6.7903070E+004	-5.8317085E+001	0.0000000E+000	0.0000000E+000	0.0000000E+000	5.8317085E+001	0.0000000E+000	0.0000000E+000	0.0000000E+000	-5.8317085E+001	0.0000000E+000	0.0000000E+000	0.0000000E+000	-3.1682915E+001	0.0000000E+000	0.0000000E+000	0.0000000E+000	3.1682915E+001	1.6202185E+000	5.8317085E+001	4.588524118828989E-006	-3.9142842E-006	3.4293270E+004
4.6396069E+002	3.1946552E+000	2.2977142E+000	3.9351382E+000	-3.5725086E+001	9.244184519076953E+000	3.6638203E-001	-1.0629664E-002	1.4929419E+002	5.0899670E+001	1.000000000000000E+000	10	4.7397804E-003	1.2044762E-003	0	1.274820042059291E-004	2.0630227E-001	1.4838023E-001	2.5412068E-001	3.5725086E+001	5.0899672E+004	7.0768984E+004	8.7172391E+004	-5.4274914E+001	0.0000000E+000	0.0000000E+000	0.0000000E+000	5.4274914E+001	0.0000000E+000	0.0000000E+000	0.0000000E+000	-5.4274914E+001	0.0000000E+000	0.0000000E+000	0.0000000E+000	-3.5725086E+001	0.0000000E+000	0.0000000E+000	0.0000000E+000	3.5725086E+001	1.3903623E+000	5.4274918E+001	-6.158313544777521E-007	-3.8945182E-006	3.4467883E+004
3.1631589E+002	3.5578229E+000	2.9917989E+000	4.6485443E+000	-4.0060719E+001	9.710900941252476E+000	3.6637497E-001	-1.0974410E-002	1.6817705E+002	6.9662262E+001	1.000000000000000E+000	10	4.7264518E-003	1.0167595E-003	0	1.263488013716221E-004	1.6464570E-001	1.3845174E-001	2.1512111E-001	4.0060719E+001	6.9662258E+004	8.2841797E+004	1.0823859E+005	-4.9939281E+001	0.0000000E+000	0.0000000E+000	0.0000000E+000	4.9939281E+001	0.0000000E+000	0.0000000E+000	0.0000000E+000	-4.9939281E+001	0.0000000E+000	0.0000000E+000	0.0000000E+000	-4.0060719E+001	0.0000000E+000	0.0000000E+000	0.0000000E+000	4.0060719E+001	1.1891919E+000	4.9939285E+001	-1.133202834307053E-006	-4.0207492E-006	3.3384480E+004
2.1534457E+002	4.0684891E+000	3.9067678E+000	5.6405177E+000	-4.3838322E+001	1.017842579007265E+001	3.6638349E-001	-1.0745207E-002	1.8917712E+002	9.0754021E+001	1.000000000000000E+000	10	4.7019748E-003	8.3360693E-004	0	1.245240330286130E-004	1.2787783E-001	1.2279472E-001	1.7728870E-001	4.3838322E+001	9.0754016E+004	9.4510797E+004	1.3102894E+005	-4.6161678E+001	0.0000000E+000	0.0000000E+000	0.0000000E+000	4.6161678E+001	0.0000000E+000	0.0000000E+000	0.0000000E+000	-4.6161678E+001	0.0000000E+000	0.0000000E+000	0.0000000E+000	-4.3838322E+001	0.0000000E+000	0.0000000E+000	0.0000000E+000	4.3838322E+001	1.0413952E+000	4.6161682E+001	-1.824768343009050E-006	-3.9368665E-006	3.4097387E+004
1.4673740E+002	4.8296485E+000	5.1393542E+000	7.0525503E+000	-4.6779430E+001	1.064140602541738E+001	3.6637476E-001	-1.2099956E-002	2.1104292E+002	1.1207158E+002	1.000000000000000E+000	10	4.6939612E-003	6.6556933E-004	0	1.232762396190535E-004	9.7100876E-002	1.0332756E-001	1.4179268E-001	4.6779430E+001	1.1207158E+005	1.0531796E+005	1.5379178E+005	-4.3220570E+001	0.0000000E+000	0.0000000E+000	0.0000000E+000	4.3220570E+001	0.0000000E+000	0.0000000E+000	0.0000000E+000	-4.3220570E+001	0.0000000E+000	0.0000000E+000	0.0000000E+000	-4.6779430E+001	0.0000000E+000	0.0000000E+000	0.0000000E+000	4.6779430E+001	9.3973839E-001	4.3220566E+001	-1.247793409559471E-006	-4.4331186E-006	3.0279016E+004
1.0003201E+002	6.0050340E+000	6.6367989E+000	8.9502811E+000	-4.7860928E+001	1.110868362098699E+001	3.6637086E-001	-1.1078777E-002	2.3973006E+002	1.3181549E+002	1.000000000000000E+000	10	4.6866070E-003	5.2362680E-004	0	1.222463668307302E-004	7.4962161E-002	8.2848623E-002	1.1172833E-001	4.7860928E+001	1.3181548E+005	1.1926781E+005	1.7776427E+005	-4.2139072E+001	0.0000000E+000	0.0000000E+000	0.0000000E+000	4.2139072E+001	0.0000000E+000	0.0000000E+000	0.0000000E+000	-4.2139072E+001	0.0000000E+000	0.0000000E+000	0.0000000E+000	-4.7860928E+001	0.0000000E+000	0.0000000E+000	0.0000000E+000	4.7860928E+001	9.0480882E-001	4.2139069E+001	-1.029872788323296E-006	-4.0589412E-006	3.3069613E+004
6.8103981E+001	7.7609811E+000	8.3802776E+000	1.1421991E+001	-4.7197208E+001	1.158733313702396E+001	3.6638278E-001	-8.2090376E-003	2.7886194E+002	1.5011441E+002	1.000000000000000E+000	10	4.6894085E-003	4.1055962E-004	0	1.215811841095953E-004	5.9488494E-002	6.4235449E-002	8.7550409E-002	4.7197208E+001	1.5011442E+005	1.3902106E+005	2.0460009E+005	-4.2802792E+001	0.0000000E+000	0.0000000E+000	0.0000000E+000	4.2802792E+001	0.0000000E+000	0.0000000E+000	0.0000000E+000	-4.2802792E+001	0.0000000E+000	0.0000000E+000	0.0000000E+000	-4.7197208E+001	0.0000000E+000	0.0000000E+000	0.0000000E+000	4.7197208E+001	9.2610073E-001	4.2802795E+001	-6.651827211349428E-007	-3.0076501E-006	4.4631637E+004
4.6441547E+001	1.0206948E+001	1.0090079E+001	1.4352404E+001	-4.4670101E+001	1.204252857193933E+001	3.6636668E-001	-1.4159099E-002	3.3964005E+002	1.6786446E+002	1.000000000000000E+000	10	4.6789888E-003	3.2600734E-004	0	1.200430062883323E-004	4.9550336E-002	4.8982993E-002	6.9674738E-002	4.4670101E+001	1.6786447E+005	1.6980875E+005	2.3877498E+005	-4.5329899E+001	0.0000000E+000	0.0000000E+000	0.0000000E+000	4.5329899E+001	0.0000000E+000	0.0000000E+000	0.0000000E+000	-4.5329899E+001	0.0000000E+000	0.0000000E+000	0.0000000E+000	-4.4670101E+001	0.0000000E+000	0.0000000E+000	0.0000000E+000	4.4670101E+001	1.0115826E+000	4.5329895E+001	-1.538177821262961E-006	-5.1874222E-006	2.5875000E+004
3.1629555E+001	1.3517370E+001	1.1554103E+001	1.7782480E+001	-4.0522488E+001	1.273242279139231E+001	3.6639628E-001	-5.4404913E-003	4.3550266E+002	1.8385634E+002	1.000000000000000E+000	11	4.6912166E-003	2.6381115E-004	0	1.183051913668832E-004	4.2747185E-002	3.6538571E-002	5.6235123E-002	4.0522488E+001	1.8385636E+005	2.1509713E+005	2.8296631E+005	-4.9477512E+001	0.0000000E+000	0.0000000E+000	0.0000000E+000	4.9477512E+001	0.0000000E+000	0.0000000E+000	0.0000000E+000	-4.9477512E+001	0.0000000E+000	0.0000000E+000	0.0000000E+000	-4.0522488E+001	0.0000000E+000	0.0000000E+000	0.0000000E+000	4.0522488E+001	1.1699195E+000	4.9477509E+001	-1.737814921449170E-006	-1.9933757E-006	6.7346172E+004
2.1551722E+001	1.7230341E+001	1.2331327E+001	2.1188353E+001	-3.5590359E+001	1.317134681224707E+001	3.6640030E-001	-5.5229757E-003	5.9886414E+002	2.0284000E+002	1.000000000000000E+000	11	4.6842895E-003	2.2107852E-004	0	1.183947752752615E-004	3.8379516E-002	2.7467266E-002	4.7195740E-002	3.5590359E+001	2.0284000E+005	2.8342466E+005	3.4853063E+005	-5.4409641E+001	0.0000000E+000	0.0000000E+000	0.0000000E+000	5.4409641E+001	0.0000000E+000	0.0000000E+000	0.0000000E+000	-5.4409641E+001	0.0000000E+000	0.0000000E+000	0.0000000E+000	-3.5590359E+001	0.0000000E+000	0.0000000E+000	0.0000000E+000	3.5590359E+001	1.3972819E+000	5.4409637E+001	8.958390837829214E-008	-2.0236200E-006	6.6341102E+004
1.4685154E+001	2.1071526E+001	1.2399481E+001	2.4449055E+001	-3.0474566E+001	1.365006051500677E+001	3.6640164E-001	-4.5502903E-003	8.7405365E+002	2.2481276E+002	1.000000000000000E+000	11	4.6920418E-003	1.9191096E-004	0	1.178996291098166E-004	3.5251033E-002	2.0743372E-002	4.0901378E-002	3.0474566E+001	2.2481277E+005	3.8204409E+005	4.4328147E+005	-5.9525436E+001	0.0000000E+000	0.0000000E+000	0.0000000E+000	5.9525436E+001	0.0000000E+000	0.0000000E+000	0.0000000E+000	-5.9525436E+001	0.0000000E+000	0.0000000E+000	0.0000000E+000	-3.0474566E+001	0.0000000E+000	0.0000000E+000	0.0000000E+000	3.0474566E+001	1.6993878E+000	5.9525436E+001	-4.951461654448746E-007	-1.6672338E-006	8.0522695E+004
