EC-Lab ASCII FILE
Nb header lines : 63                          

Potentio Electrochemical Impedance Spectroscopy


Run on channel : 2 (SN 66139)
User : 
CE vs. WE compliance from -10 V to 10 V
Electrode connection : standard
Potential control : Ewe
Ewe ctrl range : min = -10.00 V, max = 10.00 V
Safety Limits :
	Do not start on E overload
Acquisition started on : 09/15/2025 10:22:00.221
Loaded Setting File :  C:\Users\Celltest\OneDrive - store-dot.com\Documents\EC-Lab\Data\Charmaine\R279\17382_C01.mpr
Saved on :
	File : 14381_R229-G1, Nb2O5 30% blending_C02.mpr
	Directory : C:\Users\Celltest\OneDrive - store-dot.com\Documents\EC-Lab\Data\Gyutae\
	Host : 169.254.61.224
Device : VMP-3e (SN .003165)
Address : USB
EC-LAB for windows v11.62 (software)
Internet server v27.00 (firmware)
Command interpretor v12.03 (firmware)
Electrode material : 
Initial state : 
Electrolyte : 
Comments : 
Electrode surface area : 0.001 cm²
Characteristic mass : 0.001 g
Equivalent Weight : 0.000 g/eq.
Density : 0.000 g/cm3
Volume (V) : 0.001 cm³
Cycle Definition : Charge/Discharge alternance
Mode                Single sine         
E (V)               0.0000              
vs.                 Eoc                 
tE (h:m:s)          0:00:0.0000         
record              0                   
dI                  0.000               
unit dI             mA                  
dt (s)              0.000               
fi                  100.000             
unit fi             kHz                 
ff                  10.000              
unit ff             mHz                 
Nd                  6                   
Points              per decade          
spacing             Logarithmic         
Va (mV)             5.0                 
pw                  0.10                
Na                  2                   
corr                0                   
E range min (V)     -10.000             
E range max (V)     10.000              
I Range             Auto                
Bandwidth           5                   
nc cycles           0                   
goto Ns'            0                   
nr cycles           0                   
inc. cycle          0                   

freq/Hz	Re(Z)/Ohm	-Im(Z)/Ohm	|Z|/Ohm	Phase(Z)/deg	time/s	<Ewe>/V	<I>/mA	Cs/µF	Cp/µF	cycle number	I Range	|Ewe|/V	|I|/A	Ns	(Q-Qo)/mA.h	Re(Y)/Ohm-1	Im(Y)/Ohm-1	|Y|/Ohm-1	Phase(Y)/deg	Re(C)/nF	Im(C)/nF	|C|/nF	Phase(C)/deg	Re(M)	Im(M)	|M|	Phase(M)/deg	Re(Permittivity)	Im(Permittivity)	|Permittivity|	Phase(Permittivity)/deg	Re(Resistivity)/Ohm.cm	Im(Resistivity)/Ohm.cm	|Resistivity|/Ohm.cm	Phase(Resistivity)/deg	Re(Conductivity)/mS/cm	Im(Conductivity)/mS/cm	|Conductivity|/mS/cm	Phase(Conductivity)/deg	Tan(Delta)	Loss Angle(Delta)/deg	dq/mA.h	Pwe/W	Rwe/Ohm	
1.0000371E+005	2.1993902E+000	2.1770406E-001	2.2101386E+000	-5.6529412E+000	2.036482950061327E+000	3.5940289E-001	2.3187840E-002	7.3103385E+000	7.0930257E-002	1.000000000000000E+000	9	3.8364825E-003	1.7358561E-003	0	1.570241451263428E-007	4.5025992E-001	4.4568449E-002	4.5246032E-001	5.6529412E+000	7.0930237E+001	7.1658441E+002	7.2008630E+002	-8.4347061E+001	0.0000000E+000	0.0000000E+000	0.0000000E+000	8.4347061E+001	0.0000000E+000	0.0000000E+000	0.0000000E+000	-8.4347061E+001	0.0000000E+000	0.0000000E+000	0.0000000E+000	-5.6529412E+000	0.0000000E+000	0.0000000E+000	0.0000000E+000	5.6529412E+000	1.0102660E+001	8.4347061E+001	1.570241451263428E-007	8.3337773E-006	1.5499628E+004
6.8132047E+004	-1.2580456E-001	-4.4237041E-001	4.5991126E-001	1.0587508E+002	2.369600112579064E+000	3.5941461E-001	2.1455873E-002	-5.2805920E+000	-4.8854737E+000	1.000000000000000E+000	9	9.9815064E-005	2.1703113E-004	0	7.573264906920182E-007	-5.9476906E-001	-2.0914044E+000	2.1743326E+000	-1.0587508E+002	-4.8854736E+003	-1.3893678E+003	5.0791924E+003	1.6412491E+002	0.0000000E+000	0.0000000E+000	0.0000000E+000	-1.6412491E+002	0.0000000E+000	0.0000000E+000	0.0000000E+000	1.6412491E+002	0.0000000E+000	0.0000000E+000	0.0000000E+000	1.0587508E+002	0.0000000E+000	0.0000000E+000	0.0000000E+000	-1.0587508E+002	2.8438738E-001	1.5875084E+001	6.003023455656754E-007	7.7115537E-006	1.6751340E+004
4.6420355E+004	2.2758956E+000	5.6420279E-001	2.3447869E+000	-1.3923141E+001	3.338485465181293E+000	3.5928318E-001	-1.8043367E-002	6.0768213E+000	3.5183591E-001	1.000000000000000E+000	9	5.2271192E-003	2.2292512E-003	0	1.045200942069965E-005	4.1394782E-001	1.0261917E-001	4.2647800E-001	1.3923141E+001	3.5183594E+002	1.4192448E+003	1.4622052E+003	-7.6076859E+001	0.0000000E+000	0.0000000E+000	0.0000000E+000	7.6076859E+001	0.0000000E+000	0.0000000E+000	0.0000000E+000	-7.6076859E+001	0.0000000E+000	0.0000000E+000	0.0000000E+000	-1.3923141E+001	0.0000000E+000	0.0000000E+000	0.0000000E+000	1.3923141E+001	4.0338254E+000	7.6076859E+001	9.694682930007629E-006	-6.4826781E-006	1.9912203E+004
3.1621139E+004	2.4054165E+000	6.4231849E-001	2.4896991E+000	-1.4950853E+001	3.775486819300568E+000	3.5928705E-001	-2.0445734E-002	7.8359604E+000	5.2155405E-001	1.000000000000000E+000	9	5.3579700E-003	2.1520553E-003	0	8.728965049506062E-006	3.8805792E-001	1.0362313E-001	4.0165496E-001	1.4950853E+001	5.2155402E+002	1.9531663E+003	2.0216025E+003	-7.5049149E+001	0.0000000E+000	0.0000000E+000	0.0000000E+000	7.5049149E+001	0.0000000E+000	0.0000000E+000	0.0000000E+000	-7.5049149E+001	0.0000000E+000	0.0000000E+000	0.0000000E+000	-1.4950853E+001	0.0000000E+000	0.0000000E+000	0.0000000E+000	1.4950853E+001	3.7448969E+000	7.5049149E+001	-1.723044371193586E-006	-7.3458878E-006	1.7572715E+004
2.1544684E+004	2.5569913E+000	7.1275872E-001	2.6544735E+000	-1.5575758E+001	4.213489826797741E+000	3.5927394E-001	-2.0017417E-002	1.0364241E+001	7.4724972E-001	1.000000000000000E+000	9	5.0167823E-003	1.8899349E-003	0	4.969114641329119E-006	3.6288789E-001	1.0115463E-001	3.7672254E-001	1.5575758E+001	7.4724982E+002	2.6807263E+003	2.7829258E+003	-7.4424240E+001	0.0000000E+000	0.0000000E+000	0.0000000E+000	7.4424240E+001	0.0000000E+000	0.0000000E+000	0.0000000E+000	-7.4424240E+001	0.0000000E+000	0.0000000E+000	0.0000000E+000	-1.5575758E+001	0.0000000E+000	0.0000000E+000	0.0000000E+000	1.5575758E+001	3.5874572E+000	7.4424240E+001	-3.759850408176943E-006	-7.1917361E-006	1.7948066E+004
1.4678594E+004	2.7262301E+000	7.8975266E-001	2.8383164E+000	-1.6155600E+001	4.509480614186032E+000	3.5927328E-001	-1.6832890E-002	1.3729178E+001	1.0629312E+000	1.000000000000000E+000	9	5.3519597E-003	1.8856106E-003	0	3.809184367569186E-006	3.3840820E-001	9.8032363E-002	3.5232154E-001	1.6155600E+001	1.0629313E+003	3.6692437E+003	3.8201011E+003	-7.3844398E+001	0.0000000E+000	0.0000000E+000	0.0000000E+000	7.3844398E+001	0.0000000E+000	0.0000000E+000	0.0000000E+000	-7.3844398E+001	0.0000000E+000	0.0000000E+000	0.0000000E+000	-1.6155600E+001	0.0000000E+000	0.0000000E+000	0.0000000E+000	1.6155600E+001	3.4520049E+000	7.3844398E+001	-1.159930273759932E-006	-6.0476077E-006	2.1343529E+004
1.0002226E+004	2.9139116E+000	8.8976085E-001	3.0467286E+000	-1.6980015E+001	4.946482821571408E+000	3.5927165E-001	-1.9626334E-002	1.7883404E+001	1.5252086E+000	1.000000000000000E+000	9	4.9982406E-003	1.6405270E-003	0	2.402339738315075E-006	3.1391266E-001	9.5853016E-002	3.2822090E-001	1.6980015E+001	1.5252084E+003	4.9949639E+003	5.2226357E+003	-7.3019989E+001	0.0000000E+000	0.0000000E+000	0.0000000E+000	7.3019989E+001	0.0000000E+000	0.0000000E+000	0.0000000E+000	-7.3019989E+001	0.0000000E+000	0.0000000E+000	0.0000000E+000	-1.6980015E+001	0.0000000E+000	0.0000000E+000	0.0000000E+000	1.6980015E+001	3.2749379E+000	7.3019989E+001	-1.406844629254111E-006	-7.0511855E-006	1.8305592E+004
6.8110674E+003	3.1228843E+000	1.0026491E+000	3.2798951E+000	-1.7800011E+001	5.325499026250327E+000	3.5926080E-001	-1.4020824E-002	2.3305368E+001	2.1778803E+000	1.000000000000000E+000	9	5.0168228E-003	1.5295681E-003	0	5.113211240386591E-007	2.9029262E-001	9.3202822E-002	3.0488780E-001	1.7800011E+001	2.1778804E+003	6.7832983E+003	7.1243457E+003	-7.2199989E+001	0.0000000E+000	0.0000000E+000	0.0000000E+000	7.2199989E+001	0.0000000E+000	0.0000000E+000	0.0000000E+000	-7.2199989E+001	0.0000000E+000	0.0000000E+000	0.0000000E+000	-1.7800011E+001	0.0000000E+000	0.0000000E+000	0.0000000E+000	1.7800011E+001	3.1146333E+000	7.2199989E+001	-1.891018614276416E-006	-5.0371323E-006	2.5623373E+004
4.6414854E+003	3.3430133E+000	1.1313155E+000	3.5292511E+000	-1.8696430E+001	5.796690328686964E+000	3.5931522E-001	7.9170149E-003	3.0309546E+001	3.1144528E+000	1.000000000000000E+000	9	4.9799015E-003	1.4110364E-003	0	8.494494604464207E-007	2.6839411E-001	9.0827763E-002	2.8334624E-001	1.8696430E+001	3.1144521E+003	9.2031426E+003	9.7158447E+003	-7.1303574E+001	0.0000000E+000	0.0000000E+000	0.0000000E+000	7.1303574E+001	0.0000000E+000	0.0000000E+000	0.0000000E+000	-7.1303574E+001	0.0000000E+000	0.0000000E+000	0.0000000E+000	-1.8696430E+001	0.0000000E+000	0.0000000E+000	0.0000000E+000	1.8696430E+001	2.9549789E+000	7.1303574E+001	3.381283364077616E-007	2.8447039E-006	4.5385188E+004
3.1610117E+003	3.6104720E+000	1.2837007E+000	3.8318918E+000	-1.9572807E+001	6.517668362932454E+000	3.5931411E-001	-1.1274109E-002	3.9222046E+001	4.4018102E+000	1.000000000000000E+000	10	5.0222427E-003	1.3106432E-003	0	-1.321028553065844E-006	2.4588808E-001	8.7425336E-002	2.6096770E-001	1.9572807E+001	4.4018105E+003	1.2380311E+004	1.3139560E+004	-7.0427193E+001	0.0000000E+000	0.0000000E+000	0.0000000E+000	7.0427193E+001	0.0000000E+000	0.0000000E+000	0.0000000E+000	-7.0427193E+001	0.0000000E+000	0.0000000E+000	0.0000000E+000	-1.9572807E+001	0.0000000E+000	0.0000000E+000	0.0000000E+000	1.9572807E+001	2.8125496E+000	7.0427193E+001	-2.170478013512265E-006	-4.0509462E-006	3.1870734E+004
2.1556899E+003	3.8958657E+000	1.4651574E+000	4.1622658E+000	-2.0610279E+001	6.984676305110042E+000	3.5932168E-001	-1.0841995E-002	5.0390602E+001	6.2439365E+000	1.000000000000000E+000	10	4.9911807E-003	1.1991499E-003	0	-1.958575120667875E-006	2.2487666E-001	8.4571622E-002	2.4025376E-001	2.0610279E+001	6.2439360E+003	1.6602682E+004	1.7737975E+004	-6.9389725E+001	0.0000000E+000	0.0000000E+000	0.0000000E+000	6.9389725E+001	0.0000000E+000	0.0000000E+000	0.0000000E+000	-6.9389725E+001	0.0000000E+000	0.0000000E+000	0.0000000E+000	-2.0610279E+001	0.0000000E+000	0.0000000E+000	0.0000000E+000	2.0610279E+001	2.6590083E+000	6.9389725E+001	-6.375465676020311E-007	-3.8957637E-006	3.3141660E+004
1.4685898E+003	4.2255192E+000	1.6749883E+000	4.5453930E+000	-2.1623285E+001	7.451966567285126E+000	3.5931909E-001	-1.0936988E-002	6.4700531E+001	8.7859459E+000	1.000000000000000E+000	10	4.9463576E-003	1.0882134E-003	0	-2.598767254449841E-006	2.0452067E-001	8.1071623E-002	2.2000298E-001	2.1623285E+001	8.7859443E+003	2.2164441E+004	2.3842301E+004	-6.8376717E+001	0.0000000E+000	0.0000000E+000	0.0000000E+000	6.8376717E+001	0.0000000E+000	0.0000000E+000	0.0000000E+000	-6.8376717E+001	0.0000000E+000	0.0000000E+000	0.0000000E+000	-2.1623285E+001	0.0000000E+000	0.0000000E+000	0.0000000E+000	2.1623285E+001	2.5227156E+000	6.8376717E+001	-6.401921337819660E-007	-3.9298684E-006	3.2853570E+004
1.0003202E+003	4.5768018E+000	1.9302841E+000	4.9672036E+000	-2.2867775E+001	7.920707522898738E+000	3.5932723E-001	-1.0352130E-002	8.2425171E+001	1.2447393E+001	1.000000000000000E+000	10	4.8949379E-003	9.8545139E-004	0	-4.625768133846577E-006	1.8549755E-001	7.8234315E-002	2.0132051E-001	2.2867775E+001	1.2447394E+004	2.9513404E+004	3.2030900E+004	-6.7132225E+001	0.0000000E+000	0.0000000E+000	0.0000000E+000	6.7132225E+001	0.0000000E+000	0.0000000E+000	0.0000000E+000	-6.7132225E+001	0.0000000E+000	0.0000000E+000	0.0000000E+000	-2.2867775E+001	0.0000000E+000	0.0000000E+000	0.0000000E+000	2.2867775E+001	2.3710508E+000	6.7132225E+001	-2.027000879396736E-006	-3.7198022E-006	3.4710465E+004
6.8108978E+002	4.9702706E+000	2.2573178E+000	5.4588528E+000	-2.4425837E+001	8.386416984983953E+000	3.5932001E-001	-1.0780533E-002	1.0351972E+002	1.7701323E+001	1.000000000000000E+000	10	4.8605958E-003	8.9040608E-004	0	-6.724361119805912E-006	1.6679280E-001	7.5751275E-002	1.8318868E-001	2.4425837E+001	1.7701320E+004	3.8975617E+004	4.2806957E+004	-6.5574165E+001	0.0000000E+000	0.0000000E+000	0.0000000E+000	6.5574165E+001	0.0000000E+000	0.0000000E+000	0.0000000E+000	-6.5574165E+001	0.0000000E+000	0.0000000E+000	0.0000000E+000	-2.4425837E+001	0.0000000E+000	0.0000000E+000	0.0000000E+000	2.4425837E+001	2.2018480E+000	6.5574165E+001	-2.098592985959334E-006	-3.8736612E-006	3.3330449E+004
4.6396069E+002	5.4209256E+000	2.6775382E+000	6.0461264E+000	-2.6285982E+001	8.855222420563223E+000	3.5931873E-001	-1.0607318E-002	1.2811597E+002	2.5125814E+001	1.000000000000000E+000	10	4.8419172E-003	8.0082961E-004	0	-7.700359868383708E-006	1.4829244E-001	7.3245548E-002	1.6539516E-001	2.6285982E+001	2.5125814E+004	5.0869559E+004	5.6736395E+004	-6.3714020E+001	0.0000000E+000	0.0000000E+000	0.0000000E+000	6.3714020E+001	0.0000000E+000	0.0000000E+000	0.0000000E+000	-6.3714020E+001	0.0000000E+000	0.0000000E+000	0.0000000E+000	-2.6285982E+001	0.0000000E+000	0.0000000E+000	0.0000000E+000	2.6285982E+001	2.0245931E+000	6.3714020E+001	-9.759987485777965E-007	-3.8114081E-006	3.3874605E+004
3.1631589E+002	5.9442902E+000	3.2454920E+000	6.7725773E+000	-2.8633869E+001	9.321928949444555E+000	3.5931864E-001	-1.0625944E-002	1.5503102E+002	3.5601780E+001	1.000000000000000E+000	10	4.8237047E-003	7.1224064E-004	0	-9.094172791716927E-006	1.2959614E-001	7.0757523E-002	1.4765428E-001	2.8633869E+001	3.5601777E+004	6.5206535E+004	7.4292523E+004	-6.1366131E+001	0.0000000E+000	0.0000000E+000	0.0000000E+000	6.1366131E+001	0.0000000E+000	0.0000000E+000	0.0000000E+000	-6.1366131E+001	0.0000000E+000	0.0000000E+000	0.0000000E+000	-2.8633869E+001	0.0000000E+000	0.0000000E+000	0.0000000E+000	2.8633869E+001	1.8315529E+000	6.1366135E+001	-1.393812923333219E-006	-3.8181001E-006	3.3815219E+004
2.1534457E+002	6.6191077E+000	3.9898984E+000	7.7286401E+000	-3.1080940E+001	9.789454358309740E+000	3.5931346E-001	-1.0720938E-002	1.8523557E+002	4.9367588E+001	1.000000000000000E+000	10	4.8094429E-003	6.2228838E-004	0	-1.087243906469343E-005	1.1081365E-001	6.6796802E-002	1.2938887E-001	3.1080940E+001	4.9367586E+004	8.1899164E+004	9.5627570E+004	-5.8919060E+001	0.0000000E+000	0.0000000E+000	0.0000000E+000	5.8919060E+001	0.0000000E+000	0.0000000E+000	0.0000000E+000	-5.8919060E+001	0.0000000E+000	0.0000000E+000	0.0000000E+000	-3.1080940E+001	0.0000000E+000	0.0000000E+000	0.0000000E+000	3.1080940E+001	1.6589664E+000	5.8919060E+001	-1.778266272976503E-006	-3.8521771E-006	3.3515117E+004
1.4673740E+002	7.5480714E+000	4.9234900E+000	9.0118885E+000	-3.3115788E+001	1.025238870028988E+001	3.5931382E-001	-1.0687415E-002	2.2029581E+002	6.5753784E+001	1.000000000000000E+000	10	4.8003565E-003	5.3266931E-004	0	-1.206114877385618E-005	9.2940368E-002	6.0623564E-002	1.1096454E-001	3.3115788E+001	6.5753781E+004	1.0080538E+005	1.2035482E+005	-5.6884212E+001	0.0000000E+000	0.0000000E+000	0.0000000E+000	5.6884212E+001	0.0000000E+000	0.0000000E+000	0.0000000E+000	-5.6884212E+001	0.0000000E+000	0.0000000E+000	0.0000000E+000	-3.3115788E+001	0.0000000E+000	0.0000000E+000	0.0000000E+000	3.3115788E+001	1.5330733E+000	5.6884216E+001	-1.188709709162747E-006	-3.8401358E-006	3.3620273E+004
1.0003201E+002	8.8518620E+000	5.9767489E+000	1.0680683E+001	-3.4027096E+001	1.071969645584613E+001	3.5931978E-001	-1.0219902E-002	2.6620496E+002	8.3358154E+001	1.000000000000000E+000	10	4.7952929E-003	4.4896873E-004	0	-1.298146281284345E-005	7.7595510E-002	5.2392237E-002	9.3626969E-002	3.4027096E+001	8.3358156E+004	1.2345756E+005	1.4896427E+005	-5.5972904E+001	0.0000000E+000	0.0000000E+000	0.0000000E+000	5.5972904E+001	0.0000000E+000	0.0000000E+000	0.0000000E+000	-5.5972904E+001	0.0000000E+000	0.0000000E+000	0.0000000E+000	-3.4027096E+001	0.0000000E+000	0.0000000E+000	0.0000000E+000	3.4027096E+001	1.4810497E+000	5.5972900E+001	-9.203140389872717E-007	-3.6722129E-006	3.5158828E+004
6.8103981E+001	1.0595784E+001	6.9992142E+000	1.2698805E+001	-3.3447392E+001	1.119834943852038E+001	3.5932526E-001	-8.5342443E-003	3.3388611E+002	1.0143111E+002	1.000000000000000E+000	10	4.7906470E-003	3.7725180E-004	0	-1.372884073980822E-005	6.5706365E-002	4.3403383E-002	7.8747571E-002	3.3447392E+001	1.0143111E+005	1.5355184E+005	1.8402836E+005	-5.6552608E+001	0.0000000E+000	0.0000000E+000	0.0000000E+000	5.6552608E+001	0.0000000E+000	0.0000000E+000	0.0000000E+000	-5.6552608E+001	0.0000000E+000	0.0000000E+000	0.0000000E+000	-3.3447392E+001	0.0000000E+000	0.0000000E+000	0.0000000E+000	3.3447392E+001	1.5138534E+000	5.6552612E+001	-7.473779269647710E-007	-3.0665694E-006	4.2103934E+004
4.6441547E+001	1.2747520E+001	7.7829776E+000	1.4935662E+001	-3.1406084E+001	1.165353407346993E+001	3.5931185E-001	-1.2615222E-002	4.4031924E+002	1.1956670E+002	1.000000000000000E+000	10	4.7982885E-003	3.2126385E-004	0	-1.509317009455602E-005	5.7144802E-002	3.4889668E-002	6.6953845E-002	3.1406084E+001	1.1956670E+005	1.9583495E+005	2.2945048E+005	-5.8593918E+001	0.0000000E+000	0.0000000E+000	0.0000000E+000	5.8593918E+001	0.0000000E+000	0.0000000E+000	0.0000000E+000	-5.8593918E+001	0.0000000E+000	0.0000000E+000	0.0000000E+000	-3.1406084E+001	0.0000000E+000	0.0000000E+000	0.0000000E+000	3.1406084E+001	1.6378720E+000	5.8593918E+001	-1.364329354747801E-006	-4.5327988E-006	2.8482402E+004
3.1629555E+001	1.5168941E+001	8.2597952E+000	1.7271971E+001	-2.8569185E+001	1.234342287961044E+001	3.5933951E-001	-7.2262101E-003	6.0919696E+002	1.3931970E+002	1.000000000000000E+000	11	4.8007430E-003	2.7794993E-004	0	-1.679386443208366E-005	5.0847720E-002	2.7687611E-002	5.7897273E-002	2.8569185E+001	1.3931969E+005	2.5585772E+005	2.9132997E+005	-6.1430817E+001	0.0000000E+000	0.0000000E+000	0.0000000E+000	6.1430817E+001	0.0000000E+000	0.0000000E+000	0.0000000E+000	-6.1430817E+001	0.0000000E+000	0.0000000E+000	0.0000000E+000	-2.8569185E+001	0.0000000E+000	0.0000000E+000	0.0000000E+000	2.8569185E+001	1.8364791E+000	6.1430817E+001	-1.700694337527643E-006	-2.5966629E-006	4.9727242E+004
2.1551722E+001	1.7556253E+001	8.3313456E+000	1.9432791E+001	-2.5386744E+001	1.278136559374980E+001	3.5933104E-001	-7.4944776E-003	8.8638623E+002	1.6292320E+002	1.000000000000000E+000	11	4.7929711E-003	2.4664347E-004	0	-1.683982270551900E-005	4.6490211E-002	2.2061994E-002	5.1459413E-002	2.5386744E+001	1.6292319E+005	3.4332044E+005	3.8001697E+005	-6.4613258E+001	0.0000000E+000	0.0000000E+000	0.0000000E+000	6.4613258E+001	0.0000000E+000	0.0000000E+000	0.0000000E+000	-6.4613258E+001	0.0000000E+000	0.0000000E+000	0.0000000E+000	-2.5386744E+001	0.0000000E+000	0.0000000E+000	0.0000000E+000	2.5386744E+001	2.1072531E+000	6.4613258E+001	-4.595827343534169E-008	-2.6929984E-006	4.7946109E+004
1.4685154E+001	1.9824478E+001	8.1573772E+000	2.1437181E+001	-2.2366188E+001	1.325905518975924E+001	3.5934263E-001	-6.5030656E-003	1.3285902E+003	1.9237862E+002	1.000000000000000E+000	11	4.7909766E-003	2.2348911E-004	0	-1.765446966605103E-005	4.3138638E-002	1.7750688E-002	4.6647925E-002	2.2366188E+001	1.9237863E+005	4.6752847E+005	5.0556147E+005	-6.7633812E+001	0.0000000E+000	0.0000000E+000	0.0000000E+000	6.7633812E+001	0.0000000E+000	0.0000000E+000	0.0000000E+000	-6.7633812E+001	0.0000000E+000	0.0000000E+000	0.0000000E+000	-2.2366188E+001	0.0000000E+000	0.0000000E+000	0.0000000E+000	2.2366188E+001	2.4302516E+000	6.7633812E+001	-8.146469605320213E-007	-2.3368286E-006	5.5257422E+004
