
EC-Lab ASCII FILE
Nb header lines : 63                          

Potentio Electrochemical Impedance Spectroscopy

Run on channel : 1 (SN 66354)
User : 
CE vs. WE compliance from -10 V to 10 V
Electrode connection : standard
Potential control : Ewe
Ewe ctrl range : min = -10.00 V, max = 10.00 V
Safety Limits :
	Do not start on E overload
Acquisition started on : 09/22/2025 10:43:15.806
Loaded Setting File :  C:\Users\Celltest\OneDrive - store-dot.com\Documents\EC-Lab\Data\txt_done\14380_R229_UA592_SOC00_C01.mpr
Saved on :
	File : 14954_R243_UA603_SOC00_C01.mpr
	Directory : C:\Users\Celltest\OneDrive - store-dot.com\Documents\EC-Lab\Data\Anna\
	Host : 169.254.61.224
Device : VMP-3e (SN .003165)
Address : USB
EC-LAB for windows v11.62 (software)
Internet server v27.00 (firmware)
Command interpretor v12.03 (firmware)
Electrode material : 
Initial state : 
Electrolyte : 
Comments : 
Electrode surface area : 0.001 cm²
Characteristic mass : 0.001 g
Equivalent Weight : 0.000 g/eq.
Density : 0.000 g/cm3
Volume (V) : 0.001 cm³
Cycle Definition : Charge/Discharge alternance
Mode                Single sine         
E (V)               0.0000              
vs.                 Eoc                 
tE (h:m:s)          0:00:0.0000         
record              0                   
dI                  0.000               
unit dI             mA                  
dt (s)              0.000               
fi                  100.000             
unit fi             kHz                 
ff                  10.000              
unit ff             mHz                 
Nd                  6                   
Points              per decade          
spacing             Logarithmic         
Va (mV)             5.0                 
pw                  0.10                
Na                  2                   
corr                0                   
E range min (V)     -10.000             
E range max (V)     10.000              
I Range             Auto                
Bandwidth           5                   
nc cycles           0                   
goto Ns'            0                   
nr cycles           0                   
inc. cycle          0                   

freq/Hz	Re(Z)/Ohm	-Im(Z)/Ohm	|Z|/Ohm	Phase(Z)/deg	time/s	<Ewe>/V	<I>/mA	Cs/µF	Cp/µF	cycle number	I Range	|Ewe|/V	|I|/A	Ns	(Q-Qo)/mA.h	Re(Y)/Ohm-1	Im(Y)/Ohm-1	|Y|/Ohm-1	Phase(Y)/deg	Re(C)/nF	Im(C)/nF	|C|/nF	Phase(C)/deg	Re(M)	Im(M)	|M|	Phase(M)/deg	Re(Permittivity)	Im(Permittivity)	|Permittivity|	Phase(Permittivity)/deg	Re(Resistivity)/Ohm.cm	Im(Resistivity)/Ohm.cm	|Resistivity|/Ohm.cm	Phase(Resistivity)/deg	Re(Conductivity)/mS/cm	Im(Conductivity)/mS/cm	|Conductivity|/mS/cm	Phase(Conductivity)/deg	Tan(Delta)	Loss Angle(Delta)/deg	dq/mA.h	Pwe/W	Rwe/Ohm	
1.0000371E+005	3.8225527E+000	5.2527905E-001	3.8584747E+000	-7.8243403E+000	2.024483776156558E+000	3.6267731E-001	-1.8761847E-002	3.0297997E+000	5.6151681E-002	1.000000000000000E+000	10	4.9254471E-003	1.2765269E-003	0	-2.524239714781288E-006	2.5675690E-001	3.5282452E-002	2.5916976E-001	7.8243403E+000	5.6151680E+001	4.0862613E+002	4.1246616E+002	-8.2175659E+001	0.0000000E+000	0.0000000E+000	0.0000000E+000	8.2175659E+001	0.0000000E+000	0.0000000E+000	0.0000000E+000	-8.2175659E+001	0.0000000E+000	0.0000000E+000	0.0000000E+000	-7.8243403E+000	0.0000000E+000	0.0000000E+000	0.0000000E+000	7.8243403E+000	7.2771850E+000	8.2175659E+001	-2.524239714781288E-006	-6.8044960E-006	1.9330576E+004
6.8132047E+004	3.9204473E+000	5.3964913E-001	3.9574144E+000	-7.8375044E+000	2.461498410237255E+000	3.6267519E-001	-1.7804017E-002	4.3286972E+000	8.0492817E-002	1.000000000000000E+000	10	5.3400029E-003	1.3493666E-003	0	-3.406302092907329E-006	2.5032982E-001	3.4457870E-002	2.5269026E-001	7.8375044E+000	8.0492775E+001	5.8476483E+002	5.9027875E+002	-8.2162498E+001	0.0000000E+000	0.0000000E+000	0.0000000E+000	8.2162498E+001	0.0000000E+000	0.0000000E+000	0.0000000E+000	-8.2162498E+001	0.0000000E+000	0.0000000E+000	0.0000000E+000	-7.8375044E+000	0.0000000E+000	0.0000000E+000	0.0000000E+000	7.8375044E+000	7.2648082E+000	8.2162498E+001	-8.820623781260411E-007	-6.4570754E-006	2.0370414E+004
4.6420355E+004	4.0247054E+000	5.6240356E-001	4.0638099E+000	-7.9548774E+000	2.898492217616877E+000	3.6268058E-001	-1.7543135E-002	6.0962620E+000	1.1675970E-001	1.000000000000000E+000	10	5.3415364E-003	1.3144159E-003	0	-3.728487713207465E-006	2.4370661E-001	3.4055032E-002	2.4607450E-001	7.9548774E+000	1.1675975E+002	8.3556262E+002	8.4368109E+002	-8.2045120E+001	0.0000000E+000	0.0000000E+000	0.0000000E+000	8.2045120E+001	0.0000000E+000	0.0000000E+000	0.0000000E+000	-8.2045120E+001	0.0000000E+000	0.0000000E+000	0.0000000E+000	-7.9548774E+000	0.0000000E+000	0.0000000E+000	0.0000000E+000	7.9548774E+000	7.1562586E+000	8.2045120E+001	-3.221856203001355E-007	-6.3625544E-006	2.0673646E+004
3.1621139E+004	4.1342993E+000	6.0465473E-001	4.1782818E+000	-8.3207026E+000	3.335483518399997E+000	3.6267832E-001	-1.7593453E-002	8.3240595E+000	1.7432298E-001	1.000000000000000E+000	10	5.2574975E-003	1.2582918E-003	0	-5.797877026152693E-006	2.3681350E-001	3.4634747E-002	2.3933282E-001	8.3207026E+000	1.7432295E+002	1.1919254E+003	1.2046056E+003	-8.1679298E+001	0.0000000E+000	0.0000000E+000	0.0000000E+000	8.1679298E+001	0.0000000E+000	0.0000000E+000	0.0000000E+000	-8.1679298E+001	0.0000000E+000	0.0000000E+000	0.0000000E+000	-8.3207026E+000	0.0000000E+000	0.0000000E+000	0.0000000E+000	8.3207026E+000	6.8374548E+000	8.1679298E+001	-2.069389312945228E-006	-6.3807638E-006	2.0614391E+004
2.1544684E+004	4.2649474E+000	6.6756928E-001	4.3168769E+000	-8.8960180E+000	3.772478072467493E+000	3.6267459E-001	-1.7000867E-002	1.1065822E+001	2.6462877E-001	1.000000000000000E+000	10	5.2496674E-003	1.2160799E-003	0	-8.765479682323833E-006	2.2886236E-001	3.5822593E-002	2.3164895E-001	8.8960180E+000	2.6462878E+002	1.6906527E+003	1.7112378E+003	-8.1103981E+001	0.0000000E+000	0.0000000E+000	0.0000000E+000	8.1103981E+001	0.0000000E+000	0.0000000E+000	0.0000000E+000	-8.1103981E+001	0.0000000E+000	0.0000000E+000	0.0000000E+000	-8.8960180E+000	0.0000000E+000	0.0000000E+000	0.0000000E+000	8.8960180E+000	6.3887711E+000	8.1103981E+001	-2.967602656171140E-006	-6.1657825E-006	2.1332711E+004
1.4678594E+004	4.3975463E+000	7.4318200E-001	4.4599028E+000	-9.5923071E+000	4.210484253271716E+000	3.6268660E-001	-1.5711345E-002	1.4589502E+001	4.0511662E-001	1.000000000000000E+000	10	5.2326252E-003	1.1732599E-003	0	-1.207592072863675E-005	2.2108519E-001	3.7363227E-002	2.2422014E-001	9.5923071E+000	4.0511664E+002	2.3971504E+003	2.4311416E+003	-8.0407692E+001	0.0000000E+000	0.0000000E+000	0.0000000E+000	8.0407692E+001	0.0000000E+000	0.0000000E+000	0.0000000E+000	-8.0407692E+001	0.0000000E+000	0.0000000E+000	0.0000000E+000	-9.5923071E+000	0.0000000E+000	0.0000000E+000	0.0000000E+000	9.5923071E+000	5.9171863E+000	8.0407692E+001	-3.310441046312917E-006	-5.6982944E-006	2.3084377E+004
1.0002226E+004	4.5671258E+000	8.3578986E-001	4.6429715E+000	-1.0370449E+001	4.647479314036900E+000	3.6268124E-001	-1.6760480E-002	1.9038223E+001	6.1691958E-001	1.000000000000000E+000	10	5.0982526E-003	1.0980581E-003	0	-1.363868822172258E-005	2.1186097E-001	3.8770825E-002	2.1537931E-001	1.0370449E+001	6.1691974E+002	3.3711218E+003	3.4271055E+003	-7.9629547E+001	0.0000000E+000	0.0000000E+000	0.0000000E+000	7.9629547E+001	0.0000000E+000	0.0000000E+000	0.0000000E+000	-7.9629547E+001	0.0000000E+000	0.0000000E+000	0.0000000E+000	-1.0370449E+001	0.0000000E+000	0.0000000E+000	0.0000000E+000	1.0370449E+001	5.4644427E+000	7.9629547E+001	-1.562767493085832E-006	-6.0787115E-006	2.1639072E+004
6.8110674E+003	4.7448487E+000	9.5884615E-001	4.8407617E+000	-1.1424562E+001	5.201490087056300E+000	3.6271784E-001	-6.8840939E-003	2.4370028E+001	9.5615101E-001	1.000000000000000E+000	10	5.0677746E-003	1.0468961E-003	0	-1.210426789242451E-005	2.0248598E-001	4.0918674E-002	2.0657906E-001	1.1424562E+001	9.5615088E+002	4.7315112E+003	4.8271548E+003	-7.8575439E+001	0.0000000E+000	0.0000000E+000	0.0000000E+000	7.8575439E+001	0.0000000E+000	0.0000000E+000	0.0000000E+000	-7.8575439E+001	0.0000000E+000	0.0000000E+000	0.0000000E+000	-1.1424562E+001	0.0000000E+000	0.0000000E+000	0.0000000E+000	1.1424562E+001	4.9484982E+000	7.8575439E+001	1.534420329298073E-006	-2.4969836E-006	5.2689266E+004
4.6414854E+003	4.9626403E+000	1.1053302E+000	5.0842457E+000	-1.2556543E+001	5.672711282793898E+000	3.6273727E-001	-1.9237354E-004	3.1022095E+001	1.4662302E+000	1.000000000000000E+000	10	5.2466472E-003	1.0319421E-003	0	-1.132856718977038E-005	1.9198166E-001	4.2760126E-002	1.9668601E-001	1.2556543E+001	1.4662299E+003	6.5829854E+003	6.7442959E+003	-7.7443459E+001	0.0000000E+000	0.0000000E+000	0.0000000E+000	7.7443459E+001	0.0000000E+000	0.0000000E+000	0.0000000E+000	-7.7443459E+001	0.0000000E+000	0.0000000E+000	0.0000000E+000	-1.2556543E+001	0.0000000E+000	0.0000000E+000	0.0000000E+000	1.2556543E+001	4.4897356E+000	7.7443459E+001	7.757007026541248E-007	-6.9781052E-008	1.8855881E+006
3.1610117E+003	5.2088041E+000	1.2786610E+000	5.3634520E+000	-1.3792281E+001	6.139701224972669E+000	3.6275259E-001	4.8965623E-004	3.9376633E+001	2.2380030E+000	1.000000000000000E+000	10	5.2954690E-003	9.8732475E-004	0	-1.134890372742585E-005	1.8107115E-001	4.4449475E-002	1.8644708E-001	1.3792281E+001	2.2380032E+003	9.1168184E+003	9.3874932E+003	-7.6207718E+001	0.0000000E+000	0.0000000E+000	0.0000000E+000	7.6207718E+001	0.0000000E+000	0.0000000E+000	0.0000000E+000	-7.6207718E+001	0.0000000E+000	0.0000000E+000	0.0000000E+000	-1.3792281E+001	0.0000000E+000	0.0000000E+000	0.0000000E+000	1.3792281E+001	4.0736394E+000	7.6207718E+001	-2.033653765546662E-008	1.7762406E-007	7.4083113E+005
2.1556899E+003	5.4778714E+000	1.4835533E+000	5.6752095E+000	-1.5153708E+001	6.606703273821040E+000	3.6274880E-001	1.5982275E-004	4.9765762E+001	3.4007380E+000	1.000000000000000E+000	10	5.2786274E-003	9.3012024E-004	0	-1.149837289677493E-005	1.7007795E-001	4.6061635E-002	1.7620495E-001	1.5153708E+001	3.4007380E+003	1.2556883E+004	1.3009240E+004	-7.4846291E+001	0.0000000E+000	0.0000000E+000	0.0000000E+000	7.4846291E+001	0.0000000E+000	0.0000000E+000	0.0000000E+000	-7.4846291E+001	0.0000000E+000	0.0000000E+000	0.0000000E+000	-1.5153708E+001	0.0000000E+000	0.0000000E+000	0.0000000E+000	1.5153708E+001	3.6923995E+000	7.4846291E+001	-1.494691693490787E-007	5.7975512E-008	2.2696943E+006
1.4685898E+003	5.8041644E+000	1.7289624E+000	6.0562062E+000	-1.6587906E+001	7.073948869336164E+000	3.6274108E-001	3.4616841E-004	6.2680737E+001	5.1086230E+000	1.000000000000000E+000	10	5.2648787E-003	8.6933607E-004	0	-1.080027957731606E-005	1.5824805E-001	4.7139425E-002	1.6511987E-001	1.6587906E+001	5.1086235E+003	1.7149758E+004	1.7894475E+004	-7.3412094E+001	0.0000000E+000	0.0000000E+000	0.0000000E+000	7.3412094E+001	0.0000000E+000	0.0000000E+000	0.0000000E+000	-7.3412094E+001	0.0000000E+000	0.0000000E+000	0.0000000E+000	-1.6587906E+001	0.0000000E+000	0.0000000E+000	0.0000000E+000	1.6587906E+001	3.3570218E+000	7.3412094E+001	6.980933194588726E-007	1.2556950E-007	1.0478746E+006
1.0003202E+003	6.1741624E+000	2.0174985E+000	6.4954276E+000	-1.8095568E+001	7.543667691665178E+000	3.6274353E-001	5.1946606E-004	7.8862015E+001	7.6081457E+000	1.000000000000000E+000	10	5.2426513E-003	8.0712949E-004	0	-1.133671241523633E-005	1.4633982E-001	4.7818698E-002	1.5395445E-001	1.8095568E+001	7.6081455E+003	2.3283252E+004	2.4494770E+004	-7.1904434E+001	0.0000000E+000	0.0000000E+000	0.0000000E+000	7.1904434E+001	0.0000000E+000	0.0000000E+000	0.0000000E+000	-7.1904434E+001	0.0000000E+000	0.0000000E+000	0.0000000E+000	-1.8095568E+001	0.0000000E+000	0.0000000E+000	0.0000000E+000	1.8095568E+001	3.0603058E+000	7.1904434E+001	-5.364328379202751E-007	1.8843295E-007	6.9830075E+005
6.8108978E+002	6.5797534E+000	2.3820848E+000	6.9976768E+000	-1.9901905E+001	8.009453580394620E+000	3.6273670E-001	-8.8028166E-005	9.8097641E+001	1.1367508E+001	1.000000000000000E+000	10	5.2214619E-003	7.4617076E-004	0	-1.134424951363083E-005	1.3436985E-001	4.8646260E-002	1.4290456E-001	1.9901905E+001	1.1367505E+004	3.1399131E+004	3.3393496E+004	-7.0098099E+001	0.0000000E+000	0.0000000E+000	0.0000000E+000	7.0098099E+001	0.0000000E+000	0.0000000E+000	0.0000000E+000	-7.0098099E+001	0.0000000E+000	0.0000000E+000	0.0000000E+000	-1.9901905E+001	0.0000000E+000	0.0000000E+000	0.0000000E+000	1.9901905E+001	2.7621827E+000	7.0098099E+001	-7.537098394500547E-009	-3.1931048E-008	4.1206890E+006
4.6396069E+002	7.0661421E+000	2.8608525E+000	7.6233091E+000	-2.2041433E+001	8.478202295984374E+000	3.6274189E-001	9.2726426E-005	1.1990670E+002	1.6886799E+001	1.000000000000000E+000	10	5.2158781E-003	6.8420131E-004	0	-1.145004207069077E-005	1.2158929E-001	4.9227573E-002	1.3117664E-001	2.2041433E+001	1.6886801E+004	4.1709430E+004	4.4998230E+004	-6.7958565E+001	0.0000000E+000	0.0000000E+000	0.0000000E+000	6.7958565E+001	0.0000000E+000	0.0000000E+000	0.0000000E+000	-6.7958565E+001	0.0000000E+000	0.0000000E+000	0.0000000E+000	-2.2041433E+001	0.0000000E+000	0.0000000E+000	0.0000000E+000	2.2041433E+001	2.4699428E+000	6.7958565E+001	-1.057925570599351E-007	3.3635757E-008	3.9119580E+006
3.1631589E+002	7.6265693E+000	3.4602780E+000	8.3748484E+000	-2.4404440E+001	8.944910104852170E+000	3.6273906E-001	-2.3096945E-006	1.4540794E+002	2.4823112E+001	1.000000000000000E+000	10	5.2012438E-003	6.2105531E-004	0	-1.190083735484707E-005	1.0873650E-001	4.9335223E-002	1.1940515E-001	2.4404440E+001	2.4823113E+004	5.4710977E+004	6.0078930E+004	-6.5595558E+001	0.0000000E+000	0.0000000E+000	0.0000000E+000	6.5595558E+001	0.0000000E+000	0.0000000E+000	0.0000000E+000	-6.5595558E+001	0.0000000E+000	0.0000000E+000	0.0000000E+000	-2.4404440E+001	0.0000000E+000	0.0000000E+000	0.0000000E+000	2.4404440E+001	2.2040336E+000	6.5595558E+001	-4.507952841563066E-007	-8.3781643E-010	1.5705066E+008
2.1534457E+002	8.3242674E+000	4.2576761E+000	9.3499327E+000	-2.7088724E+001	9.412429273681482E+000	3.6273128E-001	-4.8308796E-004	1.7358556E+002	3.5994976E+001	1.000000000000000E+000	10	5.1919073E-003	5.5528822E-004	0	-1.216450021888078E-005	9.5220201E-002	4.8702992E-002	1.0695264E-001	2.7088724E+001	3.5994969E+004	7.0374492E+004	7.9045602E+004	-6.2911278E+001	0.0000000E+000	0.0000000E+000	0.0000000E+000	6.2911278E+001	0.0000000E+000	0.0000000E+000	0.0000000E+000	-6.2911278E+001	0.0000000E+000	0.0000000E+000	0.0000000E+000	-2.7088724E+001	0.0000000E+000	0.0000000E+000	0.0000000E+000	2.7088724E+001	1.9551200E+000	6.2911278E+001	-2.636628640337014E-007	-1.7523111E-007	7.5085969E+005
1.4673740E+002	9.2648687E+000	5.2651024E+000	1.0656411E+001	-2.9608997E+001	9.875406869017752E+000	3.6273131E-001	-8.2223990E-004	2.0600250E+002	5.0287979E+001	1.000000000000000E+000	10	5.1913774E-003	4.8716000E-004	0	-1.195369401309775E-005	8.1586324E-002	4.6364430E-002	9.3840227E-002	2.9608997E+001	5.0287984E+004	8.8490500E+004	1.0178138E+005	-6.0391003E+001	0.0000000E+000	0.0000000E+000	0.0000000E+000	6.0391003E+001	0.0000000E+000	0.0000000E+000	0.0000000E+000	-6.0391003E+001	0.0000000E+000	0.0000000E+000	0.0000000E+000	-2.9608997E+001	0.0000000E+000	0.0000000E+000	0.0000000E+000	2.9608997E+001	1.7596749E+000	6.0391006E+001	2.108062057830253E-007	-2.9825216E-007	4.4115022E+005
1.0003201E+002	1.0574151E+001	6.4967308E+000	1.2410487E+001	-3.1566458E+001	1.034368702465144E+001	3.6273855E-001	4.6355071E-004	2.4489859E+002	6.7111717E+001	1.000000000000000E+000	10	5.1945648E-003	4.1856253E-004	0	-1.148519239126472E-005	6.8654321E-002	4.2181037E-002	8.0577016E-002	3.1566458E+001	6.7111727E+004	1.0923177E+005	1.2820127E+005	-5.8433540E+001	0.0000000E+000	0.0000000E+000	0.0000000E+000	5.8433540E+001	0.0000000E+000	0.0000000E+000	0.0000000E+000	-5.8433540E+001	0.0000000E+000	0.0000000E+000	0.0000000E+000	-3.1566458E+001	0.0000000E+000	0.0000000E+000	0.0000000E+000	3.1566458E+001	1.6276110E+000	5.8433540E+001	4.685016218330329E-007	1.6814771E-007	7.8252181E+005
6.8103981E+001	1.2407706E+001	7.8318796E+000	1.4672748E+001	-3.2260567E+001	1.082233928734786E+001	3.6274713E-001	1.3822389E-003	2.9838818E+002	8.5014053E+001	1.000000000000000E+000	10	5.1921080E-003	3.5386064E-004	0	-1.094365177562738E-005	5.7632655E-002	3.6378358E-002	6.8153560E-002	3.2260567E+001	8.5014055E+004	1.3468408E+005	1.5927081E+005	-5.7739433E+001	0.0000000E+000	0.0000000E+000	0.0000000E+000	5.7739433E+001	0.0000000E+000	0.0000000E+000	0.0000000E+000	-5.7739433E+001	0.0000000E+000	0.0000000E+000	0.0000000E+000	-3.2260567E+001	0.0000000E+000	0.0000000E+000	0.0000000E+000	3.2260567E+001	1.5842565E+000	5.7739433E+001	5.415406156373333E-007	5.0140324E-007	2.6243447E+005
4.6441547E+001	1.4820127E+001	9.0096960E+000	1.7343897E+001	-3.1296944E+001	1.127756445560954E+001	3.6271882E-001	-2.4229677E-003	3.8036743E+002	1.0264321E+002	1.000000000000000E+000	10	5.1873834E-003	2.9908985E-004	0	-1.102926610889780E-005	4.9267277E-002	2.9951375E-002	5.7657171E-002	3.1296944E+001	1.0264320E+005	1.6883870E+005	1.9759083E+005	-5.8703056E+001	0.0000000E+000	0.0000000E+000	0.0000000E+000	5.8703056E+001	0.0000000E+000	0.0000000E+000	0.0000000E+000	-5.8703056E+001	0.0000000E+000	0.0000000E+000	0.0000000E+000	-3.1296944E+001	0.0000000E+000	0.0000000E+000	0.0000000E+000	3.1296944E+001	1.6449087E+000	5.8703056E+001	-8.561433327041514E-008	-8.7885599E-007	1.4970023E+005
3.1629555E+001	1.7813259E+001	9.7717333E+000	2.0317455E+001	-2.8747639E+001	1.196843875510967E+001	3.6274481E-001	-6.0733701E-003	5.1493860E+002	1.1911324E+002	1.000000000000000E+000	11	5.1868996E-003	2.5529278E-004	0	-1.171651898107504E-005	4.3152381E-002	2.3671893E-002	4.9218763E-002	2.8747639E+001	1.1911323E+005	2.1713597E+005	2.4766105E+005	-6.1252361E+001	0.0000000E+000	0.0000000E+000	0.0000000E+000	6.1252361E+001	0.0000000E+000	0.0000000E+000	0.0000000E+000	-6.1252361E+001	0.0000000E+000	0.0000000E+000	0.0000000E+000	-2.8747639E+001	0.0000000E+000	0.0000000E+000	0.0000000E+000	2.8747639E+001	1.8229375E+000	6.1252365E+001	-6.872528721772437E-007	-2.2030836E-006	5.9727105E+004
2.1551722E+001	2.0952215E+001	9.8293915E+000	2.3143299E+001	-2.5132860E+001	1.240736653594649E+001	3.6274466E-001	-6.2835850E-003	7.5129675E+002	1.3552338E+002	1.000000000000000E+000	11	5.1807528E-003	2.2385542E-004	0	-1.174063651147784E-005	3.9118249E-002	1.8351693E-002	4.3209050E-002	2.5132860E+001	1.3552339E+005	2.8888006E+005	3.1908978E+005	-6.4867142E+001	0.0000000E+000	0.0000000E+000	0.0000000E+000	6.4867142E+001	0.0000000E+000	0.0000000E+000	0.0000000E+000	-6.4867142E+001	0.0000000E+000	0.0000000E+000	0.0000000E+000	-2.5132860E+001	0.0000000E+000	0.0000000E+000	0.0000000E+000	2.5132860E+001	2.1315882E+000	6.4867142E+001	-2.411753040279230E-008	-2.2793370E-006	5.7728934E+004
1.4685154E+001	2.3938953E+001	9.2367687E+000	2.5659138E+001	-2.1098949E+001	1.288505445199553E+001	3.6275721E-001	-5.0196894E-003	1.1733337E+003	1.5204691E+002	1.000000000000000E+000	11	5.1827584E-003	2.0198491E-004	0	-1.251350345185347E-005	3.6359761E-002	1.4029299E-002	3.8972471E-002	2.1098949E+001	1.5204692E+005	3.9406025E+005	4.2237631E+005	-6.8901047E+001	0.0000000E+000	0.0000000E+000	0.0000000E+000	6.8901047E+001	0.0000000E+000	0.0000000E+000	0.0000000E+000	-6.8901047E+001	0.0000000E+000	0.0000000E+000	0.0000000E+000	-2.1098949E+001	0.0000000E+000	0.0000000E+000	0.0000000E+000	2.1098949E+001	2.5917022E+000	6.8901047E+001	-7.728669403756318E-007	-1.8209286E-006	7.2266859E+004
