EC-Lab ASCII FILE
Nb header lines : 63                          

Potentio Electrochemical Impedance Spectroscopy

Run on channel : 3 (SN 65921)
User : 
CE vs. WE compliance from -10 V to 10 V
Electrode connection : standard
Potential control : Ewe
Ewe ctrl range : min = -10.00 V, max = 10.00 V
Safety Limits :
	Do not start on E overload
Acquisition started on : 09/22/2025 10:43:40.735
Loaded Setting File :  C:\Users\Celltest\OneDrive - store-dot.com\Documents\EC-Lab\Data\Gyutae\17738_R277_UA674_SOC00_C02.mpr
Saved on :
	File : 14956_R243_UA603_SOC00_C03.mpr
	Directory : C:\Users\Celltest\OneDrive - store-dot.com\Documents\EC-Lab\Data\Anna\
	Host : 169.254.61.224
Device : VMP-3e (SN .003165)
Address : USB
EC-LAB for windows v11.62 (software)
Internet server v27.00 (firmware)
Command interpretor v12.03 (firmware)
Electrode material : 
Initial state : 
Electrolyte : 
Comments : 
Electrode surface area : 0.001 cm²
Characteristic mass : 0.001 g
Equivalent Weight : 0.000 g/eq.
Density : 0.000 g/cm3
Volume (V) : 0.001 cm³
Cycle Definition : Charge/Discharge alternance
Mode                Single sine         
E (V)               0.0000              
vs.                 Eoc                 
tE (h:m:s)          0:00:0.0000         
record              0                   
dI                  0.000               
unit dI             mA                  
dt (s)              0.000               
fi                  100.000             
unit fi             kHz                 
ff                  10.000              
unit ff             mHz                 
Nd                  6                   
Points              per decade          
spacing             Logarithmic         
Va (mV)             5.0                 
pw                  0.10                
Na                  2                   
corr                0                   
E range min (V)     -10.000             
E range max (V)     10.000              
I Range             Auto                
Bandwidth           5                   
nc cycles           0                   
goto Ns'            0                   
nr cycles           0                   
inc. cycle          0                   

freq/Hz	Re(Z)/Ohm	-Im(Z)/Ohm	|Z|/Ohm	Phase(Z)/deg	time/s	<Ewe>/V	<I>/mA	Cs/µF	Cp/µF	cycle number	I Range	|Ewe|/V	|I|/A	Ns	(Q-Qo)/mA.h	Re(Y)/Ohm-1	Im(Y)/Ohm-1	|Y|/Ohm-1	Phase(Y)/deg	Re(C)/nF	Im(C)/nF	|C|/nF	Phase(C)/deg	Re(M)	Im(M)	|M|	Phase(M)/deg	Re(Permittivity)	Im(Permittivity)	|Permittivity|	Phase(Permittivity)/deg	Re(Resistivity)/Ohm.cm	Im(Resistivity)/Ohm.cm	|Resistivity|/Ohm.cm	Phase(Resistivity)/deg	Re(Conductivity)/mS/cm	Im(Conductivity)/mS/cm	|Conductivity|/mS/cm	Phase(Conductivity)/deg	Tan(Delta)	Loss Angle(Delta)/deg	dq/mA.h	Pwe/W	Rwe/Ohm	
1.0000371E+005	5.2897091E+000	1.2303191E+000	5.4309030E+000	-1.3093478E+001	2.025486789498245E+000	2.9181153E-001	-4.0725586E-003	1.2935590E+000	6.6386186E-002	1.000000000000000E+000	10	4.7753369E-003	8.7928970E-004	0	-1.651518138581499E-006	1.7934436E-001	4.1713219E-002	1.8413144E-001	1.3093478E+001	6.6386169E+001	2.8542480E+002	2.9304343E+002	-7.6906525E+001	0.0000000E+000	0.0000000E+000	0.0000000E+000	7.6906525E+001	0.0000000E+000	0.0000000E+000	0.0000000E+000	-7.6906525E+001	0.0000000E+000	0.0000000E+000	0.0000000E+000	-1.3093478E+001	0.0000000E+000	0.0000000E+000	0.0000000E+000	1.3093478E+001	4.2994609E+000	7.6906525E+001	-1.651518138581499E-006	-1.1884196E-006	7.1653117E+004
6.8132047E+004	5.5642853E+000	1.3420334E+000	5.7238383E+000	-1.3560022E+001	2.462495770276291E+000	2.9178774E-001	-4.1396799E-003	1.7406255E+000	9.5687956E-002	1.000000000000000E+000	10	5.4102149E-003	9.4520749E-004	0	-3.495669083417548E-006	1.6983792E-001	4.0962700E-002	1.7470793E-001	1.3560022E+001	9.5687935E+001	3.9673758E+002	4.0811383E+002	-7.6439980E+001	0.0000000E+000	0.0000000E+000	0.0000000E+000	7.6439980E+001	0.0000000E+000	0.0000000E+000	0.0000000E+000	-7.6439980E+001	0.0000000E+000	0.0000000E+000	0.0000000E+000	-1.3560022E+001	0.0000000E+000	0.0000000E+000	0.0000000E+000	1.3560022E+001	4.1461601E+000	7.6439980E+001	-1.844150944836049E-006	-1.2079079E-006	7.0485578E+004
4.6420355E+004	5.8709860E+000	1.4674689E+000	6.0516067E+000	-1.4033692E+001	3.040491611027392E+000	2.9179561E-001	-3.4572945E-003	2.3363764E+000	1.3738497E-001	1.000000000000000E+000	10	5.0809407E-003	8.3960197E-004	0	-2.837087955757549E-006	1.6031334E-001	4.0070750E-002	1.6524537E-001	1.4033692E+001	1.3738495E+002	5.4964386E+002	5.6655359E+002	-7.5966309E+001	0.0000000E+000	0.0000000E+000	0.0000000E+000	7.5966309E+001	0.0000000E+000	0.0000000E+000	0.0000000E+000	-7.5966309E+001	0.0000000E+000	0.0000000E+000	0.0000000E+000	-1.4033692E+001	0.0000000E+000	0.0000000E+000	0.0000000E+000	1.4033692E+001	4.0007567E+000	7.5966309E+001	6.585811276599998E-007	-1.0088233E-006	8.4399984E+004
3.1621139E+004	6.2095256E+000	1.6185055E+000	6.4169908E+000	-1.4609030E+001	3.477491125144297E+000	2.9179427E-001	-3.1645766E-003	3.1097713E+000	1.9783084E-001	1.000000000000000E+000	10	5.4591233E-003	8.5072947E-004	0	-3.039389133020045E-006	1.5079801E-001	3.9305318E-002	1.5583628E-001	1.4609030E+001	1.9783084E+002	7.5899377E+002	7.8435236E+002	-7.5390968E+001	0.0000000E+000	0.0000000E+000	0.0000000E+000	7.5390968E+001	0.0000000E+000	0.0000000E+000	0.0000000E+000	-7.5390968E+001	0.0000000E+000	0.0000000E+000	0.0000000E+000	-1.4609030E+001	0.0000000E+000	0.0000000E+000	0.0000000E+000	1.4609030E+001	3.8365798E+000	7.5390968E+001	-2.023011772624969E-007	-9.2340531E-007	9.2206414E+004
2.1544684E+004	6.5832210E+000	1.7802756E+000	6.8196907E+000	-1.5132334E+001	4.056484432629077E+000	2.9179409E-001	-2.8028856E-003	4.1494718E+000	2.8277299E-001	1.000000000000000E+000	10	5.0852601E-003	7.4567314E-004	0	-3.964606023794557E-006	1.4154975E-001	3.8278762E-002	1.4663422E-001	1.5132334E+001	2.8277292E+002	1.0456566E+003	1.0832167E+003	-7.4867668E+001	0.0000000E+000	0.0000000E+000	0.0000000E+000	7.4867668E+001	0.0000000E+000	0.0000000E+000	0.0000000E+000	-7.4867668E+001	0.0000000E+000	0.0000000E+000	0.0000000E+000	-1.5132334E+001	0.0000000E+000	0.0000000E+000	0.0000000E+000	1.5132334E+001	3.6978662E+000	7.4867668E+001	-9.252168907745118E-007	-8.1786544E-007	1.0410489E+005
1.4678594E+004	7.0102448E+000	1.9819134E+000	7.2850199E+000	-1.5786485E+001	4.493498240044573E+000	2.9179692E-001	-2.8028863E-003	5.4708018E+000	4.0491033E-001	1.000000000000000E+000	10	5.4612886E-003	7.4966007E-004	0	-4.623046161548700E-006	1.3209054E-001	3.7344206E-002	1.3726799E-001	1.5786485E+001	4.0491031E+002	1.4322122E+003	1.4883495E+003	-7.4213516E+001	0.0000000E+000	0.0000000E+000	0.0000000E+000	7.4213516E+001	0.0000000E+000	0.0000000E+000	0.0000000E+000	-7.4213516E+001	0.0000000E+000	0.0000000E+000	0.0000000E+000	-1.5786485E+001	0.0000000E+000	0.0000000E+000	0.0000000E+000	1.5786485E+001	3.5371094E+000	7.4213516E+001	-6.584401377541428E-007	-8.1787357E-007	1.0410588E+005
1.0002226E+004	7.4753795E+000	2.2090523E+000	7.7949476E+000	-1.6462959E+001	4.930480234179413E+000	2.9179120E-001	-2.7077978E-003	7.2030678E+000	5.7849962E-001	1.000000000000000E+000	10	5.4715043E-003	7.0192956E-004	0	-5.532004250420464E-006	1.2302881E-001	3.6356296E-002	1.2828822E-001	1.6462959E+001	5.7849969E+002	1.9576288E+003	2.0413163E+003	-7.3537041E+001	0.0000000E+000	0.0000000E+000	0.0000000E+000	7.3537041E+001	0.0000000E+000	0.0000000E+000	0.0000000E+000	-7.3537041E+001	0.0000000E+000	0.0000000E+000	0.0000000E+000	-1.6462959E+001	0.0000000E+000	0.0000000E+000	0.0000000E+000	1.6462959E+001	3.3839757E+000	7.3537041E+001	-9.089580888717643E-007	-7.9011159E-007	1.0775959E+005
6.8110674E+003	7.9824438E+000	2.4641902E+000	8.3541393E+000	-1.7155521E+001	5.486494820594089E+000	2.9178113E-001	-4.4529177E-003	9.4826717E+000	8.2504141E-001	1.000000000000000E+000	10	5.4306737E-003	6.5005780E-004	0	-4.375472184855931E-006	1.1437535E-001	3.5307813E-002	1.1970114E-001	1.7155521E+001	8.2504126E+002	2.6726211E+003	2.7970693E+003	-7.2844482E+001	0.0000000E+000	0.0000000E+000	0.0000000E+000	7.2844482E+001	0.0000000E+000	0.0000000E+000	0.0000000E+000	-7.2844482E+001	0.0000000E+000	0.0000000E+000	0.0000000E+000	-1.7155521E+001	0.0000000E+000	0.0000000E+000	0.0000000E+000	1.7155521E+001	3.2393780E+000	7.2844482E+001	1.156532065564534E-006	-1.2992773E-006	6.5525828E+004
4.6414854E+003	8.5725279E+000	2.7604079E+000	9.0060024E+000	-1.7848886E+001	6.180692026922770E+000	2.9180250E-001	-8.2284986E-004	1.2421953E+001	1.1670039E+000	1.000000000000000E+000	10	5.2344929E-003	5.8122270E-004	0	-5.152296255546389E-006	1.0569264E-001	3.4033697E-002	1.1103705E-001	1.7848886E+001	1.1670037E+003	3.6241643E+003	3.8074224E+003	-7.2151115E+001	0.0000000E+000	0.0000000E+000	0.0000000E+000	7.2151115E+001	0.0000000E+000	0.0000000E+000	0.0000000E+000	-7.2151115E+001	0.0000000E+000	0.0000000E+000	0.0000000E+000	-1.7848886E+001	0.0000000E+000	0.0000000E+000	0.0000000E+000	1.7848886E+001	3.1055293E+000	7.2151115E+001	-7.768240706904583E-007	-2.4010964E-007	3.5462422E+005
3.1610117E+003	9.2074366E+000	3.0892806E+000	9.7118759E+000	-1.8547642E+001	6.870685819696519E+000	2.9180431E-001	-7.8929536E-004	1.6298088E+001	1.6490929E+000	1.000000000000000E+000	10	5.1582968E-003	5.3113292E-004	0	-4.636524446725768E-006	9.7618572E-002	3.2753002E-002	1.0296672E-001	1.8547642E+001	1.6490925E+003	4.9150337E+003	5.1843091E+003	-7.1452362E+001	0.0000000E+000	0.0000000E+000	0.0000000E+000	7.1452362E+001	0.0000000E+000	0.0000000E+000	0.0000000E+000	-7.1452362E+001	0.0000000E+000	0.0000000E+000	0.0000000E+000	-1.8547642E+001	0.0000000E+000	0.0000000E+000	0.0000000E+000	1.8547642E+001	2.9804468E+000	7.1452362E+001	5.157718088206212E-007	-2.3031978E-007	3.6970231E+005
2.1556899E+003	9.9525557E+000	3.4667072E+000	1.0539042E+001	-1.9204418E+001	7.337692321874783E+000	2.9179499E-001	-7.4641267E-004	2.1296913E+001	2.3043513E+000	1.000000000000000E+000	10	5.4536653E-003	5.1747257E-004	0	-5.167619478186275E-006	8.9605011E-002	3.1211514E-002	9.4885282E-002	1.9204418E+001	2.3043516E+003	6.6155522E+003	7.0053955E+003	-7.0795578E+001	0.0000000E+000	0.0000000E+000	0.0000000E+000	7.0795578E+001	0.0000000E+000	0.0000000E+000	0.0000000E+000	-7.0795578E+001	0.0000000E+000	0.0000000E+000	0.0000000E+000	-1.9204418E+001	0.0000000E+000	0.0000000E+000	0.0000000E+000	1.9204418E+001	2.8708959E+000	7.0795578E+001	-5.310950314605074E-007	-2.1779947E-007	3.9092984E+005
1.4685898E+003	1.0746219E+001	3.9164712E+000	1.1437655E+001	-2.0024324E+001	7.804923437390244E+000	2.9179701E-001	-1.1565884E-003	2.7670988E+001	3.2444460E+000	1.000000000000000E+000	10	5.4785688E-003	4.7899404E-004	0	-5.545795085752616E-006	8.2145102E-002	2.9937871E-002	8.7430507E-002	2.0024324E+001	3.2444456E+003	8.9022813E+003	9.4750742E+003	-6.9975677E+001	0.0000000E+000	0.0000000E+000	0.0000000E+000	6.9975677E+001	0.0000000E+000	0.0000000E+000	0.0000000E+000	-6.9975677E+001	0.0000000E+000	0.0000000E+000	0.0000000E+000	-2.0024324E+001	0.0000000E+000	0.0000000E+000	0.0000000E+000	2.0024324E+001	2.7438524E+000	6.9975677E+001	-3.781756075663408E-007	-3.3748904E-007	2.5229114E+005
1.0003202E+003	1.1662794E+001	4.4348063E+000	1.2477510E+001	-2.0819431E+001	8.273664872998779E+000	2.9180950E-001	-7.4641401E-004	3.5876198E+001	4.5321040E+000	1.000000000000000E+000	10	5.4264064E-003	4.3489496E-004	0	-5.341144359728787E-006	7.4911192E-002	2.8485166E-002	8.0144189E-002	2.0819431E+001	4.5321035E+003	1.1918671E+004	1.2751262E+004	-6.9180573E+001	0.0000000E+000	0.0000000E+000	0.0000000E+000	6.9180573E+001	0.0000000E+000	0.0000000E+000	0.0000000E+000	-6.9180573E+001	0.0000000E+000	0.0000000E+000	0.0000000E+000	-2.0819431E+001	0.0000000E+000	0.0000000E+000	0.0000000E+000	2.0819431E+001	2.6298316E+000	6.9180573E+001	2.046507260238288E-007	-2.1781069E-007	3.9094859E+005
6.8108978E+002	1.2732680E+001	5.0390992E+000	1.3693563E+001	-2.1591730E+001	8.739452095091110E+000	2.9181877E-001	-1.0877618E-004	4.6372753E+001	6.2796545E+000	1.000000000000000E+000	10	5.3593363E-003	3.9137629E-004	0	-5.025303216511626E-006	6.7902677E-002	2.6873235E-002	7.3027007E-002	2.1591730E+001	6.2796533E+003	1.5867286E+004	1.7064725E+004	-6.8408272E+001	0.0000000E+000	0.0000000E+000	0.0000000E+000	6.8408272E+001	0.0000000E+000	0.0000000E+000	0.0000000E+000	-6.8408272E+001	0.0000000E+000	0.0000000E+000	0.0000000E+000	-2.1591730E+001	0.0000000E+000	0.0000000E+000	0.0000000E+000	2.1591730E+001	2.5267770E+000	6.8408272E+001	3.158411432171609E-007	-3.1742932E-008	2.6827453E+006
4.6396069E+002	1.3915771E+001	5.7252493E+000	1.5047498E+001	-2.2363325E+001	9.208201797358925E+000	2.9179168E-001	-4.5183348E-004	5.9916233E+001	8.6737070E+000	1.000000000000000E+000	10	5.3099077E-003	3.5287646E-004	0	-5.229946963540796E-006	6.1458040E-002	2.5285166E-002	6.6456228E-002	2.2363325E+001	8.6737090E+003	2.1082285E+004	2.2796842E+004	-6.7636673E+001	0.0000000E+000	0.0000000E+000	0.0000000E+000	6.7636673E+001	0.0000000E+000	0.0000000E+000	0.0000000E+000	-6.7636673E+001	0.0000000E+000	0.0000000E+000	0.0000000E+000	-2.2363325E+001	0.0000000E+000	0.0000000E+000	0.0000000E+000	2.2363325E+001	2.4305966E+000	6.7636673E+001	-2.046437470291694E-007	-1.3184125E-007	6.4579475E+005
3.1631589E+002	1.5361731E+001	6.5331798E+000	1.6693268E+001	-2.3039532E+001	9.673941819492029E+000	2.9180750E-001	-5.1895442E-004	7.7014854E+001	1.1796170E+001	1.000000000000000E+000	10	5.2802647E-003	3.1631102E-004	0	-5.247773148171190E-006	5.5126119E-002	2.3444550E-002	5.9904389E-002	2.3039532E+001	1.1796172E+004	2.7736811E+004	3.0141008E+004	-6.6960464E+001	0.0000000E+000	0.0000000E+000	0.0000000E+000	6.6960464E+001	0.0000000E+000	0.0000000E+000	0.0000000E+000	-6.6960464E+001	0.0000000E+000	0.0000000E+000	0.0000000E+000	-2.3039532E+001	0.0000000E+000	0.0000000E+000	0.0000000E+000	2.3039532E+001	2.3513405E+000	6.6960464E+001	-1.782618463039429E-008	-1.5143479E-007	5.6229894E+005
2.1534457E+002	1.7064770E+001	7.4247661E+000	1.8610039E+001	-2.3513533E+001	1.014141266830848E+001	2.9180005E-001	-2.2623656E-004	9.9541336E+001	1.5844350E+001	1.000000000000000E+000	10	5.2522002E-003	2.8222403E-004	0	-5.044151175362155E-006	4.9272649E-002	2.1438196E-002	5.3734440E-002	2.3513533E+001	1.5844352E+004	3.6415988E+004	3.9713570E+004	-6.6486465E+001	0.0000000E+000	0.0000000E+000	0.0000000E+000	6.6486465E+001	0.0000000E+000	0.0000000E+000	0.0000000E+000	-6.6486465E+001	0.0000000E+000	0.0000000E+000	0.0000000E+000	-2.3513533E+001	0.0000000E+000	0.0000000E+000	0.0000000E+000	2.3513533E+001	2.2983580E+000	6.6486465E+001	2.036219728090348E-007	-6.6015836E-008	1.2898006E+006
1.4673740E+002	1.9106503E+001	8.2599535E+000	2.0815506E+001	-2.3379364E+001	1.060438685034751E+001	2.9180145E-001	-1.2182835E-004	1.3131117E+002	2.0676783E+001	1.000000000000000E+000	10	5.2367593E-003	2.5157974E-004	0	-5.116251381701052E-006	4.4096820E-002	1.9063544E-002	4.8041109E-002	2.3379364E+001	2.0676783E+004	4.7828480E+004	5.2106555E+004	-6.6620636E+001	0.0000000E+000	0.0000000E+000	0.0000000E+000	6.6620636E+001	0.0000000E+000	0.0000000E+000	0.0000000E+000	-6.6620636E+001	0.0000000E+000	0.0000000E+000	0.0000000E+000	-2.3379364E+001	0.0000000E+000	0.0000000E+000	0.0000000E+000	2.3379364E+001	2.3131490E+000	6.6620636E+001	-7.210020633889685E-008	-3.5549689E-008	2.3951850E+006
1.0003201E+002	2.1478859E+001	8.9884949E+000	2.3283781E+001	-2.2708385E+001	1.132669405801425E+001	2.9179567E-001	-6.2571685E-003	1.7700851E+002	2.6379168E+001	1.000000000000000E+000	11	5.2387407E-003	2.2499527E-004	0	-5.742304319676299E-006	3.9619062E-002	1.6579827E-002	4.2948350E-002	2.2708385E+001	2.6379172E+004	6.3035516E+004	6.8332547E+004	-6.7291611E+001	0.0000000E+000	0.0000000E+000	0.0000000E+000	6.7291611E+001	0.0000000E+000	0.0000000E+000	0.0000000E+000	-6.7291611E+001	0.0000000E+000	0.0000000E+000	0.0000000E+000	-2.2708385E+001	0.0000000E+000	0.0000000E+000	0.0000000E+000	2.2708385E+001	2.3895946E+000	6.7291611E+001	-6.260529379752471E-007	-1.8258147E-006	4.6633820E+004
6.8103981E+001	2.4261061E+001	9.4304390E+000	2.6029449E+001	-2.1241442E+001	1.180533608069527E+001	2.9181200E-001	-5.8059571E-003	2.4780821E+002	3.2527416E+001	1.000000000000000E+000	11	5.2308254E-003	2.0095798E-004	0	-6.331417839007271E-006	3.5807982E-002	1.3918805E-002	3.8418025E-002	2.1241442E+001	3.2527414E+004	8.3681117E+004	8.9780633E+004	-6.8758560E+001	0.0000000E+000	0.0000000E+000	0.0000000E+000	6.8758560E+001	0.0000000E+000	0.0000000E+000	0.0000000E+000	-6.8758560E+001	0.0000000E+000	0.0000000E+000	0.0000000E+000	-2.1241442E+001	0.0000000E+000	0.0000000E+000	0.0000000E+000	2.1241442E+001	2.5726333E+000	6.8758560E+001	-5.891135193309718E-007	-1.6942480E-006	5.0260793E+004
4.6441547E+001	2.7184292E+001	9.3394432E+000	2.8743885E+001	-1.8960688E+001	1.226055732896202E+001	2.9180235E-001	-6.0889898E-003	3.6693784E+002	3.8738564E+001	1.000000000000000E+000	11	5.2176015E-003	1.8152040E-004	0	-6.998346480557100E-006	3.2902364E-002	1.1303946E-002	3.4790009E-002	1.8960688E+001	3.8738559E+004	1.1275622E+005	1.1922517E+005	-7.1039314E+001	0.0000000E+000	0.0000000E+000	0.0000000E+000	7.1039314E+001	0.0000000E+000	0.0000000E+000	0.0000000E+000	-7.1039314E+001	0.0000000E+000	0.0000000E+000	0.0000000E+000	-1.8960688E+001	0.0000000E+000	0.0000000E+000	0.0000000E+000	1.8960688E+001	2.9106972E+000	7.1039314E+001	-6.669286415498289E-007	-1.7767815E-006	4.7922949E+004
3.1629555E+001	3.0032452E+001	8.6376314E+000	3.1249908E+001	-1.6045763E+001	1.270745100351633E+001	2.9179388E-001	-6.1613335E-003	5.8254889E+002	4.4506580E+001	1.000000000000000E+000	11	5.2217031E-003	1.6709499E-004	0	-7.776422776585807E-006	3.0753411E-002	8.8449875E-003	3.2000095E-002	1.6045763E+001	4.4506578E+004	1.5474633E+005	1.6101944E+005	-7.3954239E+001	0.0000000E+000	0.0000000E+000	0.0000000E+000	7.3954239E+001	0.0000000E+000	0.0000000E+000	0.0000000E+000	-7.3954239E+001	0.0000000E+000	0.0000000E+000	0.0000000E+000	-1.6045763E+001	0.0000000E+000	0.0000000E+000	0.0000000E+000	1.6045763E+001	3.4769313E+000	7.3954239E+001	-7.780762960287074E-007	-1.7978394E-006	4.7358883E+004
2.1551722E+001	3.2364265E+001	7.5185003E+000	3.3226097E+001	-1.3078334E+001	1.314633366439375E+001	2.9179409E-001	-6.1553684E-003	9.8221576E+002	5.0293365E+001	1.000000000000000E+000	11	5.2145412E-003	1.5694113E-004	0	-8.647025527089782E-006	2.9316161E-002	6.8103992E-003	3.0096823E-002	1.3078334E+001	5.0293359E+004	2.1649370E+005	2.2225873E+005	-7.6921669E+001	0.0000000E+000	0.0000000E+000	0.0000000E+000	7.6921669E+001	0.0000000E+000	0.0000000E+000	0.0000000E+000	-7.6921669E+001	0.0000000E+000	0.0000000E+000	0.0000000E+000	-1.3078334E+001	0.0000000E+000	0.0000000E+000	0.0000000E+000	1.3078334E+001	4.3046169E+000	7.6921669E+001	-8.706027505039751E-007	-1.7961002E-006	4.7404813E+004
1.4685154E+001	3.4172092E+001	6.1885014E+000	3.4727936E+001	-1.0264904E+001	1.362504299380817E+001	2.9179877E-001	-5.7606520E-003	1.7512821E+003	5.5612083E+001	1.000000000000000E+000	11	5.2174251E-003	1.5023712E-004	0	-9.156466699989525E-006	2.8334375E-002	5.1313015E-003	2.8795261E-002	1.0264904E+001	5.5612102E+004	3.0708263E+005	3.1207763E+005	-7.9735092E+001	0.0000000E+000	0.0000000E+000	0.0000000E+000	7.9735092E+001	0.0000000E+000	0.0000000E+000	0.0000000E+000	-7.9735092E+001	0.0000000E+000	0.0000000E+000	0.0000000E+000	-1.0264904E+001	0.0000000E+000	0.0000000E+000	0.0000000E+000	1.0264904E+001	5.5218687E+000	7.9735092E+001	-5.094411728997425E-007	-1.6809512E-006	5.0653773E+004
