EC-Lab ASCII FILE
Nb header lines : 63                          

Potentio Electrochemical Impedance Spectroscopy

Run on channel : 5 (SN 65912)
User : 
CE vs. WE compliance from -10 V to 10 V
Electrode connection : standard
Potential control : Ewe
Ewe ctrl range : min = -10.00 V, max = 10.00 V
Safety Limits :
	Do not start on E overload
Acquisition started on : 09/22/2025 10:44:05.538
Loaded Setting File :  C:\Users\Celltest\OneDrive - store-dot.com\Documents\EC-Lab\Data\Gyutae\17740_R277_UA674_SOC00_C04.mpr
Saved on :
	File : 14958_R243_UA603_SOC00_C05.mpr
	Directory : C:\Users\Celltest\OneDrive - store-dot.com\Documents\EC-Lab\Data\Anna\
	Host : 169.254.61.224
Device : VMP-3e (SN .003165)
Address : USB
EC-LAB for windows v11.62 (software)
Internet server v27.00 (firmware)
Command interpretor v12.03 (firmware)
Electrode material : 
Initial state : 
Electrolyte : 
Comments : 
Electrode surface area : 0.001 cm²
Characteristic mass : 0.001 g
Equivalent Weight : 0.000 g/eq.
Density : 0.000 g/cm3
Volume (V) : 0.001 cm³
Cycle Definition : Charge/Discharge alternance
Mode                Single sine         
E (V)               0.0000              
vs.                 Eoc                 
tE (h:m:s)          0:00:0.0000         
record              0                   
dI                  0.000               
unit dI             mA                  
dt (s)              0.000               
fi                  100.000             
unit fi             kHz                 
ff                  10.000              
unit ff             mHz                 
Nd                  6                   
Points              per decade          
spacing             Logarithmic         
Va (mV)             5.0                 
pw                  0.10                
Na                  2                   
corr                0                   
E range min (V)     -10.000             
E range max (V)     10.000              
I Range             Auto                
Bandwidth           5                   
nc cycles           0                   
goto Ns'            0                   
nr cycles           0                   
inc. cycle          0                   

freq/Hz	Re(Z)/Ohm	-Im(Z)/Ohm	|Z|/Ohm	Phase(Z)/deg	time/s	<Ewe>/V	<I>/mA	Cs/µF	Cp/µF	cycle number	I Range	|Ewe|/V	|I|/A	Ns	(Q-Qo)/mA.h	Re(Y)/Ohm-1	Im(Y)/Ohm-1	|Y|/Ohm-1	Phase(Y)/deg	Re(C)/nF	Im(C)/nF	|C|/nF	Phase(C)/deg	Re(M)	Im(M)	|M|	Phase(M)/deg	Re(Permittivity)	Im(Permittivity)	|Permittivity|	Phase(Permittivity)/deg	Re(Resistivity)/Ohm.cm	Im(Resistivity)/Ohm.cm	|Resistivity|/Ohm.cm	Phase(Resistivity)/deg	Re(Conductivity)/mS/cm	Im(Conductivity)/mS/cm	|Conductivity|/mS/cm	Phase(Conductivity)/deg	Tan(Delta)	Loss Angle(Delta)/deg	dq/mA.h	Pwe/W	Rwe/Ohm	
1.0000371E+005	3.4793727E+000	1.5231876E+000	3.7981753E+000	-2.3642672E+001	1.418474147358211E+000	3.4579176E-001	9.4360285E-002	1.0448419E+000	1.6803795E-001	1.000000000000000E+000	10	4.9413200E-003	1.3009721E-003	0	3.969963951757463E-005	2.4118537E-001	1.0558528E-001	2.6328433E-001	2.3642672E+001	1.6803795E+002	3.8384421E+002	4.1901447E+002	-6.6357330E+001	0.0000000E+000	0.0000000E+000	0.0000000E+000	6.6357330E+001	0.0000000E+000	0.0000000E+000	0.0000000E+000	-6.6357330E+001	0.0000000E+000	0.0000000E+000	0.0000000E+000	-2.3642672E+001	0.0000000E+000	0.0000000E+000	0.0000000E+000	2.3642672E+001	2.2842705E+000	6.6357330E+001	3.969963951757463E-005	3.2629010E-005	3.6645901E+003
6.8132047E+004	2.1766675E+000	5.5716473E-001	2.2468452E+000	-1.4357802E+001	2.310485363035696E+000	3.4577927E-001	1.0737807E-001	4.1926160E+000	2.5781369E-001	1.000000000000000E+000	9	4.9350122E-003	2.1964184E-003	0	6.409643938235887E-005	4.3116724E-001	1.1036651E-001	4.4506848E-001	1.4357802E+001	2.5781372E+002	1.0071970E+003	1.0396700E+003	-7.5642197E+001	0.0000000E+000	0.0000000E+000	0.0000000E+000	7.5642197E+001	0.0000000E+000	0.0000000E+000	0.0000000E+000	-7.5642197E+001	0.0000000E+000	0.0000000E+000	0.0000000E+000	-1.4357802E+001	0.0000000E+000	0.0000000E+000	0.0000000E+000	1.4357802E+001	3.9066856E+000	7.5642197E+001	2.439679986478424E-005	3.7129110E-005	3.2202039E+003
4.6420355E+004	1.4768777E+000	2.6575187E-001	1.5005971E+000	-1.0200738E+001	2.606482310424326E+000	3.4577543E-001	1.1897828E-001	1.2901356E+001	4.0463158E-001	1.000000000000000E+000	9	4.8093949E-003	3.2049874E-003	0	7.366233138737476E-005	6.5586782E-001	1.1801796E-001	6.6640139E-001	1.0200738E+001	4.0463153E+002	2.2486816E+003	2.2847966E+003	-7.9799263E+001	0.0000000E+000	0.0000000E+000	0.0000000E+000	7.9799263E+001	0.0000000E+000	0.0000000E+000	0.0000000E+000	-7.9799263E+001	0.0000000E+000	0.0000000E+000	0.0000000E+000	-1.0200738E+001	0.0000000E+000	0.0000000E+000	0.0000000E+000	1.0200738E+001	5.5573559E+000	7.9799263E+001	9.565892005015893E-006	4.1139767E-005	2.9062063E+003
3.1621139E+004	1.1468675E+000	1.9785064E-001	1.1638083E+000	-9.7879801E+000	2.903487844538176E+000	3.4577587E-001	1.0292797E-001	2.5439301E+001	7.3521978E-001	1.000000000000000E+000	9	5.3594746E-003	4.6051177E-003	0	7.964460188137471E-005	8.4674042E-001	1.4607453E-001	8.5924798E-001	9.7879801E+000	7.3521967E+002	4.2617988E+003	4.3247515E+003	-8.0212021E+001	0.0000000E+000	0.0000000E+000	0.0000000E+000	8.0212021E+001	0.0000000E+000	0.0000000E+000	0.0000000E+000	-8.0212021E+001	0.0000000E+000	0.0000000E+000	0.0000000E+000	-9.7879801E+000	0.0000000E+000	0.0000000E+000	0.0000000E+000	9.7879801E+000	5.7966328E+000	8.0212021E+001	5.982270493999945E-006	3.5590008E-005	3.3593967E+003
2.1544684E+004	9.9771291E-001	2.2041149E-001	1.0217692E+000	-1.2457510E+001	3.340485918655759E+000	3.4577158E-001	1.0693127E-001	3.3515507E+001	1.5595837E+000	1.000000000000000E+000	9	5.2307430E-003	5.1193000E-003	0	8.500756007080781E-005	9.5565248E-001	2.1111964E-001	9.7869462E-001	1.2457510E+001	1.5595839E+003	7.0595986E+003	7.2298159E+003	-7.7542488E+001	0.0000000E+000	0.0000000E+000	0.0000000E+000	7.7542488E+001	0.0000000E+000	0.0000000E+000	0.0000000E+000	-7.7542488E+001	0.0000000E+000	0.0000000E+000	0.0000000E+000	-1.2457510E+001	0.0000000E+000	0.0000000E+000	0.0000000E+000	1.2457510E+001	4.5265918E+000	7.7542488E+001	5.362958189433106E-006	3.6973794E-005	3.2335872E+003
1.4678594E+004	9.3563253E-001	2.9147533E-001	9.7998267E-001	-1.7303251E+001	3.777486126084113E+000	3.4576914E-001	9.0992644E-002	3.7199223E+001	3.2907937E+000	1.000000000000000E+000	9	5.2784961E-003	5.3863158E-003	0	1.049751987959672E-004	9.7424567E-001	3.0350438E-001	1.0204262E+000	1.7303251E+001	3.2907942E+003	1.0563411E+004	1.1064131E+004	-7.2696747E+001	0.0000000E+000	0.0000000E+000	0.0000000E+000	7.2696747E+001	0.0000000E+000	0.0000000E+000	0.0000000E+000	-7.2696747E+001	0.0000000E+000	0.0000000E+000	0.0000000E+000	-1.7303251E+001	0.0000000E+000	0.0000000E+000	0.0000000E+000	1.7303251E+001	3.2099888E+000	7.2696747E+001	1.996763872515940E-005	3.1462449E-005	3.7999680E+003
1.0002226E+004	9.1401410E-001	4.1120365E-001	1.0022526E+000	-2.4222391E+001	4.214479213493178E+000	3.4577081E-001	6.1498713E-002	3.8696041E+001	6.5136752E+000	1.000000000000000E+000	9	5.4042903E-003	5.3921440E-003	0	1.154285086291946E-004	9.0991020E-001	4.0935734E-001	9.9775249E-001	2.4222391E+001	6.5136743E+003	1.4478448E+004	1.5876190E+004	-6.5777611E+001	0.0000000E+000	0.0000000E+000	0.0000000E+000	6.5777611E+001	0.0000000E+000	0.0000000E+000	0.0000000E+000	-6.5777611E+001	0.0000000E+000	0.0000000E+000	0.0000000E+000	-2.4222391E+001	0.0000000E+000	0.0000000E+000	0.0000000E+000	2.4222391E+001	2.2227771E+000	6.5777611E+001	1.045330983322736E-005	2.1264459E-005	5.6224072E+003
6.8110674E+003	9.1810691E-001	5.8272082E-001	1.0874207E+000	-3.2403225E+001	4.769514519866789E+000	3.4578210E-001	6.2839337E-002	4.0100002E+001	1.1515168E+001	1.000000000000000E+000	9	5.5094860E-003	5.0665634E-003	0	1.126586762785446E-004	7.7642238E-001	4.9279392E-001	9.1960728E-001	3.2403225E+001	1.1515169E+004	1.8142746E+004	2.1488563E+004	-5.7596775E+001	0.0000000E+000	0.0000000E+000	0.0000000E+000	5.7596775E+001	0.0000000E+000	0.0000000E+000	0.0000000E+000	-5.7596775E+001	0.0000000E+000	0.0000000E+000	0.0000000E+000	-3.2403225E+001	0.0000000E+000	0.0000000E+000	0.0000000E+000	3.2403225E+001	1.5755520E+000	5.7596771E+001	-2.769832350649979E-006	2.1728718E-005	5.5026377E+003
4.6414854E+003	9.4255322E-001	8.5475242E-001	1.2724025E+000	-4.2203247E+001	5.686681896790105E+000	3.4580275E-001	8.0267526E-002	4.0116482E+001	1.8103163E+001	1.000000000000000E+000	9	5.1694075E-003	4.0627141E-003	0	1.346350219293753E-004	5.8217943E-001	5.2794820E-001	7.8591484E-001	4.2203247E+001	1.8103162E+004	1.9962732E+004	2.6948750E+004	-4.7796753E+001	0.0000000E+000	0.0000000E+000	0.0000000E+000	4.7796753E+001	0.0000000E+000	0.0000000E+000	0.0000000E+000	-4.7796753E+001	0.0000000E+000	0.0000000E+000	0.0000000E+000	-4.2203247E+001	0.0000000E+000	0.0000000E+000	0.0000000E+000	4.2203247E+001	1.1027207E+000	4.7796753E+001	2.197634565083072E-005	2.7756732E-005	4.3081279E+003
3.1610117E+003	1.0153335E+000	1.2310618E+000	1.5957491E+000	-5.0485470E+001	6.376677902895608E+000	3.4579650E-001	7.8573100E-002	4.0899136E+001	2.4341349E+001	1.000000000000000E+000	9	5.3816242E-003	3.3724750E-003	0	1.533643928196333E-004	3.9873055E-001	4.8344898E-001	6.2666494E-001	5.0485470E+001	2.4341350E+004	2.0075830E+004	3.1552184E+004	-3.9514530E+001	0.0000000E+000	0.0000000E+000	0.0000000E+000	3.9514530E+001	0.0000000E+000	0.0000000E+000	0.0000000E+000	-3.9514530E+001	0.0000000E+000	0.0000000E+000	0.0000000E+000	-5.0485470E+001	0.0000000E+000	0.0000000E+000	0.0000000E+000	5.0485470E+001	8.2476240E-001	3.9514526E+001	1.872937089025798E-005	2.7170303E-005	4.4009526E+003
2.1556899E+003	1.2080051E+000	1.8101152E+000	2.1761878E+000	-5.6282295E+001	6.843679391749902E+000	3.4579360E-001	7.4998058E-002	4.0787548E+001	2.8219370E+001	1.000000000000000E+000	9	5.0727529E-003	2.3310273E-003	0	1.610185839005927E-004	2.5507978E-001	3.8222006E-001	4.5951918E-001	5.6282295E+001	2.8219369E+004	1.8832580E+004	3.3926375E+004	-3.3717705E+001	0.0000000E+000	0.0000000E+000	0.0000000E+000	3.3717705E+001	0.0000000E+000	0.0000000E+000	0.0000000E+000	-3.3717705E+001	0.0000000E+000	0.0000000E+000	0.0000000E+000	-5.6282295E+001	0.0000000E+000	0.0000000E+000	0.0000000E+000	5.6282295E+001	6.6736364E-001	3.3717712E+001	7.654191080959410E-006	2.5933849E-005	4.6107007E+003
1.4685898E+003	1.6298226E+000	2.5306914E+000	3.0101030E+000	-5.7217548E+001	7.533932117832592E+000	3.4578955E-001	7.7344149E-002	4.2823330E+001	3.0268862E+001	1.000000000000000E+000	9	4.8986394E-003	1.6273992E-003	0	1.724036272108400E-004	1.7987780E-001	2.7930355E-001	3.3221453E-001	5.7217548E+001	3.0268861E+004	1.9493832E+004	3.6002965E+004	-3.2782452E+001	0.0000000E+000	0.0000000E+000	0.0000000E+000	3.2782452E+001	0.0000000E+000	0.0000000E+000	0.0000000E+000	-3.2782452E+001	0.0000000E+000	0.0000000E+000	0.0000000E+000	-5.7217548E+001	0.0000000E+000	0.0000000E+000	0.0000000E+000	5.7217548E+001	6.4402264E-001	3.2782455E+001	1.138504331024728E-005	2.6744799E-005	4.4707915E+003
1.0003202E+003	2.3423872E+000	3.2555237E+000	4.0106373E+000	-5.4264545E+001	8.479705229452520E+000	3.4579569E-001	8.0875948E-002	4.8872017E+001	3.2201431E+001	1.000000000000000E+000	10	5.0677103E-003	1.2635674E-003	0	1.896919065516429E-004	1.4562364E-001	2.0239234E-001	2.4933693E-001	5.4264545E+001	3.2201432E+004	2.3169305E+004	3.9670504E+004	-3.5735455E+001	0.0000000E+000	0.0000000E+000	0.0000000E+000	3.5735455E+001	0.0000000E+000	0.0000000E+000	0.0000000E+000	-3.5735455E+001	0.0000000E+000	0.0000000E+000	0.0000000E+000	-5.4264545E+001	0.0000000E+000	0.0000000E+000	0.0000000E+000	5.4264545E+001	7.1951163E-001	3.5735458E+001	1.728827934080295E-005	2.7966555E-005	4.2756309E+003
6.8108978E+002	3.3652842E+000	3.9335511E+000	5.1766748E+000	-4.9451908E+001	8.945412238215795E+000	3.4579077E-001	8.0829404E-002	5.9406094E+001	3.4300369E+001	1.000000000000000E+000	10	4.7762836E-003	9.2265476E-004	0	2.000151242616460E-004	1.2557986E-001	1.4678545E-001	1.9317420E-001	4.9451908E+001	3.4300371E+004	2.9345111E+004	4.5140348E+004	-4.0548092E+001	0.0000000E+000	0.0000000E+000	0.0000000E+000	4.0548092E+001	0.0000000E+000	0.0000000E+000	0.0000000E+000	-4.0548092E+001	0.0000000E+000	0.0000000E+000	0.0000000E+000	-4.9451908E+001	0.0000000E+000	0.0000000E+000	0.0000000E+000	4.9451908E+001	8.5553336E-001	4.0548096E+001	1.032321771000312E-005	2.7950062E-005	4.2780317E+003
4.6396069E+002	4.5126843E+000	4.4124751E+000	6.3114386E+000	-4.4356724E+001	9.414212713803863E+000	3.4578070E-001	7.6923534E-002	7.7742172E+001	3.7998325E+001	1.000000000000000E+000	10	4.6312404E-003	7.3378521E-004	0	2.099344696399445E-004	1.1328653E-001	1.1077086E-001	1.5844248E-001	4.4356724E+001	3.7998328E+004	3.8861289E+004	5.4351383E+004	-4.5643276E+001	0.0000000E+000	0.0000000E+000	0.0000000E+000	4.5643276E+001	0.0000000E+000	0.0000000E+000	0.0000000E+000	-4.5643276E+001	0.0000000E+000	0.0000000E+000	0.0000000E+000	-4.4356724E+001	0.0000000E+000	0.0000000E+000	0.0000000E+000	4.4356724E+001	1.0227104E+000	4.5643280E+001	9.919345378298495E-006	2.6598673E-005	4.4951226E+003
3.1631589E+002	5.7208576E+000	4.7811565E+000	7.4557137E+000	-3.9886894E+001	9.880926122656092E+000	3.4579548E-001	7.8392424E-002	1.0523644E+002	4.3276649E+001	1.000000000000000E+000	10	4.5689470E-003	6.1281148E-004	0	2.195445746739974E-004	1.0291595E-001	8.6011097E-002	1.3412532E-001	3.9886894E+001	4.3276645E+004	5.1782352E+004	6.7485406E+004	-5.0113106E+001	0.0000000E+000	0.0000000E+000	0.0000000E+000	5.0113106E+001	0.0000000E+000	0.0000000E+000	0.0000000E+000	-5.0113106E+001	0.0000000E+000	0.0000000E+000	0.0000000E+000	-3.9886894E+001	0.0000000E+000	0.0000000E+000	0.0000000E+000	3.9886894E+001	1.1965426E+000	5.0113098E+001	9.610105034052864E-006	2.7107746E-005	4.4110830E+003
2.1534457E+002	6.8371859E+000	5.2299776E+000	8.6081228E+000	-3.7413506E+001	1.034841406482155E+001	3.4578997E-001	7.6863952E-002	1.4131439E+002	5.2163792E+001	1.000000000000000E+000	10	4.5463922E-003	5.2815140E-004	0	2.285507073839779E-004	9.2269994E-002	7.0580207E-002	1.1616935E-001	3.7413506E+001	5.2163785E+004	6.8194078E+004	8.5857398E+004	-5.2586494E+001	0.0000000E+000	0.0000000E+000	0.0000000E+000	5.2586494E+001	0.0000000E+000	0.0000000E+000	0.0000000E+000	-5.2586494E+001	0.0000000E+000	0.0000000E+000	0.0000000E+000	-3.7413506E+001	0.0000000E+000	0.0000000E+000	0.0000000E+000	3.7413506E+001	1.3073069E+000	5.2586494E+001	9.006132709980498E-006	2.6578784E-005	4.4987275E+003
1.4673740E+002	8.0105639E+000	5.8237944E+000	9.9038229E+000	-3.6017689E+001	1.081139051346690E+001	3.4579962E-001	7.2650917E-002	1.8624014E+002	6.4399071E+001	1.000000000000000E+000	10	4.5205206E-003	4.5644198E-004	0	2.379019745361252E-004	8.1669018E-002	5.9374545E-002	1.0097111E-001	3.6017689E+001	6.4399074E+004	8.8580203E+004	1.0951572E+005	-5.3982311E+001	0.0000000E+000	0.0000000E+000	0.0000000E+000	5.3982311E+001	0.0000000E+000	0.0000000E+000	0.0000000E+000	-5.3982311E+001	0.0000000E+000	0.0000000E+000	0.0000000E+000	-3.6017689E+001	0.0000000E+000	0.0000000E+000	0.0000000E+000	3.6017689E+001	1.3754888E+000	5.3982315E+001	9.351267152147354E-006	2.5122659E-005	4.7597422E+003
1.0003201E+002	9.6473274E+000	6.4512696E+000	1.1605594E+001	-3.3771065E+001	1.127967234911193E+001	3.4579530E-001	7.5121403E-002	2.4662434E+002	7.6206429E+001	1.000000000000000E+000	10	4.5224293E-003	3.8967669E-004	0	2.478381423990561E-004	7.1626261E-002	4.7897238E-002	8.6165346E-002	3.3771065E+001	7.6206430E+004	1.1396027E+005	1.3709253E+005	-5.6228935E+001	0.0000000E+000	0.0000000E+000	0.0000000E+000	5.6228935E+001	0.0000000E+000	0.0000000E+000	0.0000000E+000	-5.6228935E+001	0.0000000E+000	0.0000000E+000	0.0000000E+000	-3.3771065E+001	0.0000000E+000	0.0000000E+000	0.0000000E+000	3.3771065E+001	1.4954153E+000	5.6228935E+001	9.936167862930852E-006	2.5976628E-005	4.6031528E+003
6.8103981E+001	1.1108429E+001	5.0305500E+000	1.2194409E+001	-2.4363813E+001	1.175832775849267E+001	3.4579793E-001	6.8344794E-002	4.6454965E+002	7.9057220E+001	1.000000000000000E+000	10	4.5121424E-003	3.7001731E-004	0	2.569868726643657E-004	7.4701808E-002	3.3829369E-002	8.2004793E-002	2.4363813E+001	7.9057227E+004	1.7457367E+005	1.9164031E+005	-6.5636185E+001	0.0000000E+000	0.0000000E+000	0.0000000E+000	6.5636185E+001	0.0000000E+000	0.0000000E+000	0.0000000E+000	-6.5636185E+001	0.0000000E+000	0.0000000E+000	0.0000000E+000	-2.4363813E+001	0.0000000E+000	0.0000000E+000	0.0000000E+000	2.4363813E+001	2.2081938E+000	6.5636185E+001	9.148730265309650E-006	2.3633487E-005	5.0596089E+003
4.6441547E+001	1.1690372E+001	6.5221014E+000	1.3386658E+001	-2.9157309E+001	1.221355927342665E+001	3.4578872E-001	7.9924598E-002	5.2544336E+002	1.2472591E+002	1.000000000000000E+000	10	4.5049991E-003	3.3652905E-004	0	2.659605894365854E-004	6.5235503E-002	3.6395125E-002	7.4701242E-002	2.9157309E+001	1.2472592E+005	2.2356172E+005	2.5600078E+005	-6.0842690E+001	0.0000000E+000	0.0000000E+000	0.0000000E+000	6.0842690E+001	0.0000000E+000	0.0000000E+000	0.0000000E+000	-6.0842690E+001	0.0000000E+000	0.0000000E+000	0.0000000E+000	-2.9157309E+001	0.0000000E+000	0.0000000E+000	0.0000000E+000	2.9157309E+001	1.7924241E+000	6.0842690E+001	8.973716772219659E-006	2.7637025E-005	4.3264365E+003
3.1629555E+001	1.6959114E+001	8.3536215E+000	1.8904882E+001	-2.6223665E+001	1.311742619637516E+001	3.4579656E-001	6.8497010E-002	6.0235461E+002	1.1761260E+002	1.000000000000000E+000	11	5.0056949E-003	2.6478319E-004	0	2.836498380543117E-004	4.7452077E-002	2.3373667E-002	5.2896388E-002	2.6223665E+001	1.1761261E+005	2.3877139E+005	2.6616631E+005	-6.3776337E+001	0.0000000E+000	0.0000000E+000	0.0000000E+000	6.3776337E+001	0.0000000E+000	0.0000000E+000	0.0000000E+000	-6.3776337E+001	0.0000000E+000	0.0000000E+000	0.0000000E+000	-2.6223665E+001	0.0000000E+000	0.0000000E+000	0.0000000E+000	2.6223665E+001	2.0301511E+000	6.3776337E+001	1.768924861772633E-005	2.3686031E-005	5.0483452E+003
2.1551722E+001	1.8044571E+001	7.9920039E+000	1.9735214E+001	-2.3888721E+001	1.355635285718017E+001	3.4579429E-001	7.7774674E-002	9.2402228E+002	1.5153401E+002	1.000000000000000E+000	11	5.0039534E-003	2.5355455E-004	0	2.934833555126178E-004	4.6330065E-002	2.0519748E-002	5.0670847E-002	2.3888721E+001	1.5153400E+005	3.4213778E+005	3.7419356E+005	-6.6111282E+001	0.0000000E+000	0.0000000E+000	0.0000000E+000	6.6111282E+001	0.0000000E+000	0.0000000E+000	0.0000000E+000	-6.6111282E+001	0.0000000E+000	0.0000000E+000	0.0000000E+000	-2.3888721E+001	0.0000000E+000	0.0000000E+000	0.0000000E+000	2.3888721E+001	2.2578280E+000	6.6111282E+001	9.833517458306075E-006	2.6894038E-005	4.4461040E+003
1.4685154E+001	2.1232098E+001	6.3383622E+000	2.2157997E+001	-1.6621803E+001	1.403403695992893E+001	3.4579578E-001	6.6175602E-002	1.7098757E+003	1.3991287E+002	1.000000000000000E+000	11	4.9978700E-003	2.2555602E-004	0	3.026356664595983E-004	4.3244600E-002	1.2909696E-002	4.5130432E-002	1.6621803E+001	1.3991286E+005	4.6867684E+005	4.8911513E+005	-7.3378197E+001	0.0000000E+000	0.0000000E+000	0.0000000E+000	7.3378197E+001	0.0000000E+000	0.0000000E+000	0.0000000E+000	-7.3378197E+001	0.0000000E+000	0.0000000E+000	0.0000000E+000	-1.6621803E+001	0.0000000E+000	0.0000000E+000	0.0000000E+000	1.6621803E+001	3.3497767E+000	7.3378197E+001	9.152310946980522E-006	2.2883243E-005	5.2254272E+003
1.0003201E+001	2.1746025E+001	5.7893138E+000	2.2503462E+001	-1.4907735E+001	1.450268111553305E+001	3.4579828E-001	7.2489217E-002	2.7482361E+003	1.8189030E+002	1.000000000000000E+000	11	4.9964846E-003	2.2203183E-004	0	3.101533031342244E-004	4.2941898E-002	1.1432162E-002	4.4437606E-002	1.4907735E+001	1.8189034E+005	6.8322281E+005	7.0702019E+005	-7.5092262E+001	0.0000000E+000	0.0000000E+000	0.0000000E+000	7.5092262E+001	0.0000000E+000	0.0000000E+000	0.0000000E+000	-7.5092262E+001	0.0000000E+000	0.0000000E+000	0.0000000E+000	-1.4907735E+001	0.0000000E+000	0.0000000E+000	0.0000000E+000	1.4907735E+001	3.7562354E+000	7.5092262E+001	7.517636674626068E-006	2.5066647E-005	4.7703408E+003
