
EC-Lab ASCII FILE
Nb header lines : 63                          

Potentio Electrochemical Impedance Spectroscopy

Run on channel : 2 (SN 66139)
User : 
CE vs. WE compliance from -10 V to 10 V
Electrode connection : standard
Potential control : Ewe
Ewe ctrl range : min = -10.00 V, max = 10.00 V
Safety Limits :
	Do not start on E overload
Acquisition started on : 09/22/2025 10:43:31.075
Loaded Setting File :  C:\Users\Celltest\OneDrive - store-dot.com\Documents\EC-Lab\Data\Gyutae\17737_R277_UA674_SOC00_C01.mpr
Saved on :
	File : 14955_R243_UA603_SOC00_C02.mpr
	Directory : C:\Users\Celltest\OneDrive - store-dot.com\Documents\EC-Lab\Data\Anna\
	Host : 169.254.61.224
Device : VMP-3e (SN .003165)
Address : USB
EC-LAB for windows v11.62 (software)
Internet server v27.00 (firmware)
Command interpretor v12.03 (firmware)
Electrode material : 
Initial state : 
Electrolyte : 
Comments : 
Electrode surface area : 0.001 cm²
Characteristic mass : 0.001 g
Equivalent Weight : 0.000 g/eq.
Density : 0.000 g/cm3
Volume (V) : 0.001 cm³
Cycle Definition : Charge/Discharge alternance
Mode                Single sine         
E (V)               0.0000              
vs.                 Eoc                 
tE (h:m:s)          0:00:0.0000         
record              0                   
dI                  0.000               
unit dI             mA                  
dt (s)              0.000               
fi                  100.000             
unit fi             kHz                 
ff                  10.000              
unit ff             mHz                 
Nd                  6                   
Points              per decade          
spacing             Logarithmic         
Va (mV)             5.0                 
pw                  0.10                
Na                  2                   
corr                0                   
E range min (V)     -10.000             
E range max (V)     10.000              
I Range             Auto                
Bandwidth           5                   
nc cycles           0                   
goto Ns'            0                   
nr cycles           0                   
inc. cycle          0                   

freq/Hz	Re(Z)/Ohm	-Im(Z)/Ohm	|Z|/Ohm	Phase(Z)/deg	time/s	<Ewe>/V	<I>/mA	Cs/µF	Cp/µF	cycle number	I Range	|Ewe|/V	|I|/A	Ns	(Q-Qo)/mA.h	Re(Y)/Ohm-1	Im(Y)/Ohm-1	|Y|/Ohm-1	Phase(Y)/deg	Re(C)/nF	Im(C)/nF	|C|/nF	Phase(C)/deg	Re(M)	Im(M)	|M|	Phase(M)/deg	Re(Permittivity)	Im(Permittivity)	|Permittivity|	Phase(Permittivity)/deg	Re(Resistivity)/Ohm.cm	Im(Resistivity)/Ohm.cm	|Resistivity|/Ohm.cm	Phase(Resistivity)/deg	Re(Conductivity)/mS/cm	Im(Conductivity)/mS/cm	|Conductivity|/mS/cm	Phase(Conductivity)/deg	Tan(Delta)	Loss Angle(Delta)/deg	dq/mA.h	Pwe/W	Rwe/Ohm	
1.0000371E+005	5.2859578E+000	1.0074017E+000	5.3810973E+000	-1.0790077E+001	1.823492273251759E+000	3.8554901E-001	-6.1724391E-003	1.5797970E+000	5.5368785E-002	1.000000000000000E+000	10	4.8515019E-003	9.0158230E-004	0	-3.766948805048337E-006	1.8255007E-001	3.4790523E-002	1.8583570E-001	1.0790077E+001	5.5368778E+001	2.9052664E+002	2.9575571E+002	-7.9209923E+001	0.0000000E+000	0.0000000E+000	0.0000000E+000	7.9209923E+001	0.0000000E+000	0.0000000E+000	0.0000000E+000	-7.9209923E+001	0.0000000E+000	0.0000000E+000	0.0000000E+000	-1.0790077E+001	0.0000000E+000	0.0000000E+000	0.0000000E+000	1.0790077E+001	5.2471204E+000	7.9209923E+001	-3.766948805048337E-006	-2.3797777E-006	6.2462992E+004
6.8132047E+004	5.5068340E+000	1.0989796E+000	5.6154232E+000	-1.1286048E+001	2.260488853993593E+000	3.8554001E-001	-5.9731370E-003	2.1255879E+000	8.1412919E-002	1.000000000000000E+000	10	5.3030732E-003	9.4437640E-004	0	-5.236318021191336E-006	1.7463729E-001	3.4851752E-002	1.7808096E-001	1.1286048E+001	8.1412933E+001	4.0794885E+002	4.1599319E+002	-7.8713951E+001	0.0000000E+000	0.0000000E+000	0.0000000E+000	7.8713951E+001	0.0000000E+000	0.0000000E+000	0.0000000E+000	-7.8713951E+001	0.0000000E+000	0.0000000E+000	0.0000000E+000	-1.1286048E+001	0.0000000E+000	0.0000000E+000	0.0000000E+000	1.1286048E+001	5.0108609E+000	7.8713951E+001	-1.469369216142998E-006	-2.3028833E-006	6.4545648E+004
4.6420355E+004	5.7531996E+000	1.1905140E+000	5.8750854E+000	-1.1691249E+001	2.697490928083425E+000	3.8553679E-001	-5.9936275E-003	2.8798985E+000	1.1825453E-001	1.000000000000000E+000	10	5.4058814E-003	9.2013669E-004	0	-4.941074986259789E-006	1.6667907E-001	3.4491025E-002	1.7021029E-001	1.1691249E+001	1.1825451E+002	5.7146912E+002	5.8357611E+002	-7.8308754E+001	0.0000000E+000	0.0000000E+000	0.0000000E+000	7.8308754E+001	0.0000000E+000	0.0000000E+000	0.0000000E+000	-7.8308754E+001	0.0000000E+000	0.0000000E+000	0.0000000E+000	-1.1691249E+001	0.0000000E+000	0.0000000E+000	0.0000000E+000	1.1691249E+001	4.8325343E+000	7.8308754E+001	2.952430349315467E-007	-2.3107639E-006	6.4324449E+004
3.1621139E+004	6.0193295E+000	1.3117875E+000	6.1606097E+000	-1.2294197E+001	3.134478895546636E+000	3.8553751E-001	-5.3696539E-003	3.8368883E+000	1.7396374E-001	1.000000000000000E+000	10	5.4092081E-003	8.7803131E-004	0	-5.877164705789053E-006	1.5859909E-001	3.4563370E-002	1.6232160E-001	1.2294197E+001	1.7396373E+002	7.9825812E+002	8.1699414E+002	-7.7705803E+001	0.0000000E+000	0.0000000E+000	0.0000000E+000	7.7705803E+001	0.0000000E+000	0.0000000E+000	0.0000000E+000	-7.7705803E+001	0.0000000E+000	0.0000000E+000	0.0000000E+000	-1.2294197E+001	0.0000000E+000	0.0000000E+000	0.0000000E+000	1.2294197E+001	4.5886469E+000	7.7705803E+001	-9.360897195292642E-007	-2.0702030E-006	7.1799320E+004
2.1544684E+004	6.3109684E+000	1.4410357E+000	6.4734001E+000	-1.2862306E+001	3.571477876248537E+000	3.8553205E-001	-5.7738419E-003	5.1263146E+000	2.5403285E-001	1.000000000000000E+000	10	5.3886175E-003	8.3242462E-004	0	-5.925258382861405E-006	1.5060213E-001	3.4388233E-002	1.5447833E-001	1.2862306E+001	2.5403282E+002	1.1125286E+003	1.1411627E+003	-7.7137695E+001	0.0000000E+000	0.0000000E+000	0.0000000E+000	7.7137695E+001	0.0000000E+000	0.0000000E+000	0.0000000E+000	-7.7137695E+001	0.0000000E+000	0.0000000E+000	0.0000000E+000	-1.2862306E+001	0.0000000E+000	0.0000000E+000	0.0000000E+000	1.2862306E+001	4.3794670E+000	7.7137695E+001	-4.809367707235213E-008	-2.2260010E-006	6.6772188E+004
1.4678594E+004	6.6550469E+000	1.5934161E+000	6.8431444E+000	-1.3464834E+001	4.008493523724610E+000	3.8553351E-001	-6.3028284E-003	6.8046608E+000	3.6893806E-001	1.000000000000000E+000	10	5.4050917E-003	7.8985497E-004	0	-7.663174150533451E-006	1.4211494E-001	3.4026537E-002	1.4613165E-001	1.3464834E+001	3.6893814E+002	1.5409034E+003	1.5844553E+003	-7.6535164E+001	0.0000000E+000	0.0000000E+000	0.0000000E+000	7.6535164E+001	0.0000000E+000	0.0000000E+000	0.0000000E+000	-7.6535164E+001	0.0000000E+000	0.0000000E+000	0.0000000E+000	-1.3464834E+001	0.0000000E+000	0.0000000E+000	0.0000000E+000	1.3464834E+001	4.1765909E+000	7.6535164E+001	-1.737915767672045E-006	-2.4299516E-006	6.1168332E+004
1.0002226E+004	7.0233679E+000	1.7809622E+000	7.2456555E+000	-1.4228954E+001	4.445483997784322E+000	3.8553283E-001	-5.6397384E-003	8.9344702E+000	5.3978753E-001	1.000000000000000E+000	10	5.3466642E-003	7.3791313E-004	0	-8.810595529677811E-006	1.3377964E-001	3.3923399E-002	1.3801374E-001	1.4228954E+001	5.3978766E+002	2.1286956E+003	2.1960681E+003	-7.5771042E+001	0.0000000E+000	0.0000000E+000	0.0000000E+000	7.5771042E+001	0.0000000E+000	0.0000000E+000	0.0000000E+000	-7.5771042E+001	0.0000000E+000	0.0000000E+000	0.0000000E+000	-1.4228954E+001	0.0000000E+000	0.0000000E+000	0.0000000E+000	1.4228954E+001	3.9435804E+000	7.5771042E+001	-1.147421379144361E-006	-2.1743042E-006	6.8360055E+004
6.8110674E+003	7.4484692E+000	1.9898689E+000	7.7096868E+000	-1.4957342E+001	5.000495304149808E+000	3.8553110E-001	-5.5298470E-003	1.1743038E+001	7.8226870E-001	1.000000000000000E+000	10	5.3431466E-003	6.9304329E-004	0	-7.671559251188429E-006	1.2531225E-001	3.3477340E-002	1.2970695E-001	1.4957342E+001	7.8226880E+002	2.9281851E+003	3.0308765E+003	-7.5042656E+001	0.0000000E+000	0.0000000E+000	0.0000000E+000	7.5042656E+001	0.0000000E+000	0.0000000E+000	0.0000000E+000	-7.5042656E+001	0.0000000E+000	0.0000000E+000	0.0000000E+000	-1.4957342E+001	0.0000000E+000	0.0000000E+000	0.0000000E+000	1.4957342E+001	3.7431960E+000	7.5042656E+001	1.139036278489382E-006	-2.1319279E-006	6.9718219E+004
4.6414854E+003	7.9126229E+000	2.2278724E+000	8.2202806E+000	-1.5725058E+001	5.694694163837994E+000	3.8554406E-001	-3.9969198E-003	1.5391212E+001	1.1305250E+000	1.000000000000000E+000	10	5.2163708E-003	6.3457334E-004	0	-8.905159123875718E-006	1.1709738E-001	3.2969851E-002	1.2165035E-001	1.5725058E+001	1.1305250E+003	4.0152288E+003	4.1713486E+003	-7.4274940E+001	0.0000000E+000	0.0000000E+000	0.0000000E+000	7.4274940E+001	0.0000000E+000	0.0000000E+000	0.0000000E+000	-7.4274940E+001	0.0000000E+000	0.0000000E+000	0.0000000E+000	-1.5725058E+001	0.0000000E+000	0.0000000E+000	0.0000000E+000	1.5725058E+001	3.5516500E+000	7.4274940E+001	-1.233599872687288E-006	-1.5409887E-006	9.6460297E+004
3.1610117E+003	8.4316759E+000	2.5065565E+000	8.7963619E+000	-1.6556086E+001	6.384688836609712E+000	3.8554376E-001	-4.2092563E-003	2.0087067E+001	1.6310427E+000	1.000000000000000E+000	10	5.0584222E-003	5.7505845E-004	0	-9.095847039124540E-006	1.0897020E-001	3.2394506E-002	1.1368337E-001	1.6556086E+001	1.6310425E+003	5.4865801E+003	5.7238853E+003	-7.3443916E+001	0.0000000E+000	0.0000000E+000	0.0000000E+000	7.3443916E+001	0.0000000E+000	0.0000000E+000	0.0000000E+000	-7.3443916E+001	0.0000000E+000	0.0000000E+000	0.0000000E+000	-1.6556086E+001	0.0000000E+000	0.0000000E+000	0.0000000E+000	1.6556086E+001	3.3638482E+000	7.3443916E+001	-1.906879152488227E-007	-1.6228526E-006	9.1594273E+004
2.1556899E+003	9.0241175E+000	2.8285239E+000	9.4570208E+000	-1.7403103E+001	6.851695632125484E+000	3.8553956E-001	-4.5855050E-003	2.6102011E+001	2.3349898E+000	1.000000000000000E+000	10	5.3260513E-003	5.6318491E-004	0	-1.013914090353460E-005	1.0090113E-001	3.1626500E-002	1.0574155E-001	1.7403103E+001	2.3349902E+003	7.4495474E+003	7.8069160E+003	-7.2596893E+001	0.0000000E+000	0.0000000E+000	0.0000000E+000	7.2596893E+001	0.0000000E+000	0.0000000E+000	0.0000000E+000	-7.2596893E+001	0.0000000E+000	0.0000000E+000	0.0000000E+000	-1.7403103E+001	0.0000000E+000	0.0000000E+000	0.0000000E+000	1.7403103E+001	3.1903982E+000	7.2596893E+001	-1.043293864410063E-006	-1.7678935E-006	8.4077883E+004
1.4685898E+003	9.6931458E+000	3.1816709E+000	1.0201965E+001	-1.8171867E+001	7.318937680975068E+000	3.8553682E-001	-4.5184535E-003	3.4061546E+001	3.3128912E+000	1.000000000000000E+000	10	5.3655980E-003	5.2593771E-004	0	-1.066399021517524E-005	9.3131594E-002	3.0569447E-002	9.8020330E-002	1.8171867E+001	3.3128914E+003	1.0092916E+004	1.0622721E+004	-7.1828133E+001	0.0000000E+000	0.0000000E+000	0.0000000E+000	7.1828133E+001	0.0000000E+000	0.0000000E+000	0.0000000E+000	-7.1828133E+001	0.0000000E+000	0.0000000E+000	0.0000000E+000	-1.8171867E+001	0.0000000E+000	0.0000000E+000	0.0000000E+000	1.8171867E+001	3.0465581E+000	7.1828133E+001	-5.248493116406376E-007	-1.7420302E-006	8.5324953E+004
1.0003202E+003	1.0448363E+001	3.5896602E+000	1.1047803E+001	-1.8960772E+001	7.787683436581574E+000	3.8553360E-001	-4.1068178E-003	4.4322861E+001	4.6793184E+000	1.000000000000000E+000	10	5.3297938E-003	4.8243022E-004	0	-1.116050221141874E-005	8.5604466E-002	2.9410437E-002	9.0515733E-002	1.8960772E+001	4.6793179E+003	1.3620014E+004	1.4401416E+004	-7.1039230E+001	0.0000000E+000	0.0000000E+000	0.0000000E+000	7.1039230E+001	0.0000000E+000	0.0000000E+000	0.0000000E+000	-7.1039230E+001	0.0000000E+000	0.0000000E+000	0.0000000E+000	-1.8960772E+001	0.0000000E+000	0.0000000E+000	0.0000000E+000	1.8960772E+001	2.9106832E+000	7.1039230E+001	-4.965119962434992E-007	-1.5833162E-006	9.3876484E+004
6.8108978E+002	1.1258514E+001	4.0465426E+000	1.1963639E+001	-1.9769485E+001	8.253422738664085E+000	3.8554111E-001	-4.1235820E-003	5.7747299E+001	6.6065283E+000	1.000000000000000E+000	10	5.2761170E-003	4.4101270E-004	0	-1.135084718590305E-005	7.8660093E-002	2.8272064E-002	8.3586603E-002	1.9769485E+001	6.6065288E+003	1.8381049E+004	1.9532260E+004	-7.0230515E+001	0.0000000E+000	0.0000000E+000	0.0000000E+000	7.0230515E+001	0.0000000E+000	0.0000000E+000	0.0000000E+000	-7.0230515E+001	0.0000000E+000	0.0000000E+000	0.0000000E+000	-1.9769485E+001	0.0000000E+000	0.0000000E+000	0.0000000E+000	1.9769485E+001	2.7822552E+000	7.0230515E+001	-1.903449744843067E-007	-1.5898104E-006	9.3496648E+004
4.6396069E+002	1.2207629E+001	4.6035833E+000	1.3046807E+001	-2.0661816E+001	8.722193320951192E+000	3.8553688E-001	-3.5890166E-003	7.4514862E+001	9.2774038E+000	1.000000000000000E+000	10	5.2406648E-003	4.0168178E-004	0	-1.202002505418043E-005	7.1717113E-002	2.7045034E-002	7.6647103E-002	2.0661816E+001	9.2774053E+003	2.4601510E+004	2.6292670E+004	-6.9338181E+001	0.0000000E+000	0.0000000E+000	0.0000000E+000	6.9338181E+001	0.0000000E+000	0.0000000E+000	0.0000000E+000	-6.9338181E+001	0.0000000E+000	0.0000000E+000	0.0000000E+000	-2.0661816E+001	0.0000000E+000	0.0000000E+000	0.0000000E+000	2.0661816E+001	2.6517668E+000	6.9338181E+001	-6.691778682773779E-007	-1.3836983E-006	1.0742131E+005
3.1631589E+002	1.3255746E+001	5.2944798E+000	1.4273973E+001	-2.1772272E+001	9.188901636458468E+000	3.8553494E-001	-4.2148540E-003	9.5033302E+001	1.3074728E+001	1.000000000000000E+000	10	5.2146739E-003	3.6532743E-004	0	-1.266053493611899E-005	6.5060049E-002	2.5985649E-002	7.0057578E-002	2.1772272E+001	1.3074727E+004	3.2735088E+004	3.5249602E+004	-6.8227730E+001	0.0000000E+000	0.0000000E+000	0.0000000E+000	6.8227730E+001	0.0000000E+000	0.0000000E+000	0.0000000E+000	-6.8227730E+001	0.0000000E+000	0.0000000E+000	0.0000000E+000	-2.1772272E+001	0.0000000E+000	0.0000000E+000	0.0000000E+000	2.1772272E+001	2.5036919E+000	6.8227730E+001	-6.405098819385682E-007	-1.6249735E-006	9.1470531E+004
2.1534457E+002	1.4483364E+001	6.0764751E+000	1.5706412E+001	-2.2760416E+001	9.656426538625965E+000	3.8553298E-001	-4.1850535E-003	1.2162826E+002	1.8204718E+001	1.000000000000000E+000	10	5.1890472E-003	3.3037763E-004	0	-1.304457402882528E-005	5.8710460E-002	2.4631890E-002	6.3668266E-002	2.2760416E+001	1.8204715E+004	4.3391199E+004	4.7055371E+004	-6.7239586E+001	0.0000000E+000	0.0000000E+000	0.0000000E+000	6.7239586E+001	0.0000000E+000	0.0000000E+000	0.0000000E+000	-6.7239586E+001	0.0000000E+000	0.0000000E+000	0.0000000E+000	-2.2760416E+001	0.0000000E+000	0.0000000E+000	0.0000000E+000	2.2760416E+001	2.3835142E+000	6.7239586E+001	-3.840390927062908E-007	-1.6134761E-006	9.2121398E+004
1.4673740E+002	1.6023369E+001	7.0600019E+000	1.7509768E+001	-2.3778606E+001	1.011936805394362E+001	3.8552839E-001	-4.4830702E-003	1.5362947E+002	2.4976028E+001	1.000000000000000E+000	10	5.1734215E-003	2.9545918E-004	0	-1.361351361676740E-005	5.2262846E-002	2.3027355E-002	5.7110980E-002	2.3778606E+001	2.4976033E+004	5.6685555E+004	6.1943961E+004	-6.6221390E+001	0.0000000E+000	0.0000000E+000	0.0000000E+000	6.6221390E+001	0.0000000E+000	0.0000000E+000	0.0000000E+000	-6.6221390E+001	0.0000000E+000	0.0000000E+000	0.0000000E+000	-2.3778606E+001	0.0000000E+000	0.0000000E+000	0.0000000E+000	2.3778606E+001	2.2695985E+000	6.6221390E+001	-5.689395879421169E-007	-1.7283509E-006	8.5996508E+004
1.0003201E+002	1.7964764E+001	8.1607265E+000	1.9731451E+001	-2.4430540E+001	1.058770498291415E+001	3.8553637E-001	-4.2297565E-003	1.9496304E+002	3.3349697E+001	1.000000000000000E+000	10	5.1661059E-003	2.6182088E-004	0	-1.416514895531064E-005	4.6142746E-002	2.0960942E-002	5.0680511E-002	2.4430540E+001	3.3349703E+004	7.3414961E+004	8.0634727E+004	-6.5569458E+001	0.0000000E+000	0.0000000E+000	0.0000000E+000	6.5569458E+001	0.0000000E+000	0.0000000E+000	0.0000000E+000	-6.5569458E+001	0.0000000E+000	0.0000000E+000	0.0000000E+000	-2.4430540E+001	0.0000000E+000	0.0000000E+000	0.0000000E+000	2.4430540E+001	2.2013681E+000	6.5569458E+001	-5.516353385432421E-007	-1.6307250E-006	9.1148594E+004
6.8103981E+001	2.0377382E+001	9.1096983E+000	2.2320938E+001	-2.4087008E+001	1.132533061792492E+001	3.8553610E-001	-5.3142272E-003	2.5653323E+002	4.2729393E+001	1.000000000000000E+000	11	5.1690657E-003	2.3157922E-004	0	-1.504815094387191E-005	4.0900018E-002	1.8284334E-002	4.4800986E-002	2.4087008E+001	4.2729391E+004	9.5580898E+004	1.0469723E+005	-6.5912994E+001	0.0000000E+000	0.0000000E+000	0.0000000E+000	6.5912994E+001	0.0000000E+000	0.0000000E+000	0.0000000E+000	-6.5912994E+001	0.0000000E+000	0.0000000E+000	0.0000000E+000	-2.4087008E+001	0.0000000E+000	0.0000000E+000	0.0000000E+000	2.4087008E+001	2.2368889E+000	6.5912994E+001	-8.830019885612676E-007	-2.0488264E-006	7.2547914E+004
4.6441547E+001	2.3274450E+001	9.6437168E+000	2.5193279E+001	-2.2506565E+001	1.178055914616562E+001	3.8554040E-001	-5.5055008E-003	3.5536038E+002	5.2070110E+001	1.000000000000000E+000	11	5.1615392E-003	2.0487762E-004	0	-1.588456170294699E-005	3.6669925E-002	1.5194103E-002	3.9693125E-002	2.2506565E+001	5.2070102E+004	1.2566764E+005	1.3602813E+005	-6.7493439E+001	0.0000000E+000	0.0000000E+000	0.0000000E+000	6.7493439E+001	0.0000000E+000	0.0000000E+000	0.0000000E+000	-6.7493439E+001	0.0000000E+000	0.0000000E+000	0.0000000E+000	-2.2506565E+001	0.0000000E+000	0.0000000E+000	0.0000000E+000	2.2506565E+001	2.4134316E+000	6.7493439E+001	-8.364107590750775E-007	-2.1225931E-006	7.0028219E+004
3.1629555E+001	2.6356380E+001	9.5372705E+000	2.8028883E+001	-1.9893070E+001	1.222744583405438E+001	3.8554057E-001	-5.5778343E-003	5.2759778E+002	6.1085701E+001	1.000000000000000E+000	11	5.1598293E-003	1.8408972E-004	0	-1.646865699856385E-005	3.3548582E-002	1.2139828E-002	3.5677481E-002	1.9893070E+001	6.1085695E+004	1.6881119E+005	1.7952348E+005	-7.0106934E+001	0.0000000E+000	0.0000000E+000	0.0000000E+000	7.0106934E+001	0.0000000E+000	0.0000000E+000	0.0000000E+000	-7.0106934E+001	0.0000000E+000	0.0000000E+000	0.0000000E+000	-1.9893070E+001	0.0000000E+000	0.0000000E+000	0.0000000E+000	1.9893070E+001	2.7635140E+000	7.0106934E+001	-5.840952956168632E-007	-2.1504814E-006	6.9120117E+004
2.1551722E+001	2.9196089E+001	8.8705692E+000	3.0513908E+001	-1.6900213E+001	1.266632878824021E+001	3.8553613E-001	-5.6965891E-003	8.3250458E+002	7.0354836E+001	1.000000000000000E+000	11	5.1584402E-003	1.6905210E-004	0	-1.752590386881194E-005	3.1356603E-002	9.5269922E-003	3.2771941E-002	1.6900213E+001	7.0354836E+004	2.3156191E+005	2.4201389E+005	-7.3099785E+001	0.0000000E+000	0.0000000E+000	0.0000000E+000	7.3099785E+001	0.0000000E+000	0.0000000E+000	0.0000000E+000	-7.3099785E+001	0.0000000E+000	0.0000000E+000	0.0000000E+000	-1.6900213E+001	0.0000000E+000	0.0000000E+000	0.0000000E+000	1.6900213E+001	3.2913432E+000	7.3099785E+001	-1.057246870248087E-006	-2.1962410E-006	6.7678414E+004
1.4685154E+001	3.1525494E+001	7.7377210E+000	3.2461193E+001	-1.3790258E+001	1.314406889097882E+001	3.8554668E-001	-5.0588259E-003	1.4006465E+003	7.9583992E+001	1.000000000000000E+000	11	5.1500867E-003	1.5865365E-004	0	-1.835156261935319E-005	2.9918026E-002	7.3431786E-003	3.0806014E-002	1.3790258E+001	7.9584000E+004	3.2424594E+005	3.3386981E+005	-7.6209740E+001	0.0000000E+000	0.0000000E+000	0.0000000E+000	7.6209740E+001	0.0000000E+000	0.0000000E+000	0.0000000E+000	-7.6209740E+001	0.0000000E+000	0.0000000E+000	0.0000000E+000	-1.3790258E+001	0.0000000E+000	0.0000000E+000	0.0000000E+000	1.3790258E+001	4.0742607E+000	7.6209740E+001	-8.256587505412541E-007	-1.9504137E-006	7.6212680E+004
