EC-Lab ASCII FILE
Nb header lines : 63                          

Potentio Electrochemical Impedance Spectroscopy

Run on channel : 4 (SN 66756)
User : 
CE vs. WE compliance from -10 V to 10 V
Electrode connection : standard
Potential control : Ewe
Ewe ctrl range : min = -10.00 V, max = 10.00 V
Safety Limits :
	Do not start on E overload
Acquisition started on : 09/22/2025 10:43:56.297
Loaded Setting File :  C:\Users\Celltest\OneDrive - store-dot.com\Documents\EC-Lab\Data\Gyutae\17739_R277_UA674_SOC00_C03.mpr
Saved on :
	File : 14957_R243_UA603_SOC00_C04.mpr
	Directory : C:\Users\Celltest\OneDrive - store-dot.com\Documents\EC-Lab\Data\Anna\
	Host : 169.254.61.224
Device : VMP-3e (SN .003165)
Address : USB
EC-LAB for windows v11.62 (software)
Internet server v27.00 (firmware)
Command interpretor v12.03 (firmware)
Electrode material : 
Initial state : 
Electrolyte : 
Comments : 
Electrode surface area : 0.001 cm²
Characteristic mass : 0.001 g
Equivalent Weight : 0.000 g/eq.
Density : 0.000 g/cm3
Volume (V) : 0.001 cm³
Cycle Definition : Charge/Discharge alternance
Mode                Single sine         
E (V)               0.0000              
vs.                 Eoc                 
tE (h:m:s)          0:00:0.0000         
record              0                   
dI                  0.000               
unit dI             mA                  
dt (s)              0.000               
fi                  100.000             
unit fi             kHz                 
ff                  10.000              
unit ff             mHz                 
Nd                  6                   
Points              per decade          
spacing             Logarithmic         
Va (mV)             5.0                 
pw                  0.10                
Na                  2                   
corr                0                   
E range min (V)     -10.000             
E range max (V)     10.000              
I Range             Auto                
Bandwidth           5                   
nc cycles           0                   
goto Ns'            0                   
nr cycles           0                   
inc. cycle          0                   

freq/Hz	Re(Z)/Ohm	-Im(Z)/Ohm	|Z|/Ohm	Phase(Z)/deg	time/s	<Ewe>/V	<I>/mA	Cs/µF	Cp/µF	cycle number	I Range	|Ewe|/V	|I|/A	Ns	(Q-Qo)/mA.h	Re(Y)/Ohm-1	Im(Y)/Ohm-1	|Y|/Ohm-1	Phase(Y)/deg	Re(C)/nF	Im(C)/nF	|C|/nF	Phase(C)/deg	Re(M)	Im(M)	|M|	Phase(M)/deg	Re(Permittivity)	Im(Permittivity)	|Permittivity|	Phase(Permittivity)/deg	Re(Resistivity)/Ohm.cm	Im(Resistivity)/Ohm.cm	|Resistivity|/Ohm.cm	Phase(Resistivity)/deg	Re(Conductivity)/mS/cm	Im(Conductivity)/mS/cm	|Conductivity|/mS/cm	Phase(Conductivity)/deg	Tan(Delta)	Loss Angle(Delta)/deg	dq/mA.h	Pwe/W	Rwe/Ohm	
1.0000371E+005	8.5920057E+000	2.4259112E+000	8.9279118E+000	-1.5766769E+001	1.864474461850477E+000	6.4422727E-001	-2.2556765E-002	6.5603817E-001	4.8437208E-002	1.000000000000000E+000	10	4.5974869E-003	5.1495660E-004	0	-2.649815021483745E-006	1.0779405E-001	3.0435126E-002	1.1200827E-001	1.5766769E+001	4.8437214E+001	1.7155319E+002	1.7826010E+002	-7.4233231E+001	0.0000000E+000	0.0000000E+000	0.0000000E+000	7.4233231E+001	0.0000000E+000	0.0000000E+000	0.0000000E+000	-7.4233231E+001	0.0000000E+000	0.0000000E+000	0.0000000E+000	-1.5766769E+001	0.0000000E+000	0.0000000E+000	0.0000000E+000	1.5766769E+001	3.5417643E+000	7.4233231E+001	-2.649815021483745E-006	-1.4531683E-005	2.8560270E+004
6.8132047E+004	9.1094198E+000	2.8221524E+000	9.5365648E+000	-1.7213293E+001	2.301475842628861E+000	6.4423531E-001	-2.2888752E-002	8.2772911E-001	7.2487853E-002	1.000000000000000E+000	10	5.2850032E-003	5.5418309E-004	0	-5.561150717439078E-006	1.0016287E-001	3.1031055E-002	1.0485956E-001	1.7213293E+001	7.2487862E+001	2.3397824E+002	2.4494960E+002	-7.2786705E+001	0.0000000E+000	0.0000000E+000	0.0000000E+000	7.2786705E+001	0.0000000E+000	0.0000000E+000	0.0000000E+000	-7.2786705E+001	0.0000000E+000	0.0000000E+000	0.0000000E+000	-1.7213293E+001	0.0000000E+000	0.0000000E+000	0.0000000E+000	1.7213293E+001	3.2278271E+000	7.2786705E+001	-2.911335695955333E-006	-1.4745742E-005	2.8146371E+004
4.6420355E+004	9.7209358E+000	3.2589526E+000	1.0252676E+001	-1.8533775E+001	2.738497116690269E+000	6.4426738E-001	-2.2075571E-002	1.0520433E+000	1.0629559E-001	1.000000000000000E+000	10	5.2352822E-003	5.1062595E-004	0	-6.849825028682568E-006	9.2476971E-002	3.1002993E-002	9.7535513E-002	1.8533775E+001	1.0629559E+002	3.1706277E+002	3.3440628E+002	-7.1466225E+001	0.0000000E+000	0.0000000E+000	0.0000000E+000	7.1466225E+001	0.0000000E+000	0.0000000E+000	0.0000000E+000	-7.1466225E+001	0.0000000E+000	0.0000000E+000	0.0000000E+000	-1.8533775E+001	0.0000000E+000	0.0000000E+000	0.0000000E+000	1.8533775E+001	2.9828405E+000	7.1466225E+001	-1.288674311243490E-006	-1.4222571E-005	2.9184631E+004
3.1621139E+004	1.0422421E+001	3.7776661E+000	1.1085919E+001	-1.9923340E+001	3.175493457441917E+000	6.4422196E-001	-2.3026768E-002	1.3323523E+000	1.5471156E-001	1.000000000000000E+000	10	5.1442147E-003	4.6403141E-004	0	-9.102917523084519E-006	8.4805720E-002	3.0738320E-002	9.0204515E-002	1.9923340E+001	1.5471156E+002	4.2684262E+002	4.5401575E+002	-7.0076660E+001	0.0000000E+000	0.0000000E+000	0.0000000E+000	7.0076660E+001	0.0000000E+000	0.0000000E+000	0.0000000E+000	-7.0076660E+001	0.0000000E+000	0.0000000E+000	0.0000000E+000	-1.9923340E+001	0.0000000E+000	0.0000000E+000	0.0000000E+000	1.9923340E+001	2.7589576E+000	7.0076660E+001	-2.253092494401952E-006	-1.4834350E-005	2.7977090E+004
2.1544684E+004	1.1287430E+001	4.3858714E+000	1.2109580E+001	-2.1234257E+001	3.612484758225037E+000	6.4422995E-001	-2.3618003E-002	1.6843182E+000	2.2094174E-001	1.000000000000000E+000	10	5.1710270E-003	4.2701952E-004	0	-1.175559931836405E-005	7.6972730E-002	2.9908711E-002	8.2579248E-002	2.1234257E+001	2.2094168E+002	5.6861322E+002	6.1002966E+002	-6.8765747E+001	0.0000000E+000	0.0000000E+000	0.0000000E+000	6.8765747E+001	0.0000000E+000	0.0000000E+000	0.0000000E+000	-6.8765747E+001	0.0000000E+000	0.0000000E+000	0.0000000E+000	-2.1234257E+001	0.0000000E+000	0.0000000E+000	0.0000000E+000	2.1234257E+001	2.5735888E+000	6.8765747E+001	-2.652681795279528E-006	-1.5215425E-005	2.7277070E+004
1.4678594E+004	1.2313397E+001	5.0142779E+000	1.3295215E+001	-2.2157200E+001	3.908480265614344E+000	6.4423376E-001	-2.3004388E-002	2.1623564E+000	3.0757666E-001	1.000000000000000E+000	10	5.4477402E-003	4.0975196E-004	0	-1.337095688748458E-005	6.9660597E-002	2.8367279E-002	7.5215034E-002	2.2157200E+001	3.0757657E+002	7.5530591E+002	8.1553070E+002	-6.7842804E+001	0.0000000E+000	0.0000000E+000	0.0000000E+000	6.7842804E+001	0.0000000E+000	0.0000000E+000	0.0000000E+000	-6.7842804E+001	0.0000000E+000	0.0000000E+000	0.0000000E+000	-2.2157200E+001	0.0000000E+000	0.0000000E+000	0.0000000E+000	2.2157200E+001	2.4556670E+000	6.7842804E+001	-1.615357569120533E-006	-1.4820203E-005	2.8004820E+004
1.0002226E+004	1.3508995E+001	5.7945905E+000	1.4699327E+001	-2.3216579E+001	4.345495753019350E+000	6.4422756E-001	-2.3621736E-002	2.7460015E+000	4.2672816E-001	1.000000000000000E+000	10	5.0009317E-003	3.4021499E-004	0	-1.559208252037934E-005	6.2521316E-002	2.6818087E-002	6.8030320E-002	2.3216579E+001	4.2672821E+002	9.9483618E+002	1.0824952E+003	-6.6783417E+001	0.0000000E+000	0.0000000E+000	0.0000000E+000	6.6783417E+001	0.0000000E+000	0.0000000E+000	0.0000000E+000	-6.6783417E+001	0.0000000E+000	0.0000000E+000	0.0000000E+000	-2.3216579E+001	0.0000000E+000	0.0000000E+000	0.0000000E+000	2.3216579E+001	2.3313115E+000	6.6783417E+001	-2.221125632894756E-006	-1.5217774E-005	2.7272660E+004
6.8110674E+003	1.4913939E+001	6.7061563E+000	1.6352312E+001	-2.4211397E+001	4.723492944351165E+000	6.4438725E-001	-4.3292628E-003	3.4844263E+000	5.8603060E-001	1.000000000000000E+000	10	4.9857255E-003	3.0489423E-004	0	-1.623567107140197E-005	5.5774286E-002	2.5079295E-002	6.1153430E-002	2.4211397E+001	5.8603058E+002	1.3032838E+003	1.4289789E+003	-6.5788605E+001	0.0000000E+000	0.0000000E+000	0.0000000E+000	6.5788605E+001	0.0000000E+000	0.0000000E+000	0.0000000E+000	-6.5788605E+001	0.0000000E+000	0.0000000E+000	0.0000000E+000	-2.4211397E+001	0.0000000E+000	0.0000000E+000	0.0000000E+000	2.4211397E+001	2.2239177E+000	6.5788605E+001	-6.435885510226291E-007	-2.7897217E-006	1.4884456E+005
4.6414854E+003	1.6545528E+001	7.6635303E+000	1.8234150E+001	-2.4852551E+001	5.194682060093328E+000	6.4446574E-001	1.6875106E-003	4.4743943E+000	7.9035276E-001	1.000000000000000E+000	10	4.9488274E-003	2.7140434E-004	0	-1.619453752624556E-005	4.9763352E-002	2.3049306E-002	5.4842152E-002	2.4852551E+001	7.9035297E+002	1.7063683E+003	1.8805187E+003	-6.5147446E+001	0.0000000E+000	0.0000000E+000	0.0000000E+000	6.5147446E+001	0.0000000E+000	0.0000000E+000	0.0000000E+000	-6.5147446E+001	0.0000000E+000	0.0000000E+000	0.0000000E+000	-2.4852551E+001	0.0000000E+000	0.0000000E+000	0.0000000E+000	2.4852551E+001	2.1589956E+000	6.5147446E+001	4.113354515640076E-008	1.0875428E-006	3.8190322E+005
3.1610117E+003	1.8492977E+001	8.7389975E+000	2.0453857E+001	-2.5293434E+001	5.661672482274298E+000	6.4447099E-001	1.4692935E-003	5.7614579E+000	1.0517322E+000	1.000000000000000E+000	10	4.9240617E-003	2.4074000E-004	0	-1.623467100452399E-005	4.4203475E-002	2.0888690E-002	4.8890535E-002	2.5293434E+001	1.0517323E+003	2.2256169E+003	2.4616074E+003	-6.4706566E+001	0.0000000E+000	0.0000000E+000	0.0000000E+000	6.4706566E+001	0.0000000E+000	0.0000000E+000	0.0000000E+000	-6.4706566E+001	0.0000000E+000	0.0000000E+000	0.0000000E+000	-2.5293434E+001	0.0000000E+000	0.0000000E+000	0.0000000E+000	2.5293434E+001	2.1161439E+000	6.4706566E+001	-4.013347827842433E-008	9.4691705E-007	4.3862644E+005
2.1556899E+003	2.0719807E+001	9.8293066E+000	2.2933069E+001	-2.5379278E+001	6.128683117785840E+000	6.4446634E-001	1.8926681E-003	7.5112281E+000	1.3798515E+000	1.000000000000000E+000	10	4.9028546E-003	2.1378972E-004	0	-1.593281416783025E-005	3.9396834E-002	1.8689536E-002	4.3605153E-002	2.5379278E+001	1.3798514E+003	2.9086748E+003	3.2193755E+003	-6.4620720E+001	0.0000000E+000	0.0000000E+000	0.0000000E+000	6.4620720E+001	0.0000000E+000	0.0000000E+000	0.0000000E+000	-6.4620720E+001	0.0000000E+000	0.0000000E+000	0.0000000E+000	-2.5379278E+001	0.0000000E+000	0.0000000E+000	0.0000000E+000	2.5379278E+001	2.1079621E+000	6.4620720E+001	3.018568366937354E-007	1.2197609E-006	3.4050678E+005
1.4685898E+003	2.3289722E+001	1.1081954E+001	2.5791876E+001	-2.5446516E+001	6.595932259951951E+000	6.4447051E-001	1.5793325E-003	9.7791986E+000	1.8053862E+000	1.000000000000000E+000	10	4.8906957E-003	1.8962155E-004	0	-1.583827134198024E-005	3.5010509E-002	1.6659059E-002	3.8771898E-002	2.5446516E+001	1.8053861E+003	3.7941809E+003	4.2018125E+003	-6.4553482E+001	0.0000000E+000	0.0000000E+000	0.0000000E+000	6.4553482E+001	0.0000000E+000	0.0000000E+000	0.0000000E+000	-6.4553482E+001	0.0000000E+000	0.0000000E+000	0.0000000E+000	-2.5446516E+001	0.0000000E+000	0.0000000E+000	0.0000000E+000	2.5446516E+001	2.1015899E+000	6.4553482E+001	9.454282585001400E-008	1.0178333E-006	4.0806513E+005
1.0003202E+003	2.6197989E+001	1.2084706E+001	2.8850904E+001	-2.4763109E+001	7.065668655624904E+000	6.4446974E-001	1.3890926E-003	1.3165730E+001	2.3099275E+000	1.000000000000000E+000	10	4.8740664E-003	1.6893982E-004	0	-1.569252689885100E-005	3.1473789E-002	1.4518349E-002	3.4660958E-002	2.4763109E+001	2.3099272E+003	5.0076064E+003	5.5146973E+003	-6.5236893E+001	0.0000000E+000	0.0000000E+000	0.0000000E+000	6.5236893E+001	0.0000000E+000	0.0000000E+000	0.0000000E+000	-6.5236893E+001	0.0000000E+000	0.0000000E+000	0.0000000E+000	-2.4763109E+001	0.0000000E+000	0.0000000E+000	0.0000000E+000	2.4763109E+001	2.1678631E+000	6.5236893E+001	1.457444431292349E-007	8.9522820E-007	4.6395016E+005
6.8108978E+002	2.9517618E+001	1.3143485E+001	3.2311623E+001	-2.4002260E+001	7.785453116433928E+000	6.4442593E-001	-3.2624193E-003	1.7778915E+001	2.9417706E+000	1.000000000000000E+000	11	4.9326327E-003	1.5265816E-004	0	-1.605387004845316E-005	2.8272472E-002	1.2589051E-002	3.0948617E-002	2.4002260E+001	2.9417703E+003	6.6066235E+003	7.2319766E+003	-6.5997742E+001	0.0000000E+000	0.0000000E+000	0.0000000E+000	6.5997742E+001	0.0000000E+000	0.0000000E+000	0.0000000E+000	-6.5997742E+001	0.0000000E+000	0.0000000E+000	0.0000000E+000	-2.4002260E+001	0.0000000E+000	0.0000000E+000	0.0000000E+000	2.4002260E+001	2.2457983E+000	6.5997742E+001	-3.613431496021599E-007	-2.1023875E-006	1.9753008E+005
4.6396069E+002	3.2930557E+001	1.4069523E+001	3.5810238E+001	-2.3134510E+001	8.254219698690576E+000	6.4448005E-001	-3.4571663E-003	2.4381451E+001	3.7636037E+000	1.000000000000000E+000	11	4.8990920E-003	1.3680702E-004	0	-1.640112302262989E-005	2.5679389E-002	1.0971474E-002	2.7924975E-002	2.3134510E+001	3.7636030E+003	8.8089395E+003	9.5792549E+003	-6.6865494E+001	0.0000000E+000	0.0000000E+000	0.0000000E+000	6.6865494E+001	0.0000000E+000	0.0000000E+000	0.0000000E+000	-6.6865494E+001	0.0000000E+000	0.0000000E+000	0.0000000E+000	-2.3134510E+001	0.0000000E+000	0.0000000E+000	0.0000000E+000	2.3134510E+001	2.3405597E+000	6.6865494E+001	-3.472529741767274E-007	-2.2280747E-006	1.8641859E+005
3.1631589E+002	3.6686947E+001	1.4769344E+001	3.9548271E+001	-2.1928612E+001	8.720920120889787E+000	6.4444387E-001	-3.3295730E-003	3.4067314E+001	4.7512221E+000	1.000000000000000E+000	11	4.8878053E-003	1.2359087E-004	0	-1.676293684138773E-005	2.3456141E-002	9.4429180E-003	2.5285555E-002	2.1928612E+001	4.7512222E+003	1.1802003E+004	1.2722476E+004	-6.8071388E+001	0.0000000E+000	0.0000000E+000	0.0000000E+000	6.8071388E+001	0.0000000E+000	0.0000000E+000	0.0000000E+000	-6.8071388E+001	0.0000000E+000	0.0000000E+000	0.0000000E+000	-2.1928612E+001	0.0000000E+000	0.0000000E+000	0.0000000E+000	2.1928612E+001	2.4839928E+000	6.8071388E+001	-3.618138187578349E-007	-2.1457229E-006	1.9355152E+005
2.1534457E+002	4.0586098E+001	1.5360457E+001	4.3395565E+001	-2.0729948E+001	9.188413823052542E+000	6.4442122E-001	-3.1756775E-003	4.8115177E+001	6.0283670E+000	1.000000000000000E+000	11	4.8784730E-003	1.1241870E-004	0	-1.722822177977570E-005	2.1551952E-002	8.1566805E-003	2.3043830E-002	2.0729948E+001	6.0283667E+003	1.5928424E+004	1.7031027E+004	-6.9270050E+001	0.0000000E+000	0.0000000E+000	0.0000000E+000	6.9270050E+001	0.0000000E+000	0.0000000E+000	0.0000000E+000	-6.9270050E+001	0.0000000E+000	0.0000000E+000	0.0000000E+000	-2.0729948E+001	0.0000000E+000	0.0000000E+000	0.0000000E+000	2.0729948E+001	2.6422453E+000	6.9270050E+001	-4.652849383879680E-007	-2.0464740E-006	2.0292402E+005
1.4673740E+002	4.4534237E+001	1.5876545E+001	4.7279625E+001	-1.9621254E+001	9.651364911725977E+000	6.4445251E-001	-3.5299156E-003	6.8316139E+001	7.7034855E+000	1.000000000000000E+000	11	4.8730196E-003	1.0306807E-004	0	-1.767029694222502E-005	1.9922597E-002	7.1024466E-003	2.1150760E-002	1.9621254E+001	7.7034863E+003	2.1608535E+004	2.2940629E+004	-7.0378746E+001	0.0000000E+000	0.0000000E+000	0.0000000E+000	7.0378746E+001	0.0000000E+000	0.0000000E+000	0.0000000E+000	-7.0378746E+001	0.0000000E+000	0.0000000E+000	0.0000000E+000	-1.9621254E+001	0.0000000E+000	0.0000000E+000	0.0000000E+000	1.9621254E+001	2.8050332E+000	7.0378746E+001	-4.420751624493271E-007	-2.2748629E-006	1.8256881E+005
1.0003201E+002	4.8530987E+001	1.6330427E+001	5.1204880E+001	-1.8597822E+001	1.011971173401253E+001	6.4442456E-001	-3.2079495E-003	9.7427956E+001	9.9095964E+000	1.000000000000000E+000	11	4.8645539E-003	9.5001764E-005	0	-1.808694533063923E-005	1.8509574E-002	6.2283771E-003	1.9529389E-002	1.8597822E+001	9.9095986E+003	2.9449477E+004	3.1072043E+004	-7.1402176E+001	0.0000000E+000	0.0000000E+000	0.0000000E+000	7.1402176E+001	0.0000000E+000	0.0000000E+000	0.0000000E+000	-7.1402176E+001	0.0000000E+000	0.0000000E+000	0.0000000E+000	-1.8597822E+001	0.0000000E+000	0.0000000E+000	0.0000000E+000	1.8597822E+001	2.9718137E+000	7.1402176E+001	-4.166483884142120E-007	-2.0672815E-006	2.0088364E+005
6.8103981E+001	5.3001617E+001	1.6402086E+001	5.5481529E+001	-1.7195408E+001	1.059831415672670E+001	6.4445913E-001	-2.9576144E-003	1.4247823E+002	1.2452309E+001	1.000000000000000E+000	11	4.8734862E-003	8.7839799E-005	0	-1.844950159716407E-005	1.7218379E-002	5.3284667E-003	1.8024016E-002	1.7195408E+001	1.2452308E+004	4.0238332E+004	4.2121055E+004	-7.2804596E+001	0.0000000E+000	0.0000000E+000	0.0000000E+000	7.2804596E+001	0.0000000E+000	0.0000000E+000	0.0000000E+000	-7.2804596E+001	0.0000000E+000	0.0000000E+000	0.0000000E+000	-1.7195408E+001	0.0000000E+000	0.0000000E+000	0.0000000E+000	1.7195408E+001	3.2313948E+000	7.2804596E+001	-3.625562665248344E-007	-1.9060616E-006	2.1789830E+005
4.6441547E+001	5.7120716E+001	1.6500101E+001	5.9456116E+001	-1.6112085E+001	1.105354153833468E+001	6.4441508E-001	-3.5278650E-003	2.0769539E+002	1.5995838E+001	1.000000000000000E+000	11	4.8612705E-003	8.1762330E-005	0	-1.891151621951202E-005	1.6158482E-002	4.6675988E-003	1.6819127E-002	1.6112085E+001	1.5995835E+004	5.5375039E+004	5.7639063E+004	-7.3887917E+001	0.0000000E+000	0.0000000E+000	0.0000000E+000	7.3887917E+001	0.0000000E+000	0.0000000E+000	0.0000000E+000	-7.3887917E+001	0.0000000E+000	0.0000000E+000	0.0000000E+000	-1.6112085E+001	0.0000000E+000	0.0000000E+000	0.0000000E+000	1.6112085E+001	3.4618404E+000	7.3887917E+001	-4.620146223479525E-007	-2.2734093E-006	1.8266433E+005
3.1629555E+001	6.1688660E+001	1.5755008E+001	6.3668758E+001	-1.4326829E+001	1.150043363953591E+001	6.4441711E-001	-3.7739109E-003	3.1938052E+002	1.9556580E+001	1.000000000000000E+000	11	4.8597092E-003	7.6328004E-005	0	-1.933379309895706E-005	1.5217823E-002	3.8865642E-003	1.5706290E-002	1.4326829E+001	1.9556580E+004	7.6573703E+004	7.9031586E+004	-7.5673172E+001	0.0000000E+000	0.0000000E+000	0.0000000E+000	7.5673172E+001	0.0000000E+000	0.0000000E+000	0.0000000E+000	-7.5673172E+001	0.0000000E+000	0.0000000E+000	0.0000000E+000	-1.4326829E+001	0.0000000E+000	0.0000000E+000	0.0000000E+000	1.4326829E+001	3.9154954E+000	7.5673172E+001	-4.222768794450343E-007	-2.4319727E-006	1.7075578E+005
2.1551722E+001	6.6273849E+001	1.6431128E+001	6.8280342E+001	-1.3924443E+001	1.193933651372208E+001	6.4441502E-001	-3.9268732E-003	4.4943903E+002	2.6026402E+001	1.000000000000000E+000	11	4.8840339E-003	7.1529139E-005	0	-2.003649098806111E-005	1.4215129E-002	3.5243253E-003	1.4645504E-002	1.3924443E+001	2.6026410E+004	1.0497575E+005	1.0815398E+005	-7.6075554E+001	0.0000000E+000	0.0000000E+000	0.0000000E+000	7.6075554E+001	0.0000000E+000	0.0000000E+000	0.0000000E+000	-7.6075554E+001	0.0000000E+000	0.0000000E+000	0.0000000E+000	-1.3924443E+001	0.0000000E+000	0.0000000E+000	0.0000000E+000	1.3924443E+001	4.0334330E+000	7.6075554E+001	-7.026978891040516E-007	-2.5305360E-006	1.6410386E+005
1.4685154E+001	7.0382324E+001	1.4551083E+001	7.1870758E+001	-1.1680955E+001	1.241804725650582E+001	6.4444703E-001	-2.9389621E-003	7.4481140E+002	3.0530397E+001	1.000000000000000E+000	11	4.8719859E-003	6.7788154E-005	0	-2.038392902993190E-005	1.3625710E-002	2.8170259E-003	1.3913864E-002	1.1680955E+001	3.0530395E+004	1.4767289E+005	1.5079584E+005	-7.8319046E+001	0.0000000E+000	0.0000000E+000	0.0000000E+000	7.8319046E+001	0.0000000E+000	0.0000000E+000	0.0000000E+000	-7.8319046E+001	0.0000000E+000	0.0000000E+000	0.0000000E+000	-1.1680955E+001	0.0000000E+000	0.0000000E+000	0.0000000E+000	1.1680955E+001	4.8369131E+000	7.8319046E+001	-3.474380418707970E-007	-1.8940053E-006	2.1927708E+005
