EC-Lab ASCII FILE
Nb header lines : 63                          


Potentio Electrochemical Impedance Spectroscopy

Run on channel : 7 (SN 66126)
User : 
CE vs. WE compliance from -10 V to 10 V
Electrode connection : standard
Potential control : Ewe
Ewe ctrl range : min = -10.00 V, max = 10.00 V
Safety Limits :
	Do not start on E overload
Acquisition started on : 09/15/2025 10:19:04.385
Loaded Setting File :  C:\Users\Celltest\OneDrive - store-dot.com\Documents\EC-Lab\Data\Charmaine\R279\17382_C01.mpr
Saved on :
	File : 16204 R266 G001- 26 half cell_C07.mpr
	Directory : C:\Users\Celltest\OneDrive - store-dot.com\Documents\EC-Lab\Data\Gyutae\
	Host : 169.254.61.224
Device : VMP-3e (SN .003165)
Address : USB
EC-LAB for windows v11.62 (software)
Internet server v27.00 (firmware)
Command interpretor v12.03 (firmware)
Electrode material : 
Initial state : 
Electrolyte : 
Comments : 
Electrode surface area : 0.001 cm²
Characteristic mass : 0.001 g
Equivalent Weight : 0.000 g/eq.
Density : 0.000 g/cm3
Volume (V) : 0.001 cm³
Cycle Definition : Charge/Discharge alternance
Mode                Single sine         
E (V)               0.0000              
vs.                 Eoc                 
tE (h:m:s)          0:00:0.0000         
record              0                   
dI                  0.000               
unit dI             mA                  
dt (s)              0.000               
fi                  100.000             
unit fi             kHz                 
ff                  10.000              
unit ff             mHz                 
Nd                  6                   
Points              per decade          
spacing             Logarithmic         
Va (mV)             5.0                 
pw                  0.10                
Na                  2                   
corr                0                   
E range min (V)     -10.000             
E range max (V)     10.000              
I Range             Auto                
Bandwidth           5                   
nc cycles           0                   
goto Ns'            0                   
nr cycles           0                   
inc. cycle          0                   

freq/Hz	Re(Z)/Ohm	-Im(Z)/Ohm	|Z|/Ohm	Phase(Z)/deg	time/s	<Ewe>/V	<I>/mA	Cs/µF	Cp/µF	cycle number	I Range	|Ewe|/V	|I|/A	Ns	(Q-Qo)/mA.h	Re(Y)/Ohm-1	Im(Y)/Ohm-1	|Y|/Ohm-1	Phase(Y)/deg	Re(C)/nF	Im(C)/nF	|C|/nF	Phase(C)/deg	Re(M)	Im(M)	|M|	Phase(M)/deg	Re(Permittivity)	Im(Permittivity)	|Permittivity|	Phase(Permittivity)/deg	Re(Resistivity)/Ohm.cm	Im(Resistivity)/Ohm.cm	|Resistivity|/Ohm.cm	Phase(Resistivity)/deg	Re(Conductivity)/mS/cm	Im(Conductivity)/mS/cm	|Conductivity|/mS/cm	Phase(Conductivity)/deg	Tan(Delta)	Loss Angle(Delta)/deg	dq/mA.h	Pwe/W	Rwe/Ohm	
1.0000371E+005	8.8982189E-001	1.3244101E-001	8.9962417E-001	-8.4657488E+000	1.917498571070610E+000	3.1916314E-001	7.3399611E-002	1.2016598E+001	2.6043794E-001	1.000000000000000E+000	9	2.1966659E-003	2.4417595E-003	0	1.144939077864142E-005	1.0994636E+000	1.6364406E-001	1.1115752E+000	8.4657488E+000	2.6043805E+002	1.7497858E+003	1.7690614E+003	-8.1534248E+001	0.0000000E+000	0.0000000E+000	0.0000000E+000	8.1534248E+001	0.0000000E+000	0.0000000E+000	0.0000000E+000	-8.1534248E+001	0.0000000E+000	0.0000000E+000	0.0000000E+000	-8.4657488E+000	0.0000000E+000	0.0000000E+000	0.0000000E+000	8.4657488E+000	6.7186279E+000	8.1534248E+001	1.144939077864142E-005	2.3426450E-005	4.3482949E+003
6.8132047E+004	9.2572796E-001	1.6715524E-001	9.4069821E-001	-1.0235397E+001	2.495487505191704E+000	3.1916884E-001	6.4872578E-002	1.3974899E+001	4.4125336E-001	1.000000000000000E+000	9	2.7327330E-003	2.9050051E-003	0	2.331244023987610E-005	1.0461229E+000	1.8889451E-001	1.0630401E+000	1.0235397E+001	4.4125342E+002	2.4437200E+003	2.4832383E+003	-7.9764603E+001	0.0000000E+000	0.0000000E+000	0.0000000E+000	7.9764603E+001	0.0000000E+000	0.0000000E+000	0.0000000E+000	-7.9764603E+001	0.0000000E+000	0.0000000E+000	0.0000000E+000	-1.0235397E+001	0.0000000E+000	0.0000000E+000	0.0000000E+000	1.0235397E+001	5.5381331E+000	7.9764603E+001	1.186304946123467E-005	2.0705305E-005	4.9199346E+003
4.6420355E+004	9.4594789E-001	2.6496628E-001	9.8235661E-001	-1.5647912E+001	3.214491379301762E+000	3.1924167E-001	5.3385332E-002	1.2939607E+001	9.4137782E-001	1.000000000000000E+000	9	5.0444626E-003	5.1350626E-003	0	1.539636621986412E-005	9.8023200E-001	2.7456948E-001	1.0179603E+000	1.5647912E+001	9.4137769E+002	3.3607834E+003	3.4901372E+003	-7.4352089E+001	0.0000000E+000	0.0000000E+000	0.0000000E+000	7.4352089E+001	0.0000000E+000	0.0000000E+000	0.0000000E+000	-7.4352089E+001	0.0000000E+000	0.0000000E+000	0.0000000E+000	-1.5647912E+001	0.0000000E+000	0.0000000E+000	0.0000000E+000	1.5647912E+001	3.5700688E+000	7.4352089E+001	-7.916074020011972E-006	1.7042823E-005	5.9799512E+003
3.1621139E+004	1.0082753E+000	3.0282116E-001	1.0527676E+000	-1.6716892E+001	3.792499673465500E+000	3.1925008E-001	5.4688573E-002	1.6620972E+001	1.3751935E+000	1.000000000000000E+000	9	4.9196733E-003	4.6730856E-003	0	2.398567677612623E-005	9.0973324E-001	2.7322543E-001	9.4987720E-001	1.6716892E+001	1.3751930E+003	4.5788530E+003	4.7809048E+003	-7.3283112E+001	0.0000000E+000	0.0000000E+000	0.0000000E+000	7.3283112E+001	0.0000000E+000	0.0000000E+000	0.0000000E+000	-7.3283112E+001	0.0000000E+000	0.0000000E+000	0.0000000E+000	-1.6716892E+001	0.0000000E+000	0.0000000E+000	0.0000000E+000	1.6716892E+001	3.3296063E+000	7.3283112E+001	8.589310556262112E-006	1.7459332E-005	5.8376011E+003
2.1544684E+004	1.0809213E+000	3.4148127E-001	1.1335785E+000	-1.7532206E+001	4.230484334257199E+000	3.1925395E-001	5.2175134E-002	2.1632820E+001	1.9631057E+000	1.000000000000000E+000	9	5.2332333E-003	4.6165599E-003	0	3.943855908839032E-005	8.4118372E-001	2.6574412E-001	8.8216209E-001	1.7532206E+001	1.9631052E+003	6.2139937E+003	6.5167095E+003	-7.2467796E+001	0.0000000E+000	0.0000000E+000	0.0000000E+000	7.2467796E+001	0.0000000E+000	0.0000000E+000	0.0000000E+000	-7.2467796E+001	0.0000000E+000	0.0000000E+000	0.0000000E+000	-1.7532206E+001	0.0000000E+000	0.0000000E+000	0.0000000E+000	1.7532206E+001	3.1653898E+000	7.2467796E+001	1.545288231226409E-005	1.6657117E-005	6.1188906E+003
1.4678594E+004	1.1579854E+000	3.8694891E-001	1.2209258E+000	-1.8477409E+001	4.667498941678787E+000	3.1924951E-001	4.7613703E-002	2.8020897E+001	2.8145616E+000	1.000000000000000E+000	9	5.2111419E-003	4.2681890E-003	0	4.503043134494995E-005	7.7682745E-001	2.5958231E-001	8.1905061E-001	1.8477409E+001	2.8145615E+003	8.4228730E+003	8.8806836E+003	-7.1522591E+001	0.0000000E+000	0.0000000E+000	0.0000000E+000	7.1522591E+001	0.0000000E+000	0.0000000E+000	0.0000000E+000	-7.1522591E+001	0.0000000E+000	0.0000000E+000	0.0000000E+000	-1.8477409E+001	0.0000000E+000	0.0000000E+000	0.0000000E+000	1.8477409E+001	2.9926054E+000	7.1522591E+001	5.591872256559632E-006	1.5200651E-005	6.7049922E+003
1.0002226E+004	1.2434883E+000	4.4350648E-001	1.3202126E+000	-1.9629444E+001	5.105485869135009E+000	3.1925029E-001	4.6571061E-002	3.5877609E+001	4.0488877E+000	1.000000000000000E+000	9	5.1944247E-003	3.9345366E-003	0	4.972738791479626E-005	7.1343428E-001	2.5445572E-001	7.5745374E-001	1.9629444E+001	4.0488865E+003	1.1352133E+004	1.2052568E+004	-7.0370560E+001	0.0000000E+000	0.0000000E+000	0.0000000E+000	7.0370560E+001	0.0000000E+000	0.0000000E+000	0.0000000E+000	-7.0370560E+001	0.0000000E+000	0.0000000E+000	0.0000000E+000	-1.9629444E+001	0.0000000E+000	0.0000000E+000	0.0000000E+000	1.9629444E+001	2.8037658E+000	7.0370560E+001	4.696956569846307E-006	1.4867825E-005	6.8551216E+003
6.8110674E+003	1.3465090E+000	5.0877035E-001	1.4394213E+000	-2.0698771E+001	5.483514793770155E+000	3.1919098E-001	-3.7162809E-003	4.5928593E+001	5.7378726E+000	1.000000000000000E+000	9	5.2164784E-003	3.6240108E-003	0	5.284768065921445E-005	6.4988035E-001	2.4555339E-001	6.9472367E-001	2.0698771E+001	5.7378716E+003	1.5185824E+004	1.6233682E+004	-6.9301231E+001	0.0000000E+000	0.0000000E+000	0.0000000E+000	6.9301231E+001	0.0000000E+000	0.0000000E+000	0.0000000E+000	-6.9301231E+001	0.0000000E+000	0.0000000E+000	0.0000000E+000	-2.0698771E+001	0.0000000E+000	0.0000000E+000	0.0000000E+000	2.0698771E+001	2.6465948E+000	6.9301231E+001	3.120292744418188E-006	-1.1862033E-006	8.5889898E+004
4.6414854E+003	1.4588230E+000	5.8060712E-001	1.5701176E+000	-2.1702406E+001	5.954689029524161E+000	3.1920201E-001	2.6240142E-002	5.9058281E+001	8.0757179E+000	1.000000000000000E+000	9	5.0913766E-003	3.2426722E-003	0	5.904980979339840E-005	5.9175003E-001	2.3551472E-001	6.3689500E-001	2.1702406E+001	8.0757183E+003	2.0290902E+004	2.1838908E+004	-6.8297592E+001	0.0000000E+000	0.0000000E+000	0.0000000E+000	6.8297592E+001	0.0000000E+000	0.0000000E+000	0.0000000E+000	-6.8297592E+001	0.0000000E+000	0.0000000E+000	0.0000000E+000	-2.1702406E+001	0.0000000E+000	0.0000000E+000	0.0000000E+000	2.1702406E+001	2.5125821E+000	6.8297592E+001	6.202129134183956E-006	8.3759060E-006	1.2164645E+004
3.1610117E+003	1.5751662E+000	6.6650140E-001	1.7103721E+000	-2.2934719E+001	6.421700838371180E+000	3.1920043E-001	2.4210773E-002	7.5542778E+001	1.1471333E+001	1.000000000000000E+000	9	4.9801106E-003	2.9117118E-003	0	6.042689641663391E-005	5.3844976E-001	2.2783469E-001	5.8466810E-001	2.2934719E+001	1.1471334E+004	2.7110604E+004	2.9437668E+004	-6.7065277E+001	0.0000000E+000	0.0000000E+000	0.0000000E+000	6.7065277E+001	0.0000000E+000	0.0000000E+000	0.0000000E+000	-6.7065277E+001	0.0000000E+000	0.0000000E+000	0.0000000E+000	-2.2934719E+001	0.0000000E+000	0.0000000E+000	0.0000000E+000	2.2934719E+001	2.3633351E+000	6.7065277E+001	1.377086623235505E-006	7.7280893E-006	1.3184230E+004
2.1556899E+003	1.7057462E+000	7.7803779E-001	1.8748101E+000	-2.4519033E+001	6.888689713887288E+000	3.1920102E-001	2.1101562E-002	9.4892776E+001	1.6342554E+001	1.000000000000000E+000	9	4.8997547E-003	2.6134672E-003	0	6.527433572550459E-005	4.8528832E-001	2.2135335E-001	5.3338736E-001	2.4519033E+001	1.6342557E+004	3.5828918E+004	3.9380078E+004	-6.5480965E+001	0.0000000E+000	0.0000000E+000	0.0000000E+000	6.5480965E+001	0.0000000E+000	0.0000000E+000	0.0000000E+000	-6.5480965E+001	0.0000000E+000	0.0000000E+000	0.0000000E+000	-2.4519033E+001	0.0000000E+000	0.0000000E+000	0.0000000E+000	2.4519033E+001	2.1923692E+000	6.5480965E+001	4.847439308870683E-006	6.7356405E-006	1.5126891E+004
1.4685898E+003	1.8375249E+000	9.2853552E-001	2.0588045E+000	-2.6808319E+001	7.355935869389214E+000	3.1920692E-001	2.3335712E-002	1.1671350E+002	2.3740395E+001	1.000000000000000E+000	9	4.8388341E-003	2.3503124E-003	0	6.962894138494610E-005	4.3351391E-001	2.1906264E-001	4.8571879E-001	2.6808319E+001	2.3740393E+004	4.6981035E+004	5.2638617E+004	-6.3191681E+001	0.0000000E+000	0.0000000E+000	0.0000000E+000	6.3191681E+001	0.0000000E+000	0.0000000E+000	0.0000000E+000	-6.3191681E+001	0.0000000E+000	0.0000000E+000	0.0000000E+000	-2.6808319E+001	0.0000000E+000	0.0000000E+000	0.0000000E+000	2.6808319E+001	1.9789494E+000	6.3191681E+001	4.354605659441510E-006	7.4489208E-006	1.3678902E+004
1.0003202E+003	1.9924020E+000	1.1322751E+000	2.2916615E+000	-2.9609421E+001	7.824681891674118E+000	3.1921098E-001	2.4490016E-002	1.4051709E+002	3.4303001E+001	1.000000000000000E+000	9	4.7982181E-003	2.0937726E-003	0	7.109642911975324E-005	3.7938139E-001	2.1560113E-001	4.3636462E-001	2.9609421E+001	3.4303000E+004	6.0361090E+004	6.9427352E+004	-6.0390579E+001	0.0000000E+000	0.0000000E+000	0.0000000E+000	6.0390579E+001	0.0000000E+000	0.0000000E+000	0.0000000E+000	-6.0390579E+001	0.0000000E+000	0.0000000E+000	0.0000000E+000	-2.9609421E+001	0.0000000E+000	0.0000000E+000	0.0000000E+000	2.9609421E+001	1.7596447E+000	6.0390579E+001	1.467487734807137E-006	7.8174817E-006	1.3034331E+004
6.8108978E+002	2.1607993E+000	1.4321027E+000	2.5922909E+000	-3.3535034E+001	8.290419273747830E+000	3.1920007E-001	1.8997690E-002	1.6317050E+002	4.9799213E+001	1.000000000000000E+000	9	4.7810697E-003	1.8443415E-003	0	7.235888610346915E-005	3.2154885E-001	2.1311142E-001	3.8575917E-001	3.3535034E+001	4.9799211E+004	7.5138531E+004	9.0143000E+004	-5.6464966E+001	0.0000000E+000	0.0000000E+000	0.0000000E+000	5.6464966E+001	0.0000000E+000	0.0000000E+000	0.0000000E+000	-5.6464966E+001	0.0000000E+000	0.0000000E+000	0.0000000E+000	-3.3535034E+001	0.0000000E+000	0.0000000E+000	0.0000000E+000	3.3535034E+001	1.5088298E+000	5.6464966E+001	1.262456983715913E-006	6.0640637E-006	1.6802047E+004
4.6396069E+002	2.3906178E+000	1.8437611E+000	3.0190244E+000	-3.7641163E+001	9.013205094757723E+000	3.1924117E-001	-9.2372615E-003	1.8605197E+002	6.9392151E+001	1.000000000000000E+000	10	4.8273639E-003	1.5989814E-003	0	7.509963146528106E-005	2.6228708E-001	2.0228861E-001	3.3123285E-001	3.7641163E+001	6.9392148E+004	8.9973750E+004	1.1362459E+005	-5.2358837E+001	0.0000000E+000	0.0000000E+000	0.0000000E+000	5.2358837E+001	0.0000000E+000	0.0000000E+000	0.0000000E+000	-5.2358837E+001	0.0000000E+000	0.0000000E+000	0.0000000E+000	-3.7641163E+001	0.0000000E+000	0.0000000E+000	0.0000000E+000	3.7641163E+001	1.2965984E+000	5.2358841E+001	2.740745361811908E-006	-2.9489140E-006	3.4560152E+004
3.1631589E+002	2.7044568E+000	2.4153395E+000	3.6260104E+000	-4.1767914E+001	9.479908850276843E+000	3.1924152E-001	-9.8235970E-003	2.0831520E+002	9.2431335E+001	1.000000000000000E+000	10	4.8028673E-003	1.3245597E-003	0	7.312628872409955E-005	2.0569417E-001	1.8370463E-001	2.7578521E-001	4.1767914E+001	9.2431344E+004	1.0349541E+005	1.3876186E+005	-4.8232086E+001	0.0000000E+000	0.0000000E+000	0.0000000E+000	4.8232086E+001	0.0000000E+000	0.0000000E+000	0.0000000E+000	-4.8232086E+001	0.0000000E+000	0.0000000E+000	0.0000000E+000	-4.1767914E+001	0.0000000E+000	0.0000000E+000	0.0000000E+000	4.1767914E+001	1.1197006E+000	4.8232086E+001	-1.973342741181508E-006	-3.1361001E-006	3.2497416E+004
2.1534457E+002	3.1632545E+000	3.1639893E+000	4.4740372E+000	-4.5006653E+001	9.947452179127140E+000	3.1923383E-001	-1.0117701E-002	2.3358836E+002	1.1682130E+002	1.000000000000000E+000	10	4.7671944E-003	1.0655241E-003	0	7.133653070188464E-005	1.5802833E-001	1.5806504E-001	2.2351177E-001	4.5006653E+001	1.1682130E+005	1.1679418E+005	1.6519109E+005	-4.4993347E+001	0.0000000E+000	0.0000000E+000	0.0000000E+000	4.4993347E+001	0.0000000E+000	0.0000000E+000	0.0000000E+000	-4.4993347E+001	0.0000000E+000	0.0000000E+000	0.0000000E+000	-4.5006653E+001	0.0000000E+000	0.0000000E+000	0.0000000E+000	4.5006653E+001	9.9976778E-001	4.4993347E+001	-1.789758022214909E-006	-3.2299126E-006	3.1552012E+004
1.4673740E+002	3.8723369E+000	4.1143632E+000	5.6500421E+000	-4.6735741E+001	1.041038742774981E+001	3.1923097E-001	-1.1429980E-002	2.6361899E+002	1.3979080E+002	1.000000000000000E+000	10	4.7548953E-003	8.4156817E-004	0	7.050647113469959E-005	1.2130251E-001	1.2888408E-001	1.7698984E-001	4.6735741E+001	1.3979080E+005	1.3156764E+005	1.9196747E+005	-4.3264259E+001	0.0000000E+000	0.0000000E+000	0.0000000E+000	4.3264259E+001	0.0000000E+000	0.0000000E+000	0.0000000E+000	-4.3264259E+001	0.0000000E+000	0.0000000E+000	0.0000000E+000	-4.6735741E+001	0.0000000E+000	0.0000000E+000	0.0000000E+000	4.6735741E+001	9.4117528E-001	4.3264252E+001	-8.300595671850507E-007	-3.6488038E-006	2.7929268E+004
1.0003201E+002	4.9406714E+000	5.2040977E+000	7.1758533E+000	-4.6487450E+001	1.087866843672964E+001	3.1923300E-001	-1.0236844E-002	3.0572833E+002	1.6079758E+002	1.000000000000000E+000	10	4.7352863E-003	6.5989175E-004	0	7.007716831993700E-005	9.5948659E-002	1.0106444E-001	1.3935626E-001	4.6487450E+001	1.6079756E+005	1.5265816E+005	2.2172138E+005	-4.3512550E+001	0.0000000E+000	0.0000000E+000	0.0000000E+000	4.3512550E+001	0.0000000E+000	0.0000000E+000	0.0000000E+000	-4.3512550E+001	0.0000000E+000	0.0000000E+000	0.0000000E+000	-4.6487450E+001	0.0000000E+000	0.0000000E+000	0.0000000E+000	4.6487450E+001	9.4938099E-001	4.3512543E+001	-4.293028147625962E-007	-3.2679386E-006	3.1184707E+004
6.8103981E+001	6.5124373E+000	6.3233542E+000	9.0772600E+000	-4.4156040E+001	1.135733181939577E+001	3.1924233E-001	-7.7053686E-003	3.6957288E+002	1.7934348E+002	1.000000000000000E+000	10	4.7327573E-003	5.2138610E-004	0	6.966218086383500E-005	7.9037651E-002	7.6742858E-002	1.1016540E-001	4.4156040E+001	1.7934348E+005	1.8470628E+005	2.5744998E+005	-4.5843960E+001	0.0000000E+000	0.0000000E+000	0.0000000E+000	4.5843960E+001	0.0000000E+000	0.0000000E+000	0.0000000E+000	-4.5843960E+001	0.0000000E+000	0.0000000E+000	0.0000000E+000	-4.4156040E+001	0.0000000E+000	0.0000000E+000	0.0000000E+000	4.4156040E+001	1.0299023E+000	4.5843964E+001	-4.149874561019934E-007	-2.4598799E-006	4.1431156E+004
4.6441547E+001	8.5778189E+000	7.2173343E+000	1.1210214E+001	-4.0077091E+001	1.181255981439608E+001	3.1924102E-001	-1.3010302E-002	4.7482837E+002	1.9681696E+002	1.000000000000000E+000	10	4.7289282E-003	4.2184105E-004	0	6.855667467627145E-005	6.8257295E-002	5.7431351E-002	8.9204364E-002	4.0077091E+001	1.9681695E+005	2.3391741E+005	3.0570291E+005	-4.9922909E+001	0.0000000E+000	0.0000000E+000	0.0000000E+000	4.9922909E+001	0.0000000E+000	0.0000000E+000	0.0000000E+000	-4.9922909E+001	0.0000000E+000	0.0000000E+000	0.0000000E+000	-4.0077091E+001	0.0000000E+000	0.0000000E+000	0.0000000E+000	4.0077091E+001	1.1885023E+000	4.9922913E+001	-1.105506187563555E-006	-4.1534217E-006	2.4537557E+004
3.1629555E+001	1.1052672E+001	7.6234360E+000	1.3426777E+001	-3.4595463E+001	1.225945282223984E+001	3.1924090E-001	-1.4214618E-002	6.6004913E+002	2.1278169E+002	1.000000000000000E+000	10	4.7300677E-003	3.5228615E-004	0	6.688077256360743E-005	6.1308932E-002	4.2287033E-002	7.4478038E-002	3.4595463E+001	2.1278169E+005	3.0849688E+005	3.7476175E+005	-5.5404537E+001	0.0000000E+000	0.0000000E+000	0.0000000E+000	5.5404537E+001	0.0000000E+000	0.0000000E+000	0.0000000E+000	-5.5404537E+001	0.0000000E+000	0.0000000E+000	0.0000000E+000	-3.4595463E+001	0.0000000E+000	0.0000000E+000	0.0000000E+000	3.4595463E+001	1.4498281E+000	5.5404541E+001	-1.675902112664016E-006	-4.5378874E-006	2.2458633E+004
2.1551722E+001	1.3574965E+001	7.4466300E+000	1.5483281E+001	-2.8747238E+001	1.293934288123273E+001	3.1925830E-001	-2.7878052E-003	9.9169550E+002	2.2938864E+002	1.000000000000000E+000	11	4.7320905E-003	3.0562581E-004	0	6.550170515805884E-005	5.6625586E-002	3.1062311E-002	6.4585790E-002	2.8747238E+001	2.2938866E+005	4.1816809E+005	4.7695253E+005	-6.1252762E+001	0.0000000E+000	0.0000000E+000	0.0000000E+000	6.1252762E+001	0.0000000E+000	0.0000000E+000	0.0000000E+000	-6.1252762E+001	0.0000000E+000	0.0000000E+000	0.0000000E+000	-2.8747238E+001	0.0000000E+000	0.0000000E+000	0.0000000E+000	2.8747238E+001	1.8229676E+000	6.1252762E+001	-1.379067405548592E-006	-8.9002992E-007	1.1451959E+005
1.4685154E+001	1.5705364E+001	6.7443247E+000	1.7092232E+001	-2.3240046E+001	1.341702861059457E+001	3.1926626E-001	-1.9510115E-003	1.6069529E+003	2.5019725E+002	1.000000000000000E+000	11	4.7122403E-003	2.7569485E-004	0	6.557518965067477E-005	5.3758912E-002	2.3085587E-002	5.8506109E-002	2.3240046E+001	2.5019725E+005	5.8262900E+005	6.3407825E+005	-6.6759956E+001	0.0000000E+000	0.0000000E+000	0.0000000E+000	6.6759956E+001	0.0000000E+000	0.0000000E+000	0.0000000E+000	-6.6759956E+001	0.0000000E+000	0.0000000E+000	0.0000000E+000	-2.3240046E+001	0.0000000E+000	0.0000000E+000	0.0000000E+000	2.3240046E+001	2.3286786E+000	6.6759956E+001	7.348449261593217E-008	-6.2289212E-007	1.6364141E+005
