
EC-Lab ASCII FILE
Nb header lines : 63                          

Potentio Electrochemical Impedance Spectroscopy

Run on channel : 6 (SN 65795)
User : 
CE vs. WE compliance from -10 V to 10 V
Electrode connection : standard
Potential control : Ewe
Ewe ctrl range : min = -10.00 V, max = 10.00 V
Safety Limits :
	Do not start on E overload
Acquisition started on : 09/15/2025 10:34:40.269
Loaded Setting File :  C:\Users\Celltest\OneDrive - store-dot.com\Documents\EC-Lab\Data\Gyutae\16432.mps
Saved on :
	File : 16435_R270-A001 HG-1800_C06.mpr
	Directory : C:\Users\Celltest\OneDrive - store-dot.com\Documents\EC-Lab\Data\Gyutae\
	Host : 169.254.61.224
Device : VMP-3e (SN .003165)
Address : USB
EC-LAB for windows v11.62 (software)
Internet server v27.00 (firmware)
Command interpretor v12.03 (firmware)
Electrode material : 
Initial state : 
Electrolyte : 
Comments : 
Electrode surface area : 0.001 cm²
Characteristic mass : 0.001 g
Equivalent Weight : 0.000 g/eq.
Density : 0.000 g/cm3
Volume (V) : 0.001 cm³
Cycle Definition : Charge/Discharge alternance
Mode                Single sine         
E (V)               0.0000              
vs.                 Eoc                 
tE (h:m:s)          0:00:0.0000         
record              0                   
dI                  0.000               
unit dI             mA                  
dt (s)              0.000               
fi                  100.000             
unit fi             kHz                 
ff                  10.000              
unit ff             mHz                 
Nd                  6                   
Points              per decade          
spacing             Logarithmic         
Va (mV)             5.0                 
pw                  0.10                
Na                  2                   
corr                0                   
E range min (V)     -10.000             
E range max (V)     10.000              
I Range             Auto                
Bandwidth           5                   
nc cycles           0                   
goto Ns'            0                   
nr cycles           0                   
inc. cycle          0                   

freq/Hz	Re(Z)/Ohm	-Im(Z)/Ohm	|Z|/Ohm	Phase(Z)/deg	time/s	<Ewe>/V	<I>/mA	Cs/µF	Cp/µF	cycle number	I Range	|Ewe|/V	|I|/A	Ns	(Q-Qo)/mA.h	Re(Y)/Ohm-1	Im(Y)/Ohm-1	|Y|/Ohm-1	Phase(Y)/deg	Re(C)/nF	Im(C)/nF	|C|/nF	Phase(C)/deg	Re(M)	Im(M)	|M|	Phase(M)/deg	Re(Permittivity)	Im(Permittivity)	|Permittivity|	Phase(Permittivity)/deg	Re(Resistivity)/Ohm.cm	Im(Resistivity)/Ohm.cm	|Resistivity|/Ohm.cm	Phase(Resistivity)/deg	Re(Conductivity)/mS/cm	Im(Conductivity)/mS/cm	|Conductivity|/mS/cm	Phase(Conductivity)/deg	Tan(Delta)	Loss Angle(Delta)/deg	dq/mA.h	Pwe/W	Rwe/Ohm	
1.0000371E+005	1.6822933E+000	2.7733302E-001	1.7049998E+000	-9.3612499E+000	2.226483412407106E+000	2.7111247E-001	4.8455372E-002	5.7385535E+000	1.5182976E-001	1.000000000000000E+000	9	4.8939846E-003	2.8703725E-003	0	4.148533642382568E-006	5.7869947E-001	9.5401004E-002	5.8651036E-001	9.3612499E+000	1.5182979E+002	9.2099451E+002	9.3342548E+002	-8.0638748E+001	0.0000000E+000	0.0000000E+000	0.0000000E+000	8.0638748E+001	0.0000000E+000	0.0000000E+000	0.0000000E+000	-8.0638748E+001	0.0000000E+000	0.0000000E+000	0.0000000E+000	-9.3612499E+000	0.0000000E+000	0.0000000E+000	0.0000000E+000	9.3612499E+000	6.0659680E+000	8.0638748E+001	4.148533642382568E-006	1.3136856E-005	5.5950962E+003
6.8132047E+004	1.7576411E+000	3.5283026E-001	1.7927051E+000	-1.1350738E+001	2.663476819841890E+000	2.7111235E-001	4.5270506E-002	6.6206841E+000	2.5645834E-001	1.000000000000000E+000	9	5.3404183E-003	2.9789722E-003	0	1.056724062292293E-005	5.4690582E-001	1.0978629E-001	5.5781627E-001	1.1350738E+001	2.5645834E+002	1.2775597E+003	1.3030463E+003	-7.8649261E+001	0.0000000E+000	0.0000000E+000	0.0000000E+000	7.8649261E+001	0.0000000E+000	0.0000000E+000	0.0000000E+000	-7.8649261E+001	0.0000000E+000	0.0000000E+000	0.0000000E+000	-1.1350738E+001	0.0000000E+000	0.0000000E+000	0.0000000E+000	1.1350738E+001	4.9815488E+000	7.8649261E+001	6.418706980540365E-006	1.2273394E-005	5.9887192E+003
4.6420355E+004	1.8378837E+000	4.1035929E-001	1.8831387E+000	-1.2586449E+001	3.100474173930706E+000	2.7110386E-001	4.7151618E-002	8.3550186E+000	3.9674491E-001	1.000000000000000E+000	9	5.3641330E-003	2.8485067E-003	0	1.083516309573962E-005	5.1826686E-001	1.1571766E-001	5.3102833E-001	1.2586449E+001	3.9674493E+002	1.7769088E+003	1.8206624E+003	-7.7413551E+001	0.0000000E+000	0.0000000E+000	0.0000000E+000	7.7413551E+001	0.0000000E+000	0.0000000E+000	0.0000000E+000	-7.7413551E+001	0.0000000E+000	0.0000000E+000	0.0000000E+000	-1.2586449E+001	0.0000000E+000	0.0000000E+000	0.0000000E+000	1.2586449E+001	4.4787183E+000	7.7413551E+001	2.679224728166861E-007	1.2782985E-005	5.7496196E+003
3.1621139E+004	1.9334691E+000	4.6935099E-001	1.9896213E+000	-1.3644661E+001	3.538493101397762E+000	2.7109125E-001	4.4413742E-002	1.0723705E+001	5.9675980E-001	1.000000000000000E+000	9	5.3565558E-003	2.6922489E-003	0	1.397331970596376E-005	4.8842335E-001	1.1856511E-001	5.0260824E-001	1.3644661E+001	5.9675977E+002	2.4583232E+003	2.5297185E+003	-7.6355339E+001	0.0000000E+000	0.0000000E+000	0.0000000E+000	7.6355339E+001	0.0000000E+000	0.0000000E+000	0.0000000E+000	-7.6355339E+001	0.0000000E+000	0.0000000E+000	0.0000000E+000	-1.3644661E+001	0.0000000E+000	0.0000000E+000	0.0000000E+000	1.3644661E+001	4.1194525E+000	7.6355339E+001	3.138156610224137E-006	1.2040176E-005	6.1037695E+003
2.1544684E+004	2.0376081E+000	5.3754884E-001	2.1073220E+000	-1.4778695E+001	3.975483735470334E+000	2.7109420E-001	4.3203115E-002	1.3742384E+001	8.9420307E-001	1.000000000000000E+000	9	5.3631929E-003	2.5450278E-003	0	2.015413567033183E-005	4.5883748E-001	1.2104759E-001	4.7453594E-001	1.4778695E+001	8.9420300E+002	3.3895256E+003	3.5054932E+003	-7.5221306E+001	0.0000000E+000	0.0000000E+000	0.0000000E+000	7.5221306E+001	0.0000000E+000	0.0000000E+000	0.0000000E+000	-7.5221306E+001	0.0000000E+000	0.0000000E+000	0.0000000E+000	-1.4778695E+001	0.0000000E+000	0.0000000E+000	0.0000000E+000	1.4778695E+001	3.7905545E+000	7.5221306E+001	6.180815964368069E-006	1.1712114E-005	6.2748765E+003
1.4678594E+004	2.1578140E+000	6.1076778E-001	2.2425876E+000	-1.5804129E+001	4.412479276215890E+000	2.7108797E-001	3.8677238E-002	1.7752501E+001	1.3167793E+000	1.000000000000000E+000	9	5.3815846E-003	2.3997210E-003	0	2.493608586000725E-005	4.2905721E-001	1.2144434E-001	4.4591346E-001	1.5804129E+001	1.3167795E+003	4.6521201E+003	4.8348867E+003	-7.4195869E+001	0.0000000E+000	0.0000000E+000	0.0000000E+000	7.4195869E+001	0.0000000E+000	0.0000000E+000	0.0000000E+000	-7.4195869E+001	0.0000000E+000	0.0000000E+000	0.0000000E+000	-1.5804129E+001	0.0000000E+000	0.0000000E+000	0.0000000E+000	1.5804129E+001	3.5329533E+000	7.4195869E+001	4.781950189675423E-006	1.0484934E-005	7.0089795E+003
1.0002226E+004	2.2932785E+000	6.9611371E-001	2.3966019E+000	-1.6885416E+001	4.849494896974647E+000	2.7108890E-001	4.1564103E-002	2.2858269E+001	1.9284655E+000	1.000000000000000E+000	9	5.2818181E-003	2.2038780E-003	0	2.831815382591998E-005	3.9926848E-001	1.2119603E-001	4.1725746E-001	1.6885416E+001	1.9284653E+003	6.3531411E+003	6.6393809E+003	-7.3114586E+001	0.0000000E+000	0.0000000E+000	0.0000000E+000	7.3114586E+001	0.0000000E+000	0.0000000E+000	0.0000000E+000	-7.3114586E+001	0.0000000E+000	0.0000000E+000	0.0000000E+000	-1.6885416E+001	0.0000000E+000	0.0000000E+000	0.0000000E+000	1.6885416E+001	3.2944021E+000	7.3114586E+001	3.382067965912736E-006	1.1267567E-005	6.5221880E+003
6.8110674E+003	2.4536989E+000	8.1245804E-001	2.5847101E+000	-1.8320515E+001	5.403490203287220E+000	2.7106982E-001	1.9269999E-002	2.8761002E+001	2.8417261E+000	1.000000000000000E+000	9	5.3145452E-003	2.0561474E-003	0	3.470774404467860E-005	3.6728027E-001	1.2161224E-001	3.8689059E-001	1.8320515E+001	2.8417256E+003	8.5822773E+003	9.0405137E+003	-7.1679489E+001	0.0000000E+000	0.0000000E+000	0.0000000E+000	7.1679489E+001	0.0000000E+000	0.0000000E+000	0.0000000E+000	-7.1679489E+001	0.0000000E+000	0.0000000E+000	0.0000000E+000	-1.8320515E+001	0.0000000E+000	0.0000000E+000	0.0000000E+000	1.8320515E+001	3.0200930E+000	7.1679489E+001	6.389590218758612E-006	5.2235155E-006	1.4066935E+004
4.6414854E+003	2.6202397E+000	9.3788916E-001	2.7830365E+000	-1.9694332E+001	6.097678209647711E+000	2.7108920E-001	4.0912222E-002	3.6560459E+001	4.1521869E+000	1.000000000000000E+000	9	5.1280563E-003	1.8426119E-003	0	4.077928680244885E-005	3.3830094E-001	1.2109151E-001	3.5931975E-001	1.9694332E+001	4.1521875E+003	1.1600223E+004	1.2320951E+004	-7.0305664E+001	0.0000000E+000	0.0000000E+000	0.0000000E+000	7.0305664E+001	0.0000000E+000	0.0000000E+000	0.0000000E+000	-7.0305664E+001	0.0000000E+000	0.0000000E+000	0.0000000E+000	-1.9694332E+001	0.0000000E+000	0.0000000E+000	0.0000000E+000	1.9694332E+001	2.7937627E+000	7.0305664E+001	6.071542757770256E-006	1.1090861E-005	6.6261177E+003
3.1610117E+003	2.8290873E+000	1.0853107E+000	3.0301211E+000	-2.0988098E+001	6.787710082418926E+000	2.7108580E-001	4.5344964E-002	4.6391663E+001	5.9515233E+000	1.000000000000000E+000	9	5.0605037E-003	1.6700665E-003	0	4.959955275921513E-005	3.0812460E-001	1.1820452E-001	3.3001980E-001	2.0988098E+001	5.9515229E+003	1.5513879E+004	1.6616289E+004	-6.9011902E+001	0.0000000E+000	0.0000000E+000	0.0000000E+000	6.9011902E+001	0.0000000E+000	0.0000000E+000	0.0000000E+000	-6.9011902E+001	0.0000000E+000	0.0000000E+000	0.0000000E+000	-2.0988098E+001	0.0000000E+000	0.0000000E+000	0.0000000E+000	2.0988098E+001	2.6067073E+000	6.9011902E+001	8.820265956766281E-006	1.2292376E-005	5.9783003E+003
2.1556899E+003	3.0518763E+000	1.2735422E+000	3.3069410E+000	-2.2650682E+001	7.254668211266107E+000	2.7108985E-001	4.0390711E-002	5.7972294E+001	8.5979366E+000	1.000000000000000E+000	9	5.1305392E-003	1.5514456E-003	0	5.372274536766216E-005	2.7907059E-001	1.1645561E-001	3.0239427E-001	2.2650682E+001	8.5979355E+003	2.0603826E+004	2.2325818E+004	-6.7349319E+001	0.0000000E+000	0.0000000E+000	0.0000000E+000	6.7349319E+001	0.0000000E+000	0.0000000E+000	0.0000000E+000	-6.7349319E+001	0.0000000E+000	0.0000000E+000	0.0000000E+000	-2.2650682E+001	0.0000000E+000	0.0000000E+000	0.0000000E+000	2.2650682E+001	2.3963685E+000	6.7349319E+001	4.123192608447022E-006	1.0949512E-005	6.7116880E+003
1.4685898E+003	3.2943873E+000	1.5065525E+000	3.6225252E+000	-2.4575035E+001	7.975957792164991E+000	2.7109218E-001	-5.3724889E-003	7.1934189E+001	1.2441738E+001	1.000000000000000E+000	10	5.1614386E-003	1.4248178E-003	0	5.579983740007609E-005	2.5104517E-001	1.1480516E-001	2.7605054E-001	2.4575035E+001	1.2441736E+004	2.7206422E+004	2.9916320E+004	-6.5424965E+001	0.0000000E+000	0.0000000E+000	0.0000000E+000	6.5424965E+001	0.0000000E+000	0.0000000E+000	0.0000000E+000	-6.5424965E+001	0.0000000E+000	0.0000000E+000	0.0000000E+000	-2.4575035E+001	0.0000000E+000	0.0000000E+000	0.0000000E+000	2.4575035E+001	2.1867061E+000	6.5424965E+001	2.077092032413930E-006	-1.4564397E-006	5.0459328E+004
1.0003202E+003	3.5521641E+000	1.8056457E+000	3.9847491E+000	-2.6945265E+001	8.443668561078084E+000	2.7108938E-001	-5.4209353E-003	8.8114731E+001	1.8093044E+001	1.000000000000000E+000	10	5.0868108E-003	1.2765699E-003	0	5.612963867844600E-005	2.2371292E-001	1.1371835E-001	2.5095683E-001	2.6945265E+001	1.8093045E+004	3.5593617E+004	3.9928234E+004	-6.3054733E+001	0.0000000E+000	0.0000000E+000	0.0000000E+000	6.3054733E+001	0.0000000E+000	0.0000000E+000	0.0000000E+000	-6.3054733E+001	0.0000000E+000	0.0000000E+000	0.0000000E+000	-2.6945265E+001	0.0000000E+000	0.0000000E+000	0.0000000E+000	2.6945265E+001	1.9672542E+000	6.3054733E+001	3.298012783699115E-007	-1.4695580E-006	5.0007859E+004
6.8108978E+002	3.8375461E+000	2.2260680E+000	4.4364557E+000	-3.0116989E+001	8.909449303144356E+000	2.7109247E-001	-5.8196816E-003	1.0497294E+002	2.6429071E+001	1.000000000000000E+000	10	5.0087199E-003	1.1289913E-003	0	5.617578020153451E-005	1.9497606E-001	1.1310092E-001	2.2540516E-001	3.0116989E+001	2.6429072E+004	4.5561402E+004	5.2671977E+004	-5.9883011E+001	0.0000000E+000	0.0000000E+000	0.0000000E+000	5.9883011E+001	0.0000000E+000	0.0000000E+000	0.0000000E+000	-5.9883011E+001	0.0000000E+000	0.0000000E+000	0.0000000E+000	-3.0116989E+001	0.0000000E+000	0.0000000E+000	0.0000000E+000	3.0116989E+001	1.7239124E+000	5.9883011E+001	4.614152308850841E-008	-1.5776719E-006	4.6582012E+004
4.6396069E+002	4.1784925E+000	2.8207519E+000	5.0414720E+000	-3.4021889E+001	9.378199458733434E+000	2.7110022E-001	-5.4582083E-003	1.2161133E+002	3.8070545E+001	1.000000000000000E+000	10	4.9588154E-003	9.8360470E-004	0	5.540158550635937E-005	1.6440117E-001	1.1098139E-001	1.9835477E-001	3.4021889E+001	3.8070543E+004	5.6395418E+004	6.8042703E+004	-5.5978111E+001	0.0000000E+000	0.0000000E+000	0.0000000E+000	5.5978111E+001	0.0000000E+000	0.0000000E+000	0.0000000E+000	-5.5978111E+001	0.0000000E+000	0.0000000E+000	0.0000000E+000	-3.4021889E+001	0.0000000E+000	0.0000000E+000	0.0000000E+000	3.4021889E+001	1.4813399E+000	5.5978111E+001	-7.741946951751326E-007	-1.4797215E-006	4.9668355E+004
3.1631589E+002	4.5823750E+000	3.6491132E+000	5.8578315E+000	-3.8531593E+001	9.844897774280980E+000	2.7109033E-001	-5.6799417E-003	1.3788335E+002	5.3507259E+001	1.000000000000000E+000	10	4.9004345E-003	8.3656120E-004	0	5.507465145610169E-005	1.3354170E-001	1.0634414E-001	1.7071164E-001	3.8531593E+001	5.3507262E+004	6.7191766E+004	8.5893891E+004	-5.1468407E+001	0.0000000E+000	0.0000000E+000	0.0000000E+000	5.1468407E+001	0.0000000E+000	0.0000000E+000	0.0000000E+000	-5.1468407E+001	0.0000000E+000	0.0000000E+000	0.0000000E+000	-3.8531593E+001	0.0000000E+000	0.0000000E+000	0.0000000E+000	3.8531593E+001	1.2557503E+000	5.1468414E+001	-3.269340502576817E-007	-1.5397773E-006	4.7727660E+004
2.1534457E+002	5.1726522E+000	4.7985883E+000	7.0556912E+000	-4.2851597E+001	1.031241707646404E+001	2.7109346E-001	-5.7470268E-003	1.5401845E+002	7.1239449E+001	1.000000000000000E+000	10	4.8662717E-003	6.8969454E-004	0	5.506406438968972E-005	1.0390446E-001	9.6390530E-002	1.4172956E-001	4.2851597E+001	7.1239445E+004	7.6792766E+004	1.0474821E+005	-4.7148403E+001	0.0000000E+000	0.0000000E+000	0.0000000E+000	4.7148403E+001	0.0000000E+000	0.0000000E+000	0.0000000E+000	-4.7148403E+001	0.0000000E+000	0.0000000E+000	0.0000000E+000	-4.2851597E+001	0.0000000E+000	0.0000000E+000	0.0000000E+000	4.2851597E+001	1.0779529E+000	4.7148407E+001	-1.058706641197124E-008	-1.5579814E-006	4.7171078E+004
1.4673740E+002	6.0269146E+000	6.3242693E+000	8.7361364E+000	-4.6379128E+001	1.077539003177662E+001	2.7109456E-001	-5.6482772E-003	1.7150191E+002	8.9877472E+001	1.000000000000000E+000	10	4.8387046E-003	5.5387238E-004	0	5.414187254172025E-005	7.8968927E-002	8.2865074E-002	1.1446708E-001	4.6379128E+001	8.9877469E+004	8.5651609E+004	1.2415377E+005	-4.3620872E+001	0.0000000E+000	0.0000000E+000	0.0000000E+000	4.3620872E+001	0.0000000E+000	0.0000000E+000	0.0000000E+000	-4.3620872E+001	0.0000000E+000	0.0000000E+000	0.0000000E+000	-4.6379128E+001	0.0000000E+000	0.0000000E+000	0.0000000E+000	4.6379128E+001	9.5298195E-001	4.3620880E+001	-9.221918479694656E-007	-1.5312172E-006	4.7995973E+004
1.0003201E+002	7.3824968E+000	8.2791281E+000	1.1092575E+001	-4.8276619E+001	1.124366960073530E+001	2.7109116E-001	-5.8178334E-003	1.9217484E+002	1.0705353E+002	1.000000000000000E+000	10	4.8307036E-003	4.3548984E-004	0	5.311175511251147E-005	5.9998240E-002	6.7285247E-002	9.0150394E-002	4.8276619E+001	1.0705352E+005	9.5459609E+004	1.4343289E+005	-4.1723381E+001	0.0000000E+000	0.0000000E+000	0.0000000E+000	4.1723381E+001	0.0000000E+000	0.0000000E+000	0.0000000E+000	-4.1723381E+001	0.0000000E+000	0.0000000E+000	0.0000000E+000	-4.8276619E+001	0.0000000E+000	0.0000000E+000	0.0000000E+000	4.8276619E+001	8.9169979E-001	4.1723389E+001	-1.030117429208781E-006	-1.5771632E-006	4.6596586E+004
6.8103981E+001	9.4383039E+000	1.0650845E+001	1.4231025E+001	-4.8454067E+001	1.172231389008812E+001	2.7108955E-001	-6.0954676E-003	2.1941362E+002	1.2290211E+002	1.000000000000000E+000	10	4.8205312E-003	3.3873395E-004	0	5.217330081175977E-005	4.6603832E-002	5.2591033E-002	7.0269011E-002	4.8454067E+001	1.2290212E+005	1.0891038E+005	1.6421450E+005	-4.1545933E+001	0.0000000E+000	0.0000000E+000	0.0000000E+000	4.1545933E+001	0.0000000E+000	0.0000000E+000	0.0000000E+000	-4.1545933E+001	0.0000000E+000	0.0000000E+000	0.0000000E+000	-4.8454067E+001	0.0000000E+000	0.0000000E+000	0.0000000E+000	4.8454067E+001	8.8615543E-001	4.1545929E+001	-9.384543007517047E-007	-1.6524176E-006	4.4473957E+004
4.6441547E+001	1.2501891E+001	1.3151860E+001	1.8145763E+001	-4.6451347E+001	1.217755156502244E+001	2.7109906E-001	-6.8873628E-003	2.6057111E+002	1.3688321E+002	1.000000000000000E+000	10	4.8126839E-003	2.6522356E-004	0	5.139346952696441E-005	3.7968658E-002	3.9942633E-002	5.5109281E-002	4.6451347E+001	1.3688320E+005	1.3011839E+005	1.8885922E+005	-4.3548653E+001	0.0000000E+000	0.0000000E+000	0.0000000E+000	4.3548653E+001	0.0000000E+000	0.0000000E+000	0.0000000E+000	-4.3548653E+001	0.0000000E+000	0.0000000E+000	0.0000000E+000	-4.6451347E+001	0.0000000E+000	0.0000000E+000	0.0000000E+000	4.6451347E+001	9.5057970E-001	4.3548645E+001	-7.798312847953607E-007	-1.8671576E-006	3.9361809E+004
3.1629555E+001	1.6837128E+001	1.5406203E+001	2.2821918E+001	-4.2458942E+001	1.286842509117560E+001	2.7111912E-001	-7.1245907E-003	3.2661145E+002	1.4883955E+002	1.000000000000000E+000	11	4.8200679E-003	2.1120346E-004	0	5.036554931866380E-005	3.2326873E-002	2.9579533E-002	4.3817524E-002	4.2458942E+001	1.4883956E+005	1.6266375E+005	2.2048291E+005	-4.7541058E+001	0.0000000E+000	0.0000000E+000	0.0000000E+000	4.7541058E+001	0.0000000E+000	0.0000000E+000	0.0000000E+000	-4.7541058E+001	0.0000000E+000	0.0000000E+000	0.0000000E+000	-4.2458942E+001	0.0000000E+000	0.0000000E+000	0.0000000E+000	4.2458942E+001	1.0928798E+000	4.7541061E+001	-1.027920208300606E-006	-1.9316128E-006	3.8053992E+004
2.1551722E+001	2.1990814E+001	1.6692822E+001	2.7608807E+001	-3.7201462E+001	1.330735273871687E+001	2.7110779E-001	-7.4346052E-003	4.4239316E+002	1.6172331E+002	1.000000000000000E+000	11	4.8110499E-003	1.7425780E-004	0	4.896073389061672E-005	2.8850015E-002	2.1899514E-002	3.6220327E-002	3.7201462E+001	1.6172330E+005	2.1305130E+005	2.6747950E+005	-5.2798538E+001	0.0000000E+000	0.0000000E+000	0.0000000E+000	5.2798538E+001	0.0000000E+000	0.0000000E+000	0.0000000E+000	-5.2798538E+001	0.0000000E+000	0.0000000E+000	0.0000000E+000	-3.7201462E+001	0.0000000E+000	0.0000000E+000	0.0000000E+000	3.7201462E+001	1.3173815E+000	5.2798538E+001	-1.404815428047082E-006	-2.0155794E-006	3.6465660E+004
1.4685154E+001	2.7403070E+001	1.6777220E+001	3.2131035E+001	-3.1476578E+001	1.378502998809563E+001	2.7110904E-001	-7.0178979E-003	6.4598376E+002	1.7612141E+002	1.000000000000000E+000	11	4.8120487E-003	1.4976326E-004	0	4.798108231301527E-005	2.6542988E-002	1.6250642E-002	3.1122558E-002	3.1476578E+001	1.7612141E+005	2.8766794E+005	3.3730044E+005	-5.8523422E+001	0.0000000E+000	0.0000000E+000	0.0000000E+000	5.8523422E+001	0.0000000E+000	0.0000000E+000	0.0000000E+000	-5.8523422E+001	0.0000000E+000	0.0000000E+000	0.0000000E+000	-3.1476578E+001	0.0000000E+000	0.0000000E+000	0.0000000E+000	3.1476578E+001	1.6333499E+000	5.8523422E+001	-9.796515776014494E-007	-1.9026156E-006	3.8631090E+004
1.0003201E+001	3.2401031E+001	1.5705350E+001	3.6006733E+001	-2.5860285E+001	1.425366825037054E+001	2.7110931E-001	-7.1081789E-003	1.0130561E+003	1.9273532E+002	1.000000000000000E+000	11	4.8108944E-003	1.3361097E-004	0	4.751798123308254E-005	2.4991445E-002	1.2113794E-002	2.7772583E-002	2.5860285E+001	1.9273531E+005	3.9762394E+005	4.4187294E+005	-6.4139717E+001	0.0000000E+000	0.0000000E+000	0.0000000E+000	6.4139717E+001	0.0000000E+000	0.0000000E+000	0.0000000E+000	-6.4139717E+001	0.0000000E+000	0.0000000E+000	0.0000000E+000	-2.5860285E+001	0.0000000E+000	0.0000000E+000	0.0000000E+000	2.5860285E+001	2.0630569E+000	6.4139717E+001	-4.631010799327324E-007	-1.9270935E-006	3.8140473E+004
