EC-Lab ASCII FILE
Nb header lines : 63                          

Potentio Electrochemical Impedance Spectroscopy

Run on channel : 5 (SN 65912)
User : 
CE vs. WE compliance from -10 V to 10 V
Electrode connection : standard
Potential control : Ewe
Ewe ctrl range : min = -10.00 V, max = 10.00 V
Safety Limits :
	Do not start on E overload
Acquisition started on : 09/15/2025 10:34:31.030
Loaded Setting File :  C:\Users\Celltest\OneDrive - store-dot.com\Documents\EC-Lab\Data\Gyutae\16432.mps
Saved on :
	File : 16434_R270-A001 HG-1800_C05.mpr
	Directory : C:\Users\Celltest\OneDrive - store-dot.com\Documents\EC-Lab\Data\Gyutae\
	Host : 169.254.61.224
Device : VMP-3e (SN .003165)
Address : USB
EC-LAB for windows v11.62 (software)
Internet server v27.00 (firmware)
Command interpretor v12.03 (firmware)
Electrode material : 
Initial state : 
Electrolyte : 
Comments : 
Electrode surface area : 0.001 cm²
Characteristic mass : 0.001 g
Equivalent Weight : 0.000 g/eq.
Density : 0.000 g/cm3
Volume (V) : 0.001 cm³
Cycle Definition : Charge/Discharge alternance
Mode                Single sine         
E (V)               0.0000              
vs.                 Eoc                 
tE (h:m:s)          0:00:0.0000         
record              0                   
dI                  0.000               
unit dI             mA                  
dt (s)              0.000               
fi                  100.000             
unit fi             kHz                 
ff                  10.000              
unit ff             mHz                 
Nd                  6                   
Points              per decade          
spacing             Logarithmic         
Va (mV)             5.0                 
pw                  0.10                
Na                  2                   
corr                0                   
E range min (V)     -10.000             
E range max (V)     10.000              
I Range             Auto                
Bandwidth           5                   
nc cycles           0                   
goto Ns'            0                   
nr cycles           0                   
inc. cycle          0                   

freq/Hz	Re(Z)/Ohm	-Im(Z)/Ohm	|Z|/Ohm	Phase(Z)/deg	time/s	<Ewe>/V	<I>/mA	Cs/µF	Cp/µF	cycle number	I Range	|Ewe|/V	|I|/A	Ns	(Q-Qo)/mA.h	Re(Y)/Ohm-1	Im(Y)/Ohm-1	|Y|/Ohm-1	Phase(Y)/deg	Re(C)/nF	Im(C)/nF	|C|/nF	Phase(C)/deg	Re(M)	Im(M)	|M|	Phase(M)/deg	Re(Permittivity)	Im(Permittivity)	|Permittivity|	Phase(Permittivity)/deg	Re(Resistivity)/Ohm.cm	Im(Resistivity)/Ohm.cm	|Resistivity|/Ohm.cm	Phase(Resistivity)/deg	Re(Conductivity)/mS/cm	Im(Conductivity)/mS/cm	|Conductivity|/mS/cm	Phase(Conductivity)/deg	Tan(Delta)	Loss Angle(Delta)/deg	dq/mA.h	Pwe/W	Rwe/Ohm	
1.0000371E+005	1.6487509E+000	3.1458262E-001	1.6784939E+000	-1.0802232E+001	2.227492079109652E+000	3.0210096E-001	-1.4768485E-002	5.0590534E+000	1.7770481E-001	1.000000000000000E+000	9	4.9274242E-003	2.9356224E-003	0	-9.051319408734950E-006	5.8521509E-001	1.1165938E-001	5.9577221E-001	1.0802232E+001	1.7770482E+002	9.3136426E+002	9.4816577E+002	-7.9197769E+001	0.0000000E+000	0.0000000E+000	0.0000000E+000	7.9197769E+001	0.0000000E+000	0.0000000E+000	0.0000000E+000	-7.9197769E+001	0.0000000E+000	0.0000000E+000	0.0000000E+000	-1.0802232E+001	0.0000000E+000	0.0000000E+000	0.0000000E+000	1.0802232E+001	5.2410746E+000	7.9197769E+001	-9.051319408734950E-006	-4.4615736E-006	2.0455785E+004
6.8132047E+004	1.7200564E+000	3.5634336E-001	1.7565804E+000	-1.1704370E+001	2.664482446532929E+000	3.0208877E-001	-2.0838572E-002	6.5554123E+000	2.6977476E-001	1.000000000000000E+000	9	5.3701811E-003	3.0571793E-003	0	-1.358789941884202E-005	5.5745095E-001	1.1548688E-001	5.6928796E-001	1.1704370E+001	2.6977475E+002	1.3021930E+003	1.3298440E+003	-7.8295631E+001	0.0000000E+000	0.0000000E+000	0.0000000E+000	7.8295631E+001	0.0000000E+000	0.0000000E+000	0.0000000E+000	-7.8295631E+001	0.0000000E+000	0.0000000E+000	0.0000000E+000	-1.1704370E+001	0.0000000E+000	0.0000000E+000	0.0000000E+000	1.1704370E+001	4.8269634E+000	7.8295631E+001	-4.536580010107072E-006	-6.2950985E-006	1.4496616E+004
4.6420355E+004	1.8021661E+000	4.0136591E-001	1.8463199E+000	-1.2555604E+001	3.101475853967713E+000	3.0208853E-001	-1.7542850E-002	8.5422287E+000	4.0368095E-001	1.000000000000000E+000	9	5.3737364E-003	2.9105120E-003	0	-1.415823868481028E-005	5.2866542E-001	1.1774068E-001	5.4161793E-001	1.2555604E+001	4.0368091E+002	1.8125608E+003	1.8569692E+003	-7.7444397E+001	0.0000000E+000	0.0000000E+000	0.0000000E+000	7.7444397E+001	0.0000000E+000	0.0000000E+000	0.0000000E+000	-7.7444397E+001	0.0000000E+000	0.0000000E+000	0.0000000E+000	-1.2555604E+001	0.0000000E+000	0.0000000E+000	0.0000000E+000	1.2555604E+001	4.4900827E+000	7.7444397E+001	-5.703392659682627E-007	-5.2994938E-006	1.7220037E+004
3.1621139E+004	1.8935359E+000	4.5911053E-001	1.9483994E+000	-1.3629040E+001	3.539486834750278E+000	3.0208570E-001	-1.6760817E-002	1.0962899E+001	6.0870087E-001	1.000000000000000E+000	9	5.3738412E-003	2.7580799E-003	0	-1.706292324819757E-005	4.9878976E-001	1.2093758E-001	5.1324177E-001	1.3629040E+001	6.0870099E+002	2.5104995E+003	2.5832393E+003	-7.6370956E+001	0.0000000E+000	0.0000000E+000	0.0000000E+000	7.6370956E+001	0.0000000E+000	0.0000000E+000	0.0000000E+000	-7.6370956E+001	0.0000000E+000	0.0000000E+000	0.0000000E+000	-1.3629040E+001	0.0000000E+000	0.0000000E+000	0.0000000E+000	1.3629040E+001	4.1243572E+000	7.6370956E+001	-2.904684563387288E-006	-5.0632029E-006	1.8023328E+004
2.1544684E+004	1.9953943E+000	5.2080095E-001	2.0622396E+000	-1.4627952E+001	3.976478722150205E+000	3.0208880E-001	-1.8715901E-002	1.4184312E+001	9.0463531E-001	1.000000000000000E+000	9	5.3465678E-003	2.5926025E-003	0	-2.104208355703546E-005	4.6919185E-001	1.2245978E-001	4.8490968E-001	1.4627952E+001	9.0463531E+002	3.4660154E+003	3.5821262E+003	-7.5372047E+001	0.0000000E+000	0.0000000E+000	0.0000000E+000	7.5372047E+001	0.0000000E+000	0.0000000E+000	0.0000000E+000	-7.5372047E+001	0.0000000E+000	0.0000000E+000	0.0000000E+000	-1.4627952E+001	0.0000000E+000	0.0000000E+000	0.0000000E+000	1.4627952E+001	3.8313954E+000	7.5372047E+001	-3.979160308837890E-006	-5.6538643E-006	1.6140756E+004
1.4678594E+004	2.1179640E+000	5.9618503E-001	2.2002745E+000	-1.5721364E+001	4.413496129593113E+000	3.0208871E-001	-1.6984258E-002	1.8186729E+001	1.3352513E+000	1.000000000000000E+000	9	5.2997330E-003	2.4086691E-003	0	-2.695271336249102E-005	4.3748668E-001	1.2314799E-001	4.5448875E-001	1.5721364E+001	1.3352516E+003	4.7435176E+003	4.9278652E+003	-7.4278633E+001	0.0000000E+000	0.0000000E+000	0.0000000E+000	7.4278633E+001	0.0000000E+000	0.0000000E+000	0.0000000E+000	-7.4278633E+001	0.0000000E+000	0.0000000E+000	0.0000000E+000	-1.5721364E+001	0.0000000E+000	0.0000000E+000	0.0000000E+000	1.5721364E+001	3.5525281E+000	7.4278633E+001	-5.910629805455556E-006	-5.1307525E-006	1.7786395E+004
1.0002226E+004	2.2488089E+000	6.9100881E-001	2.3525803E+000	-1.7081026E+001	4.850491777033312E+000	3.0207926E-001	-1.9497953E-002	2.3027134E+001	1.9866353E+000	1.000000000000000E+000	9	5.3222575E-003	2.2623064E-003	0	-2.933403649576940E-005	4.0631571E-001	1.2485176E-001	4.2506519E-001	1.7081026E+001	1.9866350E+003	6.4652764E+003	6.7636172E+003	-7.2918976E+001	0.0000000E+000	0.0000000E+000	0.0000000E+000	7.2918976E+001	0.0000000E+000	0.0000000E+000	0.0000000E+000	-7.2918976E+001	0.0000000E+000	0.0000000E+000	0.0000000E+000	-1.7081026E+001	0.0000000E+000	0.0000000E+000	0.0000000E+000	1.7081026E+001	3.2543852E+000	7.2918976E+001	-2.381323133278378E-006	-5.8899273E-006	1.5492870E+004
6.8110674E+003	2.4136436E+000	7.9569525E-001	2.5414181E+000	-1.8245611E+001	5.405499590066029E+000	3.0206388E-001	-4.2810090E-002	2.9366905E+001	2.8787203E+000	1.000000000000000E+000	9	5.1813573E-003	2.0387662E-003	0	-3.006711984987164E-005	3.7369809E-001	1.2319542E-001	3.9348111E-001	1.8245611E+001	2.8787207E+003	8.7322432E+003	9.1945146E+003	-7.1754387E+001	0.0000000E+000	0.0000000E+000	0.0000000E+000	7.1754387E+001	0.0000000E+000	0.0000000E+000	0.0000000E+000	-7.1754387E+001	0.0000000E+000	0.0000000E+000	0.0000000E+000	-1.8245611E+001	0.0000000E+000	0.0000000E+000	0.0000000E+000	1.8245611E+001	3.0333769E+000	7.1754387E+001	-7.330833541022405E-007	-1.2931382E-005	7.0559038E+003
4.6414854E+003	2.5935311E+000	9.2693257E-001	2.7541983E+000	-1.9666979E+001	6.099706876411801E+000	3.0209026E-001	-1.6146384E-002	3.6992615E+001	4.1900663E+000	1.000000000000000E+000	9	5.0159437E-003	1.8211992E-003	0	-3.491321734157908E-005	3.4190154E-001	1.2219621E-001	3.6308205E-001	1.9666979E+001	4.1900659E+003	1.1723687E+004	1.2449959E+004	-7.0333023E+001	0.0000000E+000	0.0000000E+000	0.0000000E+000	7.0333023E+001	0.0000000E+000	0.0000000E+000	0.0000000E+000	-7.0333023E+001	0.0000000E+000	0.0000000E+000	0.0000000E+000	-1.9666979E+001	0.0000000E+000	0.0000000E+000	0.0000000E+000	1.9666979E+001	2.7979717E+000	7.0333023E+001	-4.846097491707447E-006	-4.8776656E-006	1.8709469E+004
3.1610117E+003	2.7926817E+000	1.0740659E+000	2.9921043E+000	-2.1036755E+001	6.566667991923168E+000	3.0208832E-001	-1.9721404E-002	4.6877354E+001	6.0404806E+000	1.000000000000000E+000	9	5.1481780E-003	1.7205877E-003	0	-3.638820195060948E-005	3.1193778E-001	1.1997134E-001	3.3421296E-001	2.1036755E+001	6.0404819E+003	1.5705869E+004	1.6827410E+004	-6.8963242E+001	0.0000000E+000	0.0000000E+000	0.0000000E+000	6.8963242E+001	0.0000000E+000	0.0000000E+000	0.0000000E+000	-6.8963242E+001	0.0000000E+000	0.0000000E+000	0.0000000E+000	-2.1036755E+001	0.0000000E+000	0.0000000E+000	0.0000000E+000	2.1036755E+001	2.6001027E+000	6.8963242E+001	-1.474984609030396E-006	-5.9576059E-006	1.5317790E+004
2.1556899E+003	3.0079050E+000	1.2276825E+000	3.2487993E+000	-2.2202925E+001	7.033709960771375E+000	3.0209458E-001	-1.3074097E-002	6.0137829E+001	8.5876455E+000	1.000000000000000E+000	9	5.1416564E-003	1.5826328E-003	0	-4.001164779466732E-005	2.8498259E-001	1.1631621E-001	3.0780602E-001	2.2202925E+001	8.5876465E+003	2.1040313E+004	2.2725369E+004	-6.7797073E+001	0.0000000E+000	0.0000000E+000	0.0000000E+000	6.7797073E+001	0.0000000E+000	0.0000000E+000	0.0000000E+000	-6.7797073E+001	0.0000000E+000	0.0000000E+000	0.0000000E+000	-2.2202925E+001	0.0000000E+000	0.0000000E+000	0.0000000E+000	2.2202925E+001	2.4500675E+000	6.7797073E+001	-3.623445844057842E-006	-3.9496140E-006	2.3106344E+004
1.4685898E+003	3.2320087E+000	1.4497160E+000	3.5422530E+000	-2.4158598E+001	7.754963595012669E+000	3.0210349E-001	-9.2603900E-003	7.4754387E+001	1.2521126E+001	1.000000000000000E+000	10	5.1812343E-003	1.4626946E-003	0	-4.162690584001959E-005	2.5758073E-001	1.1553771E-001	2.8230619E-001	2.4158598E+001	1.2521128E+004	2.7914701E+004	3.0594268E+004	-6.5841400E+001	0.0000000E+000	0.0000000E+000	0.0000000E+000	6.5841400E+001	0.0000000E+000	0.0000000E+000	0.0000000E+000	-6.5841400E+001	0.0000000E+000	0.0000000E+000	0.0000000E+000	-2.4158598E+001	0.0000000E+000	0.0000000E+000	0.0000000E+000	2.4158598E+001	2.2294083E+000	6.5841400E+001	-1.615258045352268E-006	-2.7975962E-006	3.2623193E+004
1.0003202E+003	3.4832501E+000	1.7421106E+000	3.8946092E+000	-2.6571440E+001	8.223705563963449E+000	3.0209708E-001	-9.9752797E-003	9.1328293E+001	1.8273808E+001	1.000000000000000E+000	10	5.1090010E-003	1.3118135E-003	0	-4.267594136651799E-005	2.2964494E-001	1.1485448E-001	2.5676516E-001	2.6571440E+001	1.8273809E+004	3.6537430E+004	4.0852367E+004	-6.3428558E+001	0.0000000E+000	0.0000000E+000	0.0000000E+000	6.3428558E+001	0.0000000E+000	0.0000000E+000	0.0000000E+000	-6.3428558E+001	0.0000000E+000	0.0000000E+000	0.0000000E+000	-2.6571440E+001	0.0000000E+000	0.0000000E+000	0.0000000E+000	2.6571440E+001	1.9994426E+000	6.3428558E+001	-1.049035526498406E-006	-3.0135029E-006	3.0284572E+004
6.8108978E+002	3.7678103E+000	2.1392968E+000	4.3327804E+000	-2.9587154E+001	8.689440919348272E+000	3.0210575E-001	-1.0088838E-002	1.0923071E+002	2.6628916E+001	1.000000000000000E+000	10	5.0436808E-003	1.1640749E-003	0	-4.314692671198605E-005	2.0070383E-001	1.1395613E-001	2.3079868E-001	2.9587154E+001	2.6628916E+004	4.6899852E+004	5.3932320E+004	-6.0412846E+001	0.0000000E+000	0.0000000E+000	0.0000000E+000	6.0412846E+001	0.0000000E+000	0.0000000E+000	0.0000000E+000	-6.0412846E+001	0.0000000E+000	0.0000000E+000	0.0000000E+000	-2.9587154E+001	0.0000000E+000	0.0000000E+000	0.0000000E+000	2.9587154E+001	1.7612379E+000	6.0412842E+001	-4.709853454680542E-007	-3.0478959E-006	2.9944555E+004
4.6396069E+002	4.0986571E+000	2.7016256E+000	4.9089479E+000	-3.3390835E+001	9.158186354994541E+000	3.0210522E-001	-9.6848542E-003	1.2697370E+002	3.8458046E+001	1.000000000000000E+000	10	4.9942676E-003	1.0173804E-003	0	-4.479176322756232E-005	1.7008449E-001	1.1211102E-001	2.0370963E-001	3.3390835E+001	3.8458055E+004	5.8345008E+004	6.9879625E+004	-5.6609165E+001	0.0000000E+000	0.0000000E+000	0.0000000E+000	5.6609165E+001	0.0000000E+000	0.0000000E+000	0.0000000E+000	-5.6609165E+001	0.0000000E+000	0.0000000E+000	0.0000000E+000	-3.3390835E+001	0.0000000E+000	0.0000000E+000	0.0000000E+000	3.3390835E+001	1.5171077E+000	5.6609161E+001	-1.644836515576270E-006	-2.9258449E-006	3.1193574E+004
3.1631589E+002	4.5467448E+000	3.4806962E+000	5.7260923E+000	-3.7435352E+001	9.624940003821393E+000	3.0211213E-001	-9.8133171E-003	1.4455496E+002	5.3413197E+001	1.000000000000000E+000	10	4.9666092E-003	8.6736446E-004	0	-4.642681258034362E-005	1.3867043E-001	1.0615719E-001	1.7463917E-001	3.7435352E+001	5.3413195E+004	6.9772297E+004	8.7870031E+004	-5.2564648E+001	0.0000000E+000	0.0000000E+000	0.0000000E+000	5.2564648E+001	0.0000000E+000	0.0000000E+000	0.0000000E+000	-5.2564648E+001	0.0000000E+000	0.0000000E+000	0.0000000E+000	-3.7435352E+001	0.0000000E+000	0.0000000E+000	0.0000000E+000	3.7435352E+001	1.3062745E+000	5.2564651E+001	-1.635049352781302E-006	-2.9647222E-006	3.0785934E+004
2.1534457E+002	5.1372724E+000	4.5385485E+000	6.8549242E+000	-4.1459145E+001	1.009245426600683E+001	3.0210668E-001	-9.2362016E-003	1.6284305E+002	7.1383507E+001	1.000000000000000E+000	10	4.9337284E-003	7.1973493E-004	0	-4.744157101434474E-005	1.0932696E-001	9.6585438E-002	1.4588054E-001	4.1459145E+001	7.1383500E+004	8.0800391E+004	1.0781608E+005	-4.8540855E+001	0.0000000E+000	0.0000000E+000	0.0000000E+000	4.8540855E+001	0.0000000E+000	0.0000000E+000	0.0000000E+000	-4.8540855E+001	0.0000000E+000	0.0000000E+000	0.0000000E+000	-4.1459145E+001	0.0000000E+000	0.0000000E+000	0.0000000E+000	4.1459145E+001	1.1319197E+000	4.8540863E+001	-1.014758434001123E-006	-2.7903181E-006	3.2708975E+004
1.4673740E+002	6.0300460E+000	5.9311800E+000	8.4581528E+000	-4.4526428E+001	1.055537823468330E+001	3.0210724E-001	-9.9566858E-003	1.8286819E+002	8.9922707E+001	1.000000000000000E+000	10	4.9109529E-003	5.8061769E-004	0	-4.846616268331127E-005	8.4288746E-002	8.2906783E-002	1.1822913E-001	4.4526428E+001	8.9922711E+004	9.1421625E+004	1.2823419E+005	-4.5473572E+001	0.0000000E+000	0.0000000E+000	0.0000000E+000	4.5473572E+001	0.0000000E+000	0.0000000E+000	0.0000000E+000	-4.5473572E+001	0.0000000E+000	0.0000000E+000	0.0000000E+000	-4.4526428E+001	0.0000000E+000	0.0000000E+000	0.0000000E+000	4.4526428E+001	1.0166688E+000	4.5473572E+001	-1.024591668966522E-006	-3.0079868E-006	3.0342148E+004
1.0003201E+002	7.3834705E+000	7.6615896E+000	1.0640282E+001	-4.6059036E+001	1.102367252361728E+001	3.0210763E-001	-9.3665263E-003	2.0766449E+002	1.0766977E+002	1.000000000000000E+000	10	4.8971376E-003	4.6024512E-004	0	-4.932193307042083E-005	6.5216020E-002	6.7672566E-002	9.3982473E-002	4.6059036E+001	1.0766976E+005	1.0376130E+005	1.4952988E+005	-4.3940964E+001	0.0000000E+000	0.0000000E+000	0.0000000E+000	4.3940964E+001	0.0000000E+000	0.0000000E+000	0.0000000E+000	-4.3940964E+001	0.0000000E+000	0.0000000E+000	0.0000000E+000	-4.6059036E+001	0.0000000E+000	0.0000000E+000	0.0000000E+000	4.6059036E+001	9.6369958E-001	4.3940964E+001	-8.557703871095652E-007	-2.8296990E-006	3.2253967E+004
6.8103981E+001	9.4699488E+000	9.6063700E+000	1.3489339E+001	-4.5409733E+001	1.150232878632960E+001	3.0211657E-001	-8.4524332E-003	2.4326985E+002	1.2337456E+002	1.000000000000000E+000	10	4.8862714E-003	3.6223209E-004	0	-5.020046500931494E-005	5.2043479E-002	5.2793197E-002	7.4132621E-002	4.5409733E+001	1.2337455E+005	1.2162250E+005	1.7324350E+005	-4.4590267E+001	0.0000000E+000	0.0000000E+000	0.0000000E+000	4.4590267E+001	0.0000000E+000	0.0000000E+000	0.0000000E+000	-4.4590267E+001	0.0000000E+000	0.0000000E+000	0.0000000E+000	-4.5409733E+001	0.0000000E+000	0.0000000E+000	0.0000000E+000	4.5409733E+001	9.8579890E-001	4.4590271E+001	-8.785319388941108E-007	-2.5536201E-006	3.5743148E+004
4.6441547E+001	1.2423350E+001	1.1573976E+001	1.6979298E+001	-4.2972885E+001	1.195754880792811E+001	3.0210847E-001	-9.5284991E-003	2.9609488E+002	1.3758040E+002	1.000000000000000E+000	10	4.8910719E-003	2.8806090E-004	0	-5.109666828505659E-005	4.3092266E-002	4.0146079E-002	5.8895253E-002	4.2972885E+001	1.3758039E+005	1.4767697E+005	2.0183372E+005	-4.7027115E+001	0.0000000E+000	0.0000000E+000	0.0000000E+000	4.7027115E+001	0.0000000E+000	0.0000000E+000	0.0000000E+000	-4.7027115E+001	0.0000000E+000	0.0000000E+000	0.0000000E+000	-4.2972885E+001	0.0000000E+000	0.0000000E+000	0.0000000E+000	4.2972885E+001	1.0733865E+000	4.7027115E+001	-8.962032757416503E-007	-2.8786403E-006	3.1705777E+004
3.1629555E+001	1.6252331E+001	1.3039125E+001	2.0836435E+001	-3.8739815E+001	1.264742305400432E+001	3.0212924E-001	-5.6131212E-003	3.8590338E+002	1.5112233E+002	1.000000000000000E+000	11	4.8941374E-003	2.3488361E-004	0	-5.191057040580846E-005	3.7434224E-002	3.0033201E-002	4.7992855E-002	3.8739815E+001	1.5112234E+005	1.8836313E+005	2.4149250E+005	-5.1260185E+001	0.0000000E+000	0.0000000E+000	0.0000000E+000	5.1260185E+001	0.0000000E+000	0.0000000E+000	0.0000000E+000	-5.1260185E+001	0.0000000E+000	0.0000000E+000	0.0000000E+000	-3.8739815E+001	0.0000000E+000	0.0000000E+000	0.0000000E+000	3.8739815E+001	1.2464280E+000	5.1260193E+001	-8.139021207518663E-007	-1.6958880E-006	5.3825531E+004
2.1551722E+001	2.0538185E+001	1.3570454E+001	2.4616545E+001	-3.3454437E+001	1.308635270156083E+001	3.0212790E-001	-5.6568687E-003	5.4418152E+002	1.6537822E+002	1.000000000000000E+000	11	4.8847268E-003	1.9843268E-004	0	-5.253481750014665E-005	3.3892833E-002	2.2394437E-002	4.0623084E-002	3.3454437E+001	1.6537822E+005	2.5029145E+005	2.9999294E+005	-5.6545563E+001	0.0000000E+000	0.0000000E+000	0.0000000E+000	5.6545563E+001	0.0000000E+000	0.0000000E+000	0.0000000E+000	-5.6545563E+001	0.0000000E+000	0.0000000E+000	0.0000000E+000	-3.3454437E+001	0.0000000E+000	0.0000000E+000	0.0000000E+000	3.3454437E+001	1.5134487E+000	5.6545563E+001	-6.242470943381879E-007	-1.7090979E-006	5.3409035E+004
1.4685154E+001	2.4780680E+001	1.3183771E+001	2.8069448E+001	-2.8013786E+001	1.356506008430733E+001	3.0212337E-001	-5.3070760E-003	8.2205707E+002	1.8134831E+002	1.000000000000000E+000	11	4.8854183E-003	1.7404754E-004	0	-5.346379111587561E-005	3.1451799E-002	1.6732926E-002	3.5625923E-002	2.8013786E+001	1.8134831E+005	3.4086869E+005	3.8610706E+005	-6.1986214E+001	0.0000000E+000	0.0000000E+000	0.0000000E+000	6.1986214E+001	0.0000000E+000	0.0000000E+000	0.0000000E+000	-6.1986214E+001	0.0000000E+000	0.0000000E+000	0.0000000E+000	-2.8013786E+001	0.0000000E+000	0.0000000E+000	0.0000000E+000	2.8013786E+001	1.8796352E+000	6.1986214E+001	-9.289736157289680E-007	-1.6033916E-006	5.6928402E+004
