EC-Lab ASCII FILE
Nb header lines : 63                          

Potentio Electrochemical Impedance Spectroscopy

Run on channel : 4 (SN 66756)
User : 
CE vs. WE compliance from -10 V to 10 V
Electrode connection : standard
Potential control : Ewe
Ewe ctrl range : min = -10.00 V, max = 10.00 V
Safety Limits :
	Do not start on E overload
Acquisition started on : 09/15/2025 10:34:20.380
Loaded Setting File :  C:\Users\Celltest\OneDrive - store-dot.com\Documents\EC-Lab\Data\Gyutae\16432.mps
Saved on :
	File : 16433_R270-A001 HG-1800_C04.mpr
	Directory : C:\Users\Celltest\OneDrive - store-dot.com\Documents\EC-Lab\Data\Gyutae\
	Host : 169.254.61.224
Device : VMP-3e (SN .003165)
Address : USB
EC-LAB for windows v11.62 (software)
Internet server v27.00 (firmware)
Command interpretor v12.03 (firmware)
Electrode material : 
Initial state : 
Electrolyte : 
Comments : 
Electrode surface area : 0.001 cm²
Characteristic mass : 0.001 g
Equivalent Weight : 0.000 g/eq.
Density : 0.000 g/cm3
Volume (V) : 0.001 cm³
Cycle Definition : Charge/Discharge alternance
Mode                Single sine         
E (V)               0.0000              
vs.                 Eoc                 
tE (h:m:s)          0:00:0.0000         
record              0                   
dI                  0.000               
unit dI             mA                  
dt (s)              0.000               
fi                  100.000             
unit fi             kHz                 
ff                  10.000              
unit ff             mHz                 
Nd                  6                   
Points              per decade          
spacing             Logarithmic         
Va (mV)             5.0                 
pw                  0.10                
Na                  2                   
corr                0                   
E range min (V)     -10.000             
E range max (V)     10.000              
I Range             Auto                
Bandwidth           5                   
nc cycles           0                   
goto Ns'            0                   
nr cycles           0                   
inc. cycle          0                   

freq/Hz	Re(Z)/Ohm	-Im(Z)/Ohm	|Z|/Ohm	Phase(Z)/deg	time/s	<Ewe>/V	<I>/mA	Cs/µF	Cp/µF	cycle number	I Range	|Ewe|/V	|I|/A	Ns	(Q-Qo)/mA.h	Re(Y)/Ohm-1	Im(Y)/Ohm-1	|Y|/Ohm-1	Phase(Y)/deg	Re(C)/nF	Im(C)/nF	|C|/nF	Phase(C)/deg	Re(M)	Im(M)	|M|	Phase(M)/deg	Re(Permittivity)	Im(Permittivity)	|Permittivity|	Phase(Permittivity)/deg	Re(Resistivity)/Ohm.cm	Im(Resistivity)/Ohm.cm	|Resistivity|/Ohm.cm	Phase(Resistivity)/deg	Re(Conductivity)/mS/cm	Im(Conductivity)/mS/cm	|Conductivity|/mS/cm	Phase(Conductivity)/deg	Tan(Delta)	Loss Angle(Delta)/deg	dq/mA.h	Pwe/W	Rwe/Ohm	
1.0000371E+005	1.3891299E+000	3.0134416E-001	1.4214394E+000	-1.2239542E+001	2.067498524818802E+000	3.1009948E-001	-3.2489885E-002	5.2813048E+000	2.3736139E-001	1.000000000000000E+000	9	4.5452695E-003	3.1976528E-003	0	-5.921531483220557E-006	6.8752128E-001	1.4914410E-001	7.0351225E-001	1.2239542E+001	2.3736136E+002	1.0941835E+003	1.1196329E+003	-7.7760460E+001	0.0000000E+000	0.0000000E+000	0.0000000E+000	7.7760460E+001	0.0000000E+000	0.0000000E+000	0.0000000E+000	-7.7760460E+001	0.0000000E+000	0.0000000E+000	0.0000000E+000	-1.2239542E+001	0.0000000E+000	0.0000000E+000	0.0000000E+000	1.2239542E+001	4.6097789E+000	7.7760460E+001	-5.921531483220557E-006	-1.0075097E-005	9.5444932E+003
6.8132047E+004	1.4625162E+000	3.3180097E-001	1.4996818E+000	-1.2782320E+001	2.645492845651461E+000	3.1009775E-001	-3.0811502E-002	7.0402975E+000	3.4462604E-001	1.000000000000000E+000	9	5.0281566E-003	3.3528155E-003	0	-1.466621523195257E-005	6.5028310E-001	1.4752969E-001	6.6680813E-001	1.2782320E+001	3.4462601E+002	1.5190468E+003	1.5576489E+003	-7.7217682E+001	0.0000000E+000	0.0000000E+000	0.0000000E+000	7.7217682E+001	0.0000000E+000	0.0000000E+000	0.0000000E+000	-7.7217682E+001	0.0000000E+000	0.0000000E+000	0.0000000E+000	-1.2782320E+001	0.0000000E+000	0.0000000E+000	0.0000000E+000	1.2782320E+001	4.4078116E+000	7.7217682E+001	-8.744683748732010E-006	-9.5545774E-006	1.0064351E+004
4.6420355E+004	1.5379580E+000	3.6489740E-001	1.5806533E+000	-1.3347254E+001	3.223485353082651E+000	3.1010929E-001	-3.1315025E-002	9.3959551E+000	5.0073642E-001	1.000000000000000E+000	9	5.0290027E-003	3.1815975E-003	0	-1.437377206145417E-005	6.1556113E-001	1.4604864E-001	6.3264978E-001	1.3347254E+001	5.0073639E+002	2.1104880E+003	2.1690774E+003	-7.6652748E+001	0.0000000E+000	0.0000000E+000	0.0000000E+000	7.6652748E+001	0.0000000E+000	0.0000000E+000	0.0000000E+000	-7.6652748E+001	0.0000000E+000	0.0000000E+000	0.0000000E+000	-1.3347254E+001	0.0000000E+000	0.0000000E+000	0.0000000E+000	1.3347254E+001	4.2147684E+000	7.6652748E+001	2.924431704983964E-007	-9.7110797E-006	9.9028916E+003
3.1621139E+004	1.6201403E+000	4.1235828E-001	1.6717937E+000	-1.4279732E+001	3.801499327208148E+000	3.1010240E-001	-2.7230971E-002	1.2205847E+001	7.4259496E-001	1.000000000000000E+000	9	5.0105662E-003	2.9971199E-003	0	-2.854963218187913E-005	5.7967860E-001	1.4753985E-001	5.9815991E-001	1.4279732E+001	7.4259497E+002	2.9176279E+003	3.0106477E+003	-7.5720268E+001	0.0000000E+000	0.0000000E+000	0.0000000E+000	7.5720268E+001	0.0000000E+000	0.0000000E+000	0.0000000E+000	-7.5720268E+001	0.0000000E+000	0.0000000E+000	0.0000000E+000	-1.4279732E+001	0.0000000E+000	0.0000000E+000	0.0000000E+000	1.4279732E+001	3.9289627E+000	7.5720268E+001	-1.417586012042496E-005	-8.4443891E-006	1.1387857E+004
2.1544684E+004	1.7184652E+000	4.6521842E-001	1.7803233E+000	-1.5147880E+001	4.238490894640563E+000	3.1009823E-001	-3.1669352E-002	1.5878999E+001	1.0842744E+000	1.000000000000000E+000	9	5.2351416E-003	2.9405567E-003	0	-3.625646786945355E-005	5.4217941E-001	1.4677741E-001	5.6169575E-001	1.5147880E+001	1.0842745E+003	4.0051892E+003	4.1493604E+003	-7.4852119E+001	0.0000000E+000	0.0000000E+000	0.0000000E+000	7.4852119E+001	0.0000000E+000	0.0000000E+000	0.0000000E+000	-7.4852119E+001	0.0000000E+000	0.0000000E+000	0.0000000E+000	-1.5147880E+001	0.0000000E+000	0.0000000E+000	0.0000000E+000	1.5147880E+001	3.6938889E+000	7.4852119E+001	-7.706835687574415E-006	-9.8206101E-006	9.7917451E+003
1.4678594E+004	1.8176198E+000	5.2939761E-001	1.8931465E+000	-1.6238661E+001	4.675482435355661E+000	3.1010911E-001	-3.0886117E-002	2.0481119E+001	1.6015821E+000	1.000000000000000E+000	9	5.1237848E-003	2.7064914E-003	0	-3.928734332462126E-005	5.0714785E-001	1.4771123E-001	5.2822113E-001	1.6238661E+001	1.6015823E+003	5.4988296E+003	5.7273198E+003	-7.3761337E+001	0.0000000E+000	0.0000000E+000	0.0000000E+000	7.3761337E+001	0.0000000E+000	0.0000000E+000	0.0000000E+000	-7.3761337E+001	0.0000000E+000	0.0000000E+000	0.0000000E+000	-1.6238661E+001	0.0000000E+000	0.0000000E+000	0.0000000E+000	1.6238661E+001	3.4333737E+000	7.3761337E+001	-3.030875455167713E-006	-9.5780661E-006	1.0040404E+004
1.0002226E+004	1.9393308E+000	5.9980524E-001	2.0299680E+000	-1.7186035E+001	4.971492369455518E+000	3.1009385E-001	-3.1538825E-002	2.6528532E+001	2.3160896E+000	1.000000000000000E+000	9	5.0412384E-003	2.4834077E-003	0	-4.063667740967745E-005	4.7062337E-001	1.4555658E-001	4.9261859E-001	1.7186035E+001	2.3160896E+003	7.4885371E+003	7.8385239E+003	-7.2813965E+001	0.0000000E+000	0.0000000E+000	0.0000000E+000	7.2813965E+001	0.0000000E+000	0.0000000E+000	0.0000000E+000	-7.2813965E+001	0.0000000E+000	0.0000000E+000	0.0000000E+000	-1.7186035E+001	0.0000000E+000	0.0000000E+000	0.0000000E+000	1.7186035E+001	3.2332675E+000	7.2813965E+001	-1.349334085056193E-006	-9.7799957E-006	9.8321309E+003
6.8110674E+003	2.0750494E+000	6.9254225E-001	2.1875660E+000	-1.8456295E+001	5.349523720709840E+000	3.1002200E-001	-6.5162338E-002	3.3741055E+001	3.3816516E+000	1.000000000000000E+000	9	4.9202759E-003	2.2492011E-003	0	-4.498197985402981E-005	4.3361682E-001	1.4471845E-001	4.5712906E-001	1.8456295E+001	3.3816526E+003	1.0132371E+004	1.0681784E+004	-7.1543701E+001	0.0000000E+000	0.0000000E+000	0.0000000E+000	7.1543701E+001	0.0000000E+000	0.0000000E+000	0.0000000E+000	-7.1543701E+001	0.0000000E+000	0.0000000E+000	0.0000000E+000	-1.8456295E+001	0.0000000E+000	0.0000000E+000	0.0000000E+000	1.8456295E+001	2.9962783E+000	7.1543701E+001	-4.345302444352359E-006	-2.0201758E-005	4.7576870E+003
4.6414854E+003	2.2190430E+000	7.9811102E-001	2.3582056E+000	-1.9781857E+001	5.820672383153578E+000	3.1010190E-001	-1.3673428E-002	4.2963516E+001	4.9211106E+000	1.000000000000000E+000	9	4.8166867E-003	2.0425220E-003	0	-4.555628857943359E-005	3.9902714E-001	1.4351588E-001	4.2405125E-001	1.9781857E+001	4.9211118E+003	1.3682504E+004	1.4540572E+004	-7.0218140E+001	0.0000000E+000	0.0000000E+000	0.0000000E+000	7.0218140E+001	0.0000000E+000	0.0000000E+000	0.0000000E+000	-7.0218140E+001	0.0000000E+000	0.0000000E+000	0.0000000E+000	-1.9781857E+001	0.0000000E+000	0.0000000E+000	0.0000000E+000	1.9781857E+001	2.7803688E+000	7.0218140E+001	-5.743087254037738E-007	-4.2401557E-006	2.2679164E+004
3.1610117E+003	2.3909514E+000	9.2560774E-001	2.5638640E+000	-2.1162889E+001	6.287676592008211E+000	3.1011036E-001	-1.0596409E-002	5.4396008E+001	7.0897517E+000	1.000000000000000E+000	9	4.7522588E-003	1.8535533E-003	0	-4.633998106351161E-005	3.6373138E-001	1.4081115E-001	3.9003628E-001	2.1162889E+001	7.0897515E+003	1.8313646E+004	1.9638080E+004	-6.8837112E+001	0.0000000E+000	0.0000000E+000	0.0000000E+000	6.8837112E+001	0.0000000E+000	0.0000000E+000	0.0000000E+000	-6.8837112E+001	0.0000000E+000	0.0000000E+000	0.0000000E+000	-2.1162889E+001	0.0000000E+000	0.0000000E+000	0.0000000E+000	2.1162889E+001	2.5831151E+000	6.8837112E+001	-7.836924840780237E-007	-3.2860564E-006	2.9265607E+004
2.1556899E+003	2.5662761E+000	1.0722609E+000	2.7812796E+000	-2.2676517E+001	6.754665200853196E+000	3.1010440E-001	-8.7688453E-003	6.8854668E+001	1.0233990E+001	1.000000000000000E+000	9	4.7034523E-003	1.6911110E-003	0	-4.866992765623662E-005	3.3175242E-001	1.3861531E-001	3.5954675E-001	2.2676517E+001	1.0233989E+004	2.4493336E+004	2.6545396E+004	-6.7323486E+001	0.0000000E+000	0.0000000E+000	0.0000000E+000	6.7323486E+001	0.0000000E+000	0.0000000E+000	0.0000000E+000	-6.7323486E+001	0.0000000E+000	0.0000000E+000	0.0000000E+000	-2.2676517E+001	0.0000000E+000	0.0000000E+000	0.0000000E+000	2.2676517E+001	2.3933318E+000	6.7323486E+001	-2.329946592725012E-006	-2.7192575E-006	3.5364336E+004
1.4685898E+003	2.7715909E+000	1.2735041E+000	3.0501688E+000	-2.4678064E+001	7.221960316353943E+000	3.1010315E-001	-1.4344798E-002	8.5097984E+001	1.4834477E+001	1.000000000000000E+000	9	4.6750349E-003	1.5327135E-003	0	-4.951460590328013E-005	2.9790747E-001	1.3688397E-001	3.2785070E-001	2.4678064E+001	1.4834475E+004	3.2285018E+004	3.5530043E+004	-6.5321938E+001	0.0000000E+000	0.0000000E+000	0.0000000E+000	6.5321938E+001	0.0000000E+000	0.0000000E+000	0.0000000E+000	-6.5321938E+001	0.0000000E+000	0.0000000E+000	0.0000000E+000	-2.4678064E+001	0.0000000E+000	0.0000000E+000	0.0000000E+000	2.4678064E+001	2.1763501E+000	6.5321938E+001	-8.446782470435037E-007	-4.4483672E-006	2.1617813E+004
1.0003202E+003	2.9928789E+000	1.5512447E+000	3.3710065E+000	-2.7398243E+001	7.944682484041550E+000	3.1010735E-001	-1.2889992E-002	1.0256538E+002	2.1719120E+001	1.000000000000000E+000	10	4.7616181E-003	1.4125212E-003	0	-5.351396767024158E-005	2.6337224E-001	1.3650896E-001	2.9664731E-001	2.7398243E+001	2.1719121E+004	4.1903578E+004	4.7197777E+004	-6.2601757E+001	0.0000000E+000	0.0000000E+000	0.0000000E+000	6.2601757E+001	0.0000000E+000	0.0000000E+000	0.0000000E+000	-6.2601757E+001	0.0000000E+000	0.0000000E+000	0.0000000E+000	-2.7398243E+001	0.0000000E+000	0.0000000E+000	0.0000000E+000	2.7398243E+001	1.9293402E+000	6.2601761E+001	-3.999361766961453E-006	-3.9972815E-006	2.4057994E+004
6.8108978E+002	3.2327936E+000	1.9323680E+000	3.7662981E+000	-3.0868422E+001	8.410415519465460E+000	3.1011322E-001	-1.2807924E-002	1.2092774E+002	3.1832905E+001	1.000000000000000E+000	10	4.7158520E-003	1.2521186E-003	0	-5.532330914536982E-005	2.2790225E-001	1.3622613E-001	2.6551270E-001	3.0868422E+001	3.1832904E+004	5.3255492E+004	6.2044188E+004	-5.9131577E+001	0.0000000E+000	0.0000000E+000	0.0000000E+000	5.9131577E+001	0.0000000E+000	0.0000000E+000	0.0000000E+000	-5.9131577E+001	0.0000000E+000	0.0000000E+000	0.0000000E+000	-3.0868422E+001	0.0000000E+000	0.0000000E+000	0.0000000E+000	3.0868422E+001	1.6729699E+000	5.9131577E+001	-1.809341475128246E-006	-3.9719066E-006	2.4212605E+004
4.6396069E+002	3.5404987E+000	2.4523511E+000	4.3068733E+000	-3.4708679E+001	8.879213995038299E+000	3.1010732E-001	-1.3309635E-002	1.3988020E+002	4.5352097E+001	1.000000000000000E+000	10	4.6897503E-003	1.0888991E-003	0	-5.688880057339298E-005	1.9087113E-001	1.3220823E-001	2.3218700E-001	3.4708679E+001	4.5352098E+004	6.5475555E+004	7.9648359E+004	-5.5291321E+001	0.0000000E+000	0.0000000E+000	0.0000000E+000	5.5291321E+001	0.0000000E+000	0.0000000E+000	0.0000000E+000	-5.5291321E+001	0.0000000E+000	0.0000000E+000	0.0000000E+000	-3.4708679E+001	0.0000000E+000	0.0000000E+000	0.0000000E+000	3.4708679E+001	1.4437160E+000	5.5291321E+001	-1.565491428023156E-006	-4.1274152E-006	2.3299461E+004
3.1631589E+002	3.9313419E+000	3.1978710E+000	5.0677242E+000	-3.9125935E+001	9.345910843898309E+000	3.1010234E-001	-1.3811343E-002	1.5733966E+002	6.2651882E+001	1.000000000000000E+000	10	4.6686037E-003	9.2124264E-004	0	-5.909914967741740E-005	1.5307873E-001	1.2451881E-001	1.9732723E-001	3.9125935E+001	6.2651879E+004	7.7021859E+004	9.9285570E+004	-5.0874065E+001	0.0000000E+000	0.0000000E+000	0.0000000E+000	5.0874065E+001	0.0000000E+000	0.0000000E+000	0.0000000E+000	-5.0874065E+001	0.0000000E+000	0.0000000E+000	0.0000000E+000	-3.9125935E+001	0.0000000E+000	0.0000000E+000	0.0000000E+000	3.9125935E+001	1.2293622E+000	5.0874069E+001	-2.210349104024417E-006	-4.2829301E-006	2.2452729E+004
2.1534457E+002	4.4835148E+000	4.1884661E+000	6.1355648E+000	-4.3051365E+001	9.813437452743528E+000	3.1011078E-001	-1.3401046E-002	1.7645389E+002	8.2230347E+001	1.000000000000000E+000	10	4.6442193E-003	7.5693429E-004	0	-6.128686381627954E-005	1.1909939E-001	1.1126176E-001	1.6298418E-001	4.3051365E+001	8.2230344E+004	8.8022906E+004	1.2045688E+005	-4.6948635E+001	0.0000000E+000	0.0000000E+000	0.0000000E+000	4.6948635E+001	0.0000000E+000	0.0000000E+000	0.0000000E+000	-4.6948635E+001	0.0000000E+000	0.0000000E+000	0.0000000E+000	-4.3051365E+001	0.0000000E+000	0.0000000E+000	0.0000000E+000	4.3051365E+001	1.0704432E+000	4.6948639E+001	-2.187714138862145E-006	-4.1558087E-006	2.3140789E+004
1.4673740E+002	5.3367553E+000	5.4834876E+000	7.6517706E+000	-4.5776936E+001	1.027636336805881E+001	3.1010824E-001	-1.3945650E-002	1.9779825E+002	1.0158096E+002	1.000000000000000E+000	10	4.6301791E-003	6.0511212E-004	0	-6.255095620924839E-005	9.1149315E-002	9.3655437E-002	1.3068871E-001	4.5776936E+001	1.0158095E+005	9.8862758E+004	1.4174814E+005	-4.4223064E+001	0.0000000E+000	0.0000000E+000	0.0000000E+000	4.4223064E+001	0.0000000E+000	0.0000000E+000	0.0000000E+000	-4.4223064E+001	0.0000000E+000	0.0000000E+000	0.0000000E+000	-4.5776936E+001	0.0000000E+000	0.0000000E+000	0.0000000E+000	4.5776936E+001	9.7324103E-001	4.4223068E+001	-1.264092392968852E-006	-4.3246609E-006	2.2236916E+004
1.0003201E+002	6.6257534E+000	7.0598211E+000	9.6820288E+000	-4.6816650E+001	1.074469581703306E+001	3.1011280E-001	-1.3636048E-002	2.2536551E+002	1.1982352E+002	1.000000000000000E+000	10	4.6205204E-003	4.7722645E-004	0	-6.371123232048962E-005	7.0680976E-002	7.5311437E-002	1.0328414E-001	4.6816650E+001	1.1982352E+005	1.1245627E+005	1.6432920E+005	-4.3183350E+001	0.0000000E+000	0.0000000E+000	0.0000000E+000	4.3183350E+001	0.0000000E+000	0.0000000E+000	0.0000000E+000	-4.3183350E+001	0.0000000E+000	0.0000000E+000	0.0000000E+000	-4.6816650E+001	0.0000000E+000	0.0000000E+000	0.0000000E+000	4.6816650E+001	9.3851578E-001	4.3183350E+001	-1.160276111241221E-006	-4.2287129E-006	2.2742133E+004
6.8103981E+001	8.5329666E+000	8.8155155E+000	1.2268856E+001	-4.5933075E+001	1.122332970637945E+001	3.1011444E-001	-1.1481876E-002	2.6509402E+002	1.3686336E+002	1.000000000000000E+000	10	4.6035354E-003	3.7522125E-004	0	-6.478108556726107E-005	5.6688100E-002	5.8565192E-002	8.1507191E-002	4.5933075E+001	1.3686336E+005	1.3247672E+005	1.9047745E+005	-4.4066925E+001	0.0000000E+000	0.0000000E+000	0.0000000E+000	4.4066925E+001	0.0000000E+000	0.0000000E+000	0.0000000E+000	-4.4066925E+001	0.0000000E+000	0.0000000E+000	0.0000000E+000	-4.5933075E+001	0.0000000E+000	0.0000000E+000	0.0000000E+000	4.5933075E+001	9.6794868E-001	4.4066925E+001	-1.069853246771454E-006	-3.5606954E-006	2.7009041E+004
4.6441547E+001	1.1328729E+001	1.0462651E+001	1.5420998E+001	-4.2724033E+001	1.167853479468613E+001	3.1009874E-001	-1.6273290E-002	3.2754556E+002	1.5077533E+002	1.000000000000000E+000	10	4.6205260E-003	2.9962562E-004	0	-6.651669743434306E-005	4.7638297E-002	4.3996368E-002	6.4846650E-002	4.2724033E+001	1.5077533E+005	1.6325620E+005	2.2222913E+005	-4.7275967E+001	0.0000000E+000	0.0000000E+000	0.0000000E+000	4.7275967E+001	0.0000000E+000	0.0000000E+000	0.0000000E+000	-4.7275967E+001	0.0000000E+000	0.0000000E+000	0.0000000E+000	-4.2724033E+001	0.0000000E+000	0.0000000E+000	0.0000000E+000	4.2724033E+001	1.0827780E+000	4.7275970E+001	-1.735611867081994E-006	-5.0463268E-006	1.9055688E+004
3.1629555E+001	1.4893338E+001	1.1711837E+001	1.8946732E+001	-3.8180836E+001	1.236843738742755E+001	3.1012261E-001	-5.0712861E-003	4.2963736E+002	1.6416609E+002	1.000000000000000E+000	11	4.6143443E-003	2.4354304E-004	0	-6.806512732308086E-005	4.1488089E-002	3.2625444E-002	5.2779552E-002	3.8180836E+001	1.6416608E+005	2.0876152E+005	2.6557838E+005	-5.1819164E+001	0.0000000E+000	0.0000000E+000	0.0000000E+000	5.1819164E+001	0.0000000E+000	0.0000000E+000	0.0000000E+000	-5.1819164E+001	0.0000000E+000	0.0000000E+000	0.0000000E+000	-3.8180836E+001	0.0000000E+000	0.0000000E+000	0.0000000E+000	3.8180836E+001	1.2716484E+000	5.1819168E+001	-1.548429888737800E-006	-1.5727205E-006	6.1152656E+004
2.1551722E+001	1.8742735E+001	1.2068124E+001	2.2291920E+001	-3.2776787E+001	1.280732228831039E+001	3.1012726E-001	-5.2800230E-003	6.1192529E+002	1.7934239E+002	1.000000000000000E+000	11	4.6186903E-003	2.0719123E-004	0	-6.800626942415288E-005	3.7717074E-002	2.4285374E-002	4.4859305E-002	3.2776787E+001	1.7934241E+005	2.7853269E+005	3.3127656E+005	-5.7223213E+001	0.0000000E+000	0.0000000E+000	0.0000000E+000	5.7223213E+001	0.0000000E+000	0.0000000E+000	0.0000000E+000	-5.7223213E+001	0.0000000E+000	0.0000000E+000	0.0000000E+000	-3.2776787E+001	0.0000000E+000	0.0000000E+000	0.0000000E+000	3.2776787E+001	1.5530778E+000	5.7223213E+001	5.885789892798212E-008	-1.6374790E-006	5.8735969E+004
1.4685154E+001	2.2456385E+001	1.1572866E+001	2.5263025E+001	-2.7264252E+001	1.328505103100906E+001	3.1013384E-001	-4.2419345E-003	9.3648468E+002	1.9652231E+002	1.000000000000000E+000	11	4.6168785E-003	1.8275240E-004	0	-6.864680171086932E-005	3.5185937E-002	1.8133024E-002	3.9583541E-002	2.7264252E+001	1.9652231E+005	3.8133859E+005	4.2899900E+005	-6.2735748E+001	0.0000000E+000	0.0000000E+000	0.0000000E+000	6.2735748E+001	0.0000000E+000	0.0000000E+000	0.0000000E+000	-6.2735748E+001	0.0000000E+000	0.0000000E+000	0.0000000E+000	-2.7264252E+001	0.0000000E+000	0.0000000E+000	0.0000000E+000	2.7264252E+001	1.9404341E+000	6.2735748E+001	-6.405322867164337E-007	-1.3155675E-006	7.3111414E+004
