EC-Lab ASCII FILE
Nb header lines : 63                          

Potentio Electrochemical Impedance Spectroscopy

Run on channel : 3 (SN 65921)
User : 
CE vs. WE compliance from -10 V to 10 V
Electrode connection : standard
Potential control : Ewe
Ewe ctrl range : min = -10.00 V, max = 10.00 V
Safety Limits :
	Do not start on E overload
Acquisition started on : 09/15/2025 10:34:05.767
Loaded Setting File :  C:\Users\Celltest\OneDrive - store-dot.com\Documents\EC-Lab\Data\Gyutae\16432.mps
Saved on :
	File : 16432_R270-A001 HG-1800_C03.mpr
	Directory : C:\Users\Celltest\OneDrive - store-dot.com\Documents\EC-Lab\Data\Gyutae\
	Host : 169.254.61.224
Device : VMP-3e (SN .003165)
Address : USB
EC-LAB for windows v11.62 (software)
Internet server v27.00 (firmware)
Command interpretor v12.03 (firmware)
Electrode material : 
Initial state : 
Electrolyte : 
Comments : 
Electrode surface area : 0.001 cm²
Characteristic mass : 0.001 g
Equivalent Weight : 0.000 g/eq.
Density : 0.000 g/cm3
Volume (V) : 0.001 cm³
Cycle Definition : Charge/Discharge alternance
Mode                Single sine         
E (V)               0.0000              
vs.                 Eoc                 
tE (h:m:s)          0:00:0.0000         
record              0                   
dI                  0.000               
unit dI             mA                  
dt (s)              0.000               
fi                  100.000             
unit fi             kHz                 
ff                  10.000              
unit ff             mHz                 
Nd                  6                   
Points              per decade          
spacing             Logarithmic         
Va (mV)             5.0                 
pw                  0.10                
Na                  2                   
corr                0                   
E range min (V)     -10.000             
E range max (V)     10.000              
I Range             Auto                
Bandwidth           5                   
nc cycles           0                   
goto Ns'            0                   
nr cycles           0                   
inc. cycle          0                   

freq/Hz	Re(Z)/Ohm	-Im(Z)/Ohm	|Z|/Ohm	Phase(Z)/deg	time/s	<Ewe>/V	<I>/mA	Cs/µF	Cp/µF	cycle number	I Range	|Ewe|/V	|I|/A	Ns	(Q-Qo)/mA.h	Re(Y)/Ohm-1	Im(Y)/Ohm-1	|Y|/Ohm-1	Phase(Y)/deg	Re(C)/nF	Im(C)/nF	|C|/nF	Phase(C)/deg	Re(M)	Im(M)	|M|	Phase(M)/deg	Re(Permittivity)	Im(Permittivity)	|Permittivity|	Phase(Permittivity)/deg	Re(Resistivity)/Ohm.cm	Im(Resistivity)/Ohm.cm	|Resistivity|/Ohm.cm	Phase(Resistivity)/deg	Re(Conductivity)/mS/cm	Im(Conductivity)/mS/cm	|Conductivity|/mS/cm	Phase(Conductivity)/deg	Tan(Delta)	Loss Angle(Delta)/deg	dq/mA.h	Pwe/W	Rwe/Ohm	
1.0000371E+005	9.4486099E-001	2.6471859E-001	9.8124319E-001	-1.5651104E+001	1.865499155217549E+000	2.8910202E-001	6.1043229E-002	6.0120077E+000	4.3755749E-001	1.000000000000000E+000	9	4.9759415E-003	5.0710584E-003	0	-7.581429980721118E-006	9.8132890E-001	2.7493569E-001	1.0191153E+000	1.5651104E+001	4.3755762E+002	1.5617755E+003	1.6219122E+003	-7.4348892E+001	0.0000000E+000	0.0000000E+000	0.0000000E+000	7.4348892E+001	0.0000000E+000	0.0000000E+000	0.0000000E+000	-7.4348892E+001	0.0000000E+000	0.0000000E+000	0.0000000E+000	-1.5651104E+001	0.0000000E+000	0.0000000E+000	0.0000000E+000	1.5651104E+001	3.5693035E+000	7.4348892E+001	-7.581429980721118E-006	1.7647721E-005	4.7360210E+003
6.8132047E+004	1.0095283E+000	2.9407132E-001	1.0514872E+000	-1.6240618E+001	2.443494409351842E+000	2.8908920E-001	5.6456119E-002	7.9435754E+000	6.2131721E-001	1.000000000000000E+000	9	5.0412714E-003	4.7944202E-003	0	-7.590457213447533E-006	9.1308349E-001	2.6597735E-001	9.5103389E-001	1.6240618E+001	6.2131714E+002	2.1329429E+003	2.2215940E+003	-7.3759384E+001	0.0000000E+000	0.0000000E+000	0.0000000E+000	7.3759384E+001	0.0000000E+000	0.0000000E+000	0.0000000E+000	-7.3759384E+001	0.0000000E+000	0.0000000E+000	0.0000000E+000	-1.6240618E+001	0.0000000E+000	0.0000000E+000	0.0000000E+000	1.6240618E+001	3.4329369E+000	7.3759384E+001	-9.027232726414542E-009	1.6320855E-005	5.1206001E+003
4.6420355E+004	1.0789610E+000	3.2597652E-001	1.1271280E+000	-1.6810656E+001	3.021487823483767E+000	2.8910226E-001	6.1994199E-002	1.0517812E+001	8.7973428E-001	1.000000000000000E+000	9	5.0410666E-003	4.4724881E-003	0	1.070098145634337E-005	8.4929639E-001	2.5659004E-001	8.8721067E-001	1.6810656E+001	8.7973413E+002	2.9118630E+003	3.0418545E+003	-7.3189346E+001	0.0000000E+000	0.0000000E+000	0.0000000E+000	7.3189346E+001	0.0000000E+000	0.0000000E+000	0.0000000E+000	-7.3189346E+001	0.0000000E+000	0.0000000E+000	0.0000000E+000	-1.6810656E+001	0.0000000E+000	0.0000000E+000	0.0000000E+000	1.6810656E+001	3.3099349E+000	7.3189346E+001	1.829143866979090E-005	1.7922663E-005	4.6633760E+003
3.1621139E+004	1.1577841E+000	3.7214428E-001	1.2161231E+000	-1.7818863E+001	3.599475184251787E+000	2.8908435E-001	5.7556257E-002	1.3524813E+001	1.2664816E+000	1.000000000000000E+000	9	5.1582730E-003	4.2415713E-003	0	1.597818672087871E-005	7.8283906E-001	2.5162646E-001	8.2228518E-001	1.7818863E+001	1.2664818E+003	3.9401716E+003	4.1387109E+003	-7.2181137E+001	0.0000000E+000	0.0000000E+000	0.0000000E+000	7.2181137E+001	0.0000000E+000	0.0000000E+000	0.0000000E+000	-7.2181137E+001	0.0000000E+000	0.0000000E+000	0.0000000E+000	-1.7818863E+001	0.0000000E+000	0.0000000E+000	0.0000000E+000	1.7818863E+001	3.1111162E+000	7.2181137E+001	5.277205264535345E-006	1.6638613E-005	5.0226396E+003
2.1544684E+004	1.2459805E+000	4.2605066E-001	1.3168093E+000	-1.8877613E+001	4.177481905062450E+000	2.8909135E-001	6.1975513E-002	1.7338791E+001	1.8150789E+000	1.000000000000000E+000	9	4.9671330E-003	3.7720976E-003	0	2.292944856637364E-005	7.1856403E-001	2.4570584E-001	7.5941139E-001	1.8877613E+001	1.8150786E+003	5.3081787E+003	5.6099263E+003	-7.1122391E+001	0.0000000E+000	0.0000000E+000	0.0000000E+000	7.1122391E+001	0.0000000E+000	0.0000000E+000	0.0000000E+000	-7.1122391E+001	0.0000000E+000	0.0000000E+000	0.0000000E+000	-1.8877613E+001	0.0000000E+000	0.0000000E+000	0.0000000E+000	1.8877613E+001	2.9244890E+000	7.1122391E+001	6.951261845494931E-006	1.7916585E-005	4.6646060E+003
1.4678594E+004	1.3418242E+000	4.7686294E-001	1.4240402E+000	-1.9564402E+001	4.614495339134010E+000	2.8908044E-001	5.8619101E-002	2.2737469E+001	2.5496745E+000	1.000000000000000E+000	9	4.9969875E-003	3.5090214E-003	0	2.450966056813357E-005	6.6168475E-001	2.3515220E-001	7.0222735E-001	1.9564402E+001	2.5496741E+003	7.1744199E+003	7.6140093E+003	-7.0435600E+001	0.0000000E+000	0.0000000E+000	0.0000000E+000	7.0435600E+001	0.0000000E+000	0.0000000E+000	0.0000000E+000	-7.0435600E+001	0.0000000E+000	0.0000000E+000	0.0000000E+000	-1.9564402E+001	0.0000000E+000	0.0000000E+000	0.0000000E+000	1.9564402E+001	2.8138571E+000	7.0435600E+001	1.580212001759923E-006	1.6945636E-005	4.9315059E+003
1.0002226E+004	1.4474488E+000	5.4171175E-001	1.5454966E+000	-2.0518501E+001	5.051499013236025E+000	2.8909796E-001	6.1080482E-002	2.9373468E+001	3.6087406E+000	1.000000000000000E+000	9	4.8182374E-003	3.1175981E-003	0	3.260980669344362E-005	6.0599232E-001	2.2679430E-001	6.4704120E-001	2.0518501E+001	3.6087407E+003	9.6425225E+003	1.0295690E+004	-6.9481499E+001	0.0000000E+000	0.0000000E+000	0.0000000E+000	6.9481499E+001	0.0000000E+000	0.0000000E+000	0.0000000E+000	-6.9481499E+001	0.0000000E+000	0.0000000E+000	0.0000000E+000	-2.0518501E+001	0.0000000E+000	0.0000000E+000	0.0000000E+000	2.0518501E+001	2.6719909E+000	6.9481499E+001	8.100146125310051E-006	1.7658243E-005	4.7330664E+003
6.8110674E+003	1.5761156E+000	6.2093878E-001	1.6940205E+000	-2.1502842E+001	5.606512612925144E+000	2.8882307E-001	-1.4244919E-001	3.7631905E+001	5.0561085E+000	1.000000000000000E+000	9	4.9973121E-003	2.9499715E-003	0	1.753376008961479E-005	5.4922557E-001	2.1637718E-001	5.9031165E-001	2.1502842E+001	5.0561079E+003	1.2833813E+004	1.3793875E+004	-6.8497162E+001	0.0000000E+000	0.0000000E+000	0.0000000E+000	6.8497162E+001	0.0000000E+000	0.0000000E+000	0.0000000E+000	-6.8497162E+001	0.0000000E+000	0.0000000E+000	0.0000000E+000	-2.1502842E+001	0.0000000E+000	0.0000000E+000	0.0000000E+000	2.1502842E+001	2.5382786E+000	6.8497162E+001	-1.507604660382883E-005	-4.1142612E-005	2.0275515E+003
4.6414854E+003	1.7125875E+000	7.1263713E-001	1.8549414E+000	-2.2593037E+001	6.077703222028504E+000	2.8903627E-001	8.7521620E-002	4.8116573E+001	7.1018453E+000	1.000000000000000E+000	9	4.7957329E-003	2.5853824E-003	0	2.650777612789534E-005	4.9772835E-001	2.0711334E-001	5.3910059E-001	2.2593037E+001	7.1018442E+003	1.7066936E+004	1.8485574E+004	-6.7406967E+001	0.0000000E+000	0.0000000E+000	0.0000000E+000	6.7406967E+001	0.0000000E+000	0.0000000E+000	0.0000000E+000	-6.7406967E+001	0.0000000E+000	0.0000000E+000	0.0000000E+000	-2.2593037E+001	0.0000000E+000	0.0000000E+000	0.0000000E+000	2.2593037E+001	2.4031689E+000	6.7406967E+001	8.974016038280549E-006	2.5296922E-005	3.3024558E+003
3.1610117E+003	1.8625921E+000	8.1968933E-001	2.0349791E+000	-2.3753330E+001	6.544707244211168E+000	2.8904060E-001	9.4551437E-002	6.1424938E+001	9.9660578E+000	1.000000000000000E+000	9	4.7122873E-003	2.3156442E-003	0	3.908360258165178E-005	4.4977763E-001	1.9793810E-001	4.9140555E-001	2.3753330E+001	9.9660566E+003	2.2646021E+004	2.4741959E+004	-6.6246674E+001	0.0000000E+000	0.0000000E+000	0.0000000E+000	6.6246674E+001	0.0000000E+000	0.0000000E+000	0.0000000E+000	-6.6246674E+001	0.0000000E+000	0.0000000E+000	0.0000000E+000	-2.3753330E+001	0.0000000E+000	0.0000000E+000	0.0000000E+000	2.3753330E+001	2.2723148E+000	6.6246674E+001	1.257582645375644E-005	2.7329204E-005	3.0569668E+003
2.1556899E+003	2.0285587E+000	9.5926553E-001	2.2439342E+000	-2.5308548E+001	7.011694333057676E+000	2.8903812E-001	9.0542369E-002	7.6965309E+001	1.4065412E+001	1.000000000000000E+000	9	4.6634497E-003	2.0782470E-003	0	4.765356594012701E-005	4.0287223E-001	1.9051038E-001	4.4564587E-001	2.5308548E+001	1.4065413E+004	2.9744125E+004	3.2902109E+004	-6.4691452E+001	0.0000000E+000	0.0000000E+000	0.0000000E+000	6.4691452E+001	0.0000000E+000	0.0000000E+000	0.0000000E+000	-6.4691452E+001	0.0000000E+000	0.0000000E+000	0.0000000E+000	-2.5308548E+001	0.0000000E+000	0.0000000E+000	0.0000000E+000	2.5308548E+001	2.1146998E+000	6.4691452E+001	8.569963358475232E-006	2.6170195E-005	3.1922969E+003
1.4685898E+003	2.2049270E+000	1.1360492E+000	2.4803851E+000	-2.7258978E+001	7.478938008571276E+000	2.8905568E-001	8.9852422E-002	9.5394318E+001	2.0011448E+001	1.000000000000000E+000	9	4.6392055E-003	1.8703570E-003	0	5.746955933692193E-005	3.5839006E-001	1.8465407E-001	4.0316319E-001	2.7258978E+001	2.0011449E+004	3.8839672E+004	4.3691855E+004	-6.2741020E+001	0.0000000E+000	0.0000000E+000	0.0000000E+000	6.2741020E+001	0.0000000E+000	0.0000000E+000	0.0000000E+000	-6.2741020E+001	0.0000000E+000	0.0000000E+000	0.0000000E+000	-2.7258978E+001	0.0000000E+000	0.0000000E+000	0.0000000E+000	2.7258978E+001	1.9408729E+000	6.2741020E+001	9.815993396794918E-006	2.5972353E-005	3.2170049E+003
1.0003202E+003	2.3999133E+000	1.3765061E+000	2.7666502E+000	-2.9837070E+001	7.947684404185566E+000	2.8904396E-001	9.1903560E-002	1.1558539E+002	2.8612165E+001	1.000000000000000E+000	9	4.6165190E-003	1.6686312E-003	0	6.878308943453401E-005	3.1353575E-001	1.7983310E-001	3.6144793E-001	2.9837070E+001	2.8612166E+004	4.9884793E+004	5.7507813E+004	-6.0162930E+001	0.0000000E+000	0.0000000E+000	0.0000000E+000	6.0162930E+001	0.0000000E+000	0.0000000E+000	0.0000000E+000	-6.0162930E+001	0.0000000E+000	0.0000000E+000	0.0000000E+000	-2.9837070E+001	0.0000000E+000	0.0000000E+000	0.0000000E+000	2.9837070E+001	1.7434818E+000	6.0162933E+001	1.131353009761208E-005	2.6564168E-005	3.1450791E+003
6.8108978E+002	2.6189971E+000	1.7017423E+000	3.1233113E+000	-3.3014549E+001	8.668412198341684E+000	2.8901392E-001	-1.8600276E-002	1.3731627E+002	4.0764210E+001	1.000000000000000E+000	10	4.7098710E-003	1.5079736E-003	0	7.161167714530085E-005	2.6847541E-001	1.7444691E-001	3.2017303E-001	3.3014549E+001	4.0764207E+004	6.2736492E+004	7.4817031E+004	-5.6985451E+001	0.0000000E+000	0.0000000E+000	0.0000000E+000	5.6985451E+001	0.0000000E+000	0.0000000E+000	0.0000000E+000	-5.6985451E+001	0.0000000E+000	0.0000000E+000	0.0000000E+000	-3.3014549E+001	0.0000000E+000	0.0000000E+000	0.0000000E+000	3.3014549E+001	1.5390092E+000	5.6985451E+001	2.828587710766847E-006	-5.3757385E-006	1.5538152E+004
4.6396069E+002	2.9146752E+000	2.1629696E+000	3.6295688E+000	-3.6578972E+001	9.137211847322760E+000	2.8902414E-001	-1.8193826E-002	1.5859465E+002	5.6322155E+001	1.000000000000000E+000	10	4.6751578E-003	1.2880752E-003	0	7.004275958325079E-005	2.2124837E-001	1.6418760E-001	2.7551481E-001	3.6578972E+001	5.6322160E+004	7.5896031E+004	9.4511336E+004	-5.3421028E+001	0.0000000E+000	0.0000000E+000	0.0000000E+000	5.3421028E+001	0.0000000E+000	0.0000000E+000	0.0000000E+000	-5.3421028E+001	0.0000000E+000	0.0000000E+000	0.0000000E+000	-3.6578972E+001	0.0000000E+000	0.0000000E+000	0.0000000E+000	3.6578972E+001	1.3475341E+000	5.3421028E+001	-1.568917562050058E-006	-5.2584551E-006	1.5885836E+004
3.1631589E+002	3.3151488E+000	2.7753012E+000	4.3234835E+000	-3.9934635E+001	9.603913842845941E+000	2.8901348E-001	-1.8438075E-002	1.8129633E+002	7.4703621E+001	1.000000000000000E+000	10	4.6356982E-003	1.0722136E-003	0	6.857238434666781E-005	1.7735173E-001	1.4847131E-001	2.3129497E-001	3.9934635E+001	7.4703625E+004	8.9234859E+004	1.1637651E+005	-5.0065365E+001	0.0000000E+000	0.0000000E+000	0.0000000E+000	5.0065365E+001	0.0000000E+000	0.0000000E+000	0.0000000E+000	-5.0065365E+001	0.0000000E+000	0.0000000E+000	0.0000000E+000	-3.9934635E+001	0.0000000E+000	0.0000000E+000	0.0000000E+000	3.9934635E+001	1.1945186E+000	5.0065369E+001	-1.470375236582987E-006	-5.3288522E-006	1.5674818E+004
2.1534457E+002	3.9126823E+000	3.5802891E+000	5.3035417E+000	-4.2459988E+001	1.007145394498366E+001	2.8901675E-001	-1.7360430E-002	2.0642778E+002	9.4074593E+001	1.000000000000000E+000	10	4.6245418E-003	8.7197241E-004	0	6.650844191671867E-005	1.3910496E-001	1.2728761E-001	1.8855324E-001	4.2459988E+001	9.4074594E+004	1.0280845E+005	1.3935425E+005	-4.7540012E+001	0.0000000E+000	0.0000000E+000	0.0000000E+000	4.7540012E+001	0.0000000E+000	0.0000000E+000	0.0000000E+000	-4.7540012E+001	0.0000000E+000	0.0000000E+000	0.0000000E+000	-4.2459988E+001	0.0000000E+000	0.0000000E+000	0.0000000E+000	4.2459988E+001	1.0928397E+000	4.7540009E+001	-2.063942429949141E-006	-5.0174554E-006	1.6648018E+004
1.4673740E+002	4.8037996E+000	4.5433450E+000	6.6119947E+000	-4.3403885E+001	1.053438058032771E+001	2.8904131E-001	-1.6802974E-002	2.3872813E+002	1.1271716E+002	1.000000000000000E+000	10	4.6157385E-003	6.9808564E-004	0	6.419248084783774E-005	1.0988032E-001	1.0392276E-001	1.5124029E-001	4.3403885E+001	1.1271716E+005	1.1917886E+005	1.6403889E+005	-4.6596115E+001	0.0000000E+000	0.0000000E+000	0.0000000E+000	4.6596115E+001	0.0000000E+000	0.0000000E+000	0.0000000E+000	-4.6596115E+001	0.0000000E+000	0.0000000E+000	0.0000000E+000	-4.3403885E+001	0.0000000E+000	0.0000000E+000	0.0000000E+000	4.3403885E+001	1.0573267E+000	4.6596115E+001	-2.315961068880925E-006	-4.8567535E-006	1.7201795E+004
1.0003201E+002	6.0971141E+000	5.5503645E+000	8.2450800E+000	-4.2312424E+001	1.100270756262034E+001	2.8902850E-001	-1.7326886E-002	2.8665506E+002	1.2990112E+002	1.000000000000000E+000	10	4.6069231E-003	5.5874814E-004	0	6.180885211782556E-005	8.9688048E-002	8.1645399E-002	1.2128445E-001	4.2312424E+001	1.2990112E+005	1.4269730E+005	1.9296844E+005	-4.7687576E+001	0.0000000E+000	0.0000000E+000	0.0000000E+000	4.7687576E+001	0.0000000E+000	0.0000000E+000	0.0000000E+000	-4.7687576E+001	0.0000000E+000	0.0000000E+000	0.0000000E+000	-4.2312424E+001	0.0000000E+000	0.0000000E+000	0.0000000E+000	4.2312424E+001	1.0985069E+000	4.7687576E+001	-2.383628730012180E-006	-5.0079639E-006	1.6680926E+004
6.8103981E+001	7.8322763E+000	6.4452486E+000	1.0143263E+001	-3.9451260E+001	1.148130222529289E+001	2.8902692E-001	-1.6622130E-002	3.6258340E+002	1.4639691E+002	1.000000000000000E+000	10	4.6028728E-003	4.5378623E-004	0	5.967284736816590E-005	7.6125935E-002	6.2644690E-002	9.8587602E-002	3.9451260E+001	1.4639691E+005	1.7790178E+005	2.3039336E+005	-5.0548740E+001	0.0000000E+000	0.0000000E+000	0.0000000E+000	5.0548740E+001	0.0000000E+000	0.0000000E+000	0.0000000E+000	-5.0548740E+001	0.0000000E+000	0.0000000E+000	0.0000000E+000	-3.9451260E+001	0.0000000E+000	0.0000000E+000	0.0000000E+000	3.9451260E+001	1.2152016E+000	5.0548737E+001	-2.136004749659658E-006	-4.8042430E-006	1.7388080E+004
4.6441547E+001	9.9283113E+000	7.0169706E+000	1.2157682E+001	-3.5251286E+001	1.193651886025327E+001	2.8903115E-001	-1.9068278E-002	4.8838669E+002	1.6269025E+002	1.000000000000000E+000	10	4.5968583E-003	3.7810317E-004	0	5.713103941246906E-005	6.7169756E-002	4.7473151E-002	8.2252517E-002	3.5251286E+001	1.6269023E+005	2.3019041E+005	2.8187894E+005	-5.4748714E+001	0.0000000E+000	0.0000000E+000	0.0000000E+000	5.4748714E+001	0.0000000E+000	0.0000000E+000	0.0000000E+000	-5.4748714E+001	0.0000000E+000	0.0000000E+000	0.0000000E+000	-3.5251286E+001	0.0000000E+000	0.0000000E+000	0.0000000E+000	3.5251286E+001	1.4148999E+000	5.4748718E+001	-2.541807955696841E-006	-5.5113264E-006	1.5157695E+004
3.1629555E+001	1.2195738E+001	7.1022162E+000	1.4113026E+001	-3.0214483E+001	1.238242858808371E+001	2.8903282E-001	-2.0580342E-002	7.0848907E+002	1.7942406E+002	1.000000000000000E+000	10	4.6070442E-003	3.2643916E-004	0	5.486556450371346E-005	6.1230499E-002	3.5657726E-002	7.0856526E-002	3.0214483E+001	1.7942408E+005	3.0810225E+005	3.5653891E+005	-5.9785515E+001	0.0000000E+000	0.0000000E+000	0.0000000E+000	5.9785515E+001	0.0000000E+000	0.0000000E+000	0.0000000E+000	-5.9785515E+001	0.0000000E+000	0.0000000E+000	0.0000000E+000	-3.0214483E+001	0.0000000E+000	0.0000000E+000	0.0000000E+000	3.0214483E+001	1.7171736E+000	5.9785515E+001	-2.265474908755604E-006	-5.9483941E-006	1.4044121E+004
2.1551722E+001	1.4375227E+001	6.8524890E+000	1.5924941E+001	-2.5486549E+001	1.306335139376461E+001	2.8905180E-001	-1.3192585E-002	1.0776799E+003	1.9954039E+002	1.000000000000000E+000	11	4.6050632E-003	2.8917301E-004	0	5.216375635326323E-005	5.6683809E-002	2.7020458E-002	6.2794581E-002	2.5486549E+001	1.9954041E+005	4.1859806E+005	4.6372481E+005	-6.4513451E+001	0.0000000E+000	0.0000000E+000	0.0000000E+000	6.4513451E+001	0.0000000E+000	0.0000000E+000	0.0000000E+000	-6.4513451E+001	0.0000000E+000	0.0000000E+000	0.0000000E+000	-2.5486549E+001	0.0000000E+000	0.0000000E+000	0.0000000E+000	2.5486549E+001	2.0978110E+000	6.4513451E+001	-2.701808150450233E-006	-3.8133403E-006	2.1910172E+004
1.4685154E+001	1.6235567E+001	6.2481079E+000	1.7396336E+001	-2.1048759E+001	1.354103048317484E+001	2.8907880E-001	-1.1387740E-002	1.7345750E+003	2.2375595E+002	1.000000000000000E+000	11	4.5936164E-003	2.6405655E-004	0	5.029227331242550E-005	5.3647801E-002	2.0645861E-002	5.7483371E-002	2.1048759E+001	2.2375597E+005	5.8142481E+005	6.2299400E+005	-6.8951241E+001	0.0000000E+000	0.0000000E+000	0.0000000E+000	6.8951241E+001	0.0000000E+000	0.0000000E+000	0.0000000E+000	-6.8951241E+001	0.0000000E+000	0.0000000E+000	0.0000000E+000	-2.1048759E+001	0.0000000E+000	0.0000000E+000	0.0000000E+000	2.1048759E+001	2.5984774E+000	6.8951241E+001	-1.871483040837726E-006	-3.2919543E-006	2.5385090E+004
1.0003201E+001	1.7774410E+001	5.5139642E+000	1.8610037E+001	-1.7234896E+001	1.400966607878217E+001	2.8904939E-001	-1.2600044E-002	2.8854741E+003	2.5330899E+002	1.000000000000000E+000	11	4.5897118E-003	2.4662563E-004	0	4.745002086730528E-005	5.1321663E-002	1.5920969E-002	5.3734444E-002	1.7234896E+001	2.5330895E+005	8.1654831E+005	8.5493656E+005	-7.2765106E+001	0.0000000E+000	0.0000000E+000	0.0000000E+000	7.2765106E+001	0.0000000E+000	0.0000000E+000	0.0000000E+000	-7.2765106E+001	0.0000000E+000	0.0000000E+000	0.0000000E+000	-1.7234896E+001	0.0000000E+000	0.0000000E+000	0.0000000E+000	1.7234896E+001	3.2235267E+000	7.2765106E+001	-2.842252445120219E-006	-3.6420349E-006	2.2940348E+004
