EC-Lab ASCII FILE
Nb header lines : 64                          

Potentio Electrochemical Impedance Spectroscopy

Run on channel : 1 (SN 66354)
User : 
CE vs. WE compliance from -10 V to 10 V
Electrode connection : standard
Potential control : Ewe
Ewe ctrl range : min = -10.00 V, max = 10.00 V
Safety Limits :
	Do not start on E overload
Acquisition started on : 09/04/2025 09:43:57.907
Technique started on : 09/04/2025 09:43:59.623
Loaded Setting File :  C:\Users\Celltest\OneDrive - store-dot.com\Documents\EC-Lab\Data\Gyutae\EIS_SOC0_C01.mpr
Saved on :
	File : 17153_C01.mpr
	Directory : C:\Users\Celltest\OneDrive - store-dot.com\Documents\EC-Lab\Data\Gyutae\R270\
	Host : 169.254.61.224
Device : VMP-3e (SN .003165)
Address : USB
EC-LAB for windows v11.62 (software)
Internet server v27.00 (firmware)
Command interpretor v12.03 (firmware)
Electrode material : 
Initial state : 
Electrolyte : 
Comments : 
Electrode surface area : 0.001 cm²
Characteristic mass : 0.001 g
Equivalent Weight : 0.000 g/eq.
Density : 0.000 g/cm3
Volume (V) : 0.001 cm³
Cycle Definition : Charge/Discharge alternance
Mode                Single sine         
E (V)               0.0000              
vs.                 Eoc                 
tE (h:m:s)          0:00:0.0000         
record              0                   
dI                  0.000               
unit dI             mA                  
dt (s)              0.000               
fi                  100.000             
unit fi             kHz                 
ff                  10.000              
unit ff             mHz                 
Nd                  6                   
Points              per decade          
spacing             Logarithmic         
Va (mV)             5.0                 
pw                  0.10                
Na                  2                   
corr                0                   
E range min (V)     -10.000             
E range max (V)     10.000              
I Range             Auto                
Bandwidth           5                   
nc cycles           0                   
goto Ns'            0                   
nr cycles           0                   
inc. cycle          0                   

freq/Hz	Re(Z)/Ohm	-Im(Z)/Ohm	|Z|/Ohm	Phase(Z)/deg	time/s	<Ewe>/V	<I>/mA	Cs/µF	Cp/µF	cycle number	I Range	|Ewe|/V	|I|/A	Ns	(Q-Qo)/mA.h	Re(Y)/Ohm-1	Im(Y)/Ohm-1	|Y|/Ohm-1	Phase(Y)/deg	Re(C)/nF	Im(C)/nF	|C|/nF	Phase(C)/deg	Re(M)	Im(M)	|M|	Phase(M)/deg	Re(Permittivity)	Im(Permittivity)	|Permittivity|	Phase(Permittivity)/deg	Re(Resistivity)/Ohm.cm	Im(Resistivity)/Ohm.cm	|Resistivity|/Ohm.cm	Phase(Resistivity)/deg	Re(Conductivity)/mS/cm	Im(Conductivity)/mS/cm	|Conductivity|/mS/cm	Phase(Conductivity)/deg	Tan(Delta)	Loss Angle(Delta)/deg	dq/mA.h	Pwe/W	Rwe/Ohm	
1.0000371E+005	1.0901707E+000	2.3127036E-001	1.1144317E+000	-1.1977241E+001	1.716486054850975E+000	2.7978727E-001	8.0502100E-002	6.8815141E+000	2.9635826E-001	1.000000000000000E+000	9	4.6839323E-003	4.2029782E-003	0	1.535846278265429E-005	8.7778378E-001	1.8621430E-001	8.9731830E-001	1.1977241E+001	2.9635828E+002	1.3969844E+003	1.4280734E+003	-7.8022758E+001	0.0000000E+000	0.0000000E+000	0.0000000E+000	7.8022758E+001	0.0000000E+000	0.0000000E+000	0.0000000E+000	-7.8022758E+001	0.0000000E+000	0.0000000E+000	0.0000000E+000	-1.1977241E+001	0.0000000E+000	0.0000000E+000	0.0000000E+000	1.1977241E+001	4.7138367E+000	7.8022758E+001	1.535846278265429E-005	2.2523463E-005	3.4755276E+003
6.8132047E+004	1.1523780E+000	2.9466441E-001	1.1894546E+000	-1.4343267E+001	2.154477115633199E+000	2.7979234E-001	8.3817743E-002	7.9275870E+000	4.8651996E-001	1.000000000000000E+000	9	5.3741154E-003	4.5181345E-003	0	2.020881666113726E-005	8.1451529E-001	2.0827253E-001	8.4072149E-001	1.4343267E+001	4.8652005E+002	1.9026897E+003	1.9639067E+003	-7.5656731E+001	0.0000000E+000	0.0000000E+000	0.0000000E+000	7.5656731E+001	0.0000000E+000	0.0000000E+000	0.0000000E+000	-7.5656731E+001	0.0000000E+000	0.0000000E+000	0.0000000E+000	-1.4343267E+001	0.0000000E+000	0.0000000E+000	0.0000000E+000	1.4343267E+001	3.9108148E+000	7.5656731E+001	4.850353878482967E-006	2.3451563E-005	3.3381040E+003
4.6420355E+004	1.2253036E+000	3.4377819E-001	1.2726164E+000	-1.5672299E+001	2.591475376422750E+000	2.7980059E-001	8.2830481E-002	9.9731731E+000	7.2777140E-001	1.000000000000000E+000	9	5.1386678E-003	4.0378766E-003	0	3.093029016904378E-005	7.5656927E-001	2.1226741E-001	7.8578275E-001	1.5672299E+001	7.2777155E+002	2.5939426E+003	2.6941028E+003	-7.4327698E+001	0.0000000E+000	0.0000000E+000	0.0000000E+000	7.4327698E+001	0.0000000E+000	0.0000000E+000	0.0000000E+000	-7.4327698E+001	0.0000000E+000	0.0000000E+000	0.0000000E+000	-1.5672299E+001	0.0000000E+000	0.0000000E+000	0.0000000E+000	1.5672299E+001	3.5642273E+000	7.4327698E+001	1.072147350790652E-005	2.3176019E-005	3.3779907E+003
3.1621139E+004	1.3089634E+000	3.9671355E-001	1.3677598E+000	-1.6860723E+001	3.028486677125329E+000	2.7979764E-001	8.4693201E-002	1.2687195E+001	1.0673331E+000	1.000000000000000E+000	9	5.4019862E-003	3.9495137E-003	0	3.574386421016728E-005	6.9969344E-001	2.1205932E-001	7.3112249E-001	1.6860723E+001	1.0673333E+003	3.5216846E+003	3.6798726E+003	-7.3139275E+001	0.0000000E+000	0.0000000E+000	0.0000000E+000	7.3139275E+001	0.0000000E+000	0.0000000E+000	0.0000000E+000	-7.3139275E+001	0.0000000E+000	0.0000000E+000	0.0000000E+000	-1.6860723E+001	0.0000000E+000	0.0000000E+000	0.0000000E+000	1.6860723E+001	3.2995179E+000	7.3139275E+001	4.813574041123503E-006	2.3696957E-005	3.3036611E+003
2.1544684E+004	1.4045205E+000	4.5618480E-001	1.4767473E+000	-1.7993670E+001	3.465479577920632E+000	2.7979332E-001	8.1750095E-002	1.6193443E+001	1.5452846E+000	1.000000000000000E+000	9	5.3270236E-003	3.6072682E-003	0	4.123932690437262E-005	6.4404434E-001	2.0918402E-001	6.7716396E-001	1.7993670E+001	1.5452844E+003	4.7576855E+003	5.0023472E+003	-7.2006332E+001	0.0000000E+000	0.0000000E+000	0.0000000E+000	7.2006332E+001	0.0000000E+000	0.0000000E+000	0.0000000E+000	-7.2006332E+001	0.0000000E+000	0.0000000E+000	0.0000000E+000	-1.7993670E+001	0.0000000E+000	0.0000000E+000	0.0000000E+000	1.7993670E+001	3.0788410E+000	7.2006332E+001	5.495462694205338E-006	2.2873131E-005	3.4225442E+003
1.4678594E+004	1.5136933E+000	5.2281749E-001	1.6014386E+000	-1.9054501E+001	3.902493465313455E+000	2.7979499E-001	8.4804945E-002	2.0738894E+001	2.2103710E+000	1.000000000000000E+000	9	5.2192719E-003	3.2591145E-003	0	5.214306047227648E-005	5.9022456E-001	2.0385882E-001	6.2443852E-001	1.9054501E+001	2.2103716E+003	6.3996021E+003	6.7705723E+003	-7.0945496E+001	0.0000000E+000	0.0000000E+000	0.0000000E+000	7.0945496E+001	0.0000000E+000	0.0000000E+000	0.0000000E+000	-7.0945496E+001	0.0000000E+000	0.0000000E+000	0.0000000E+000	-1.9054501E+001	0.0000000E+000	0.0000000E+000	0.0000000E+000	1.9054501E+001	2.8952615E+000	7.0945496E+001	1.090373356790386E-005	2.3727998E-005	3.2992769E+003
1.0002226E+004	1.6346728E+000	5.9320444E-001	1.7389786E+000	-1.9945267E+001	4.339496526081348E+000	2.7979636E-001	8.5047089E-002	2.6823725E+001	3.1213279E+000	1.000000000000000E+000	9	5.3779166E-003	3.0925721E-003	0	5.957656266954210E-005	5.4055804E-001	1.9616245E-001	5.7505018E-001	1.9945267E+001	3.1213279E+003	8.6013350E+003	9.1501719E+003	-7.0054733E+001	0.0000000E+000	0.0000000E+000	0.0000000E+000	7.0054733E+001	0.0000000E+000	0.0000000E+000	0.0000000E+000	-7.0054733E+001	0.0000000E+000	0.0000000E+000	0.0000000E+000	-1.9945267E+001	0.0000000E+000	0.0000000E+000	0.0000000E+000	1.9945267E+001	2.7556651E+000	7.0054733E+001	7.433502197265626E-006	2.3795867E-005	3.2898994E+003
6.8110674E+003	1.7744493E+000	6.7613196E-001	1.8989010E+000	-2.0858723E+001	5.070496854168596E+000	2.7979439E-001	8.2588300E-002	3.4559982E+001	4.3815904E+000	1.000000000000000E+000	9	5.3376472E-003	2.8109138E-003	0	7.111056671927993E-005	4.9210635E-001	1.8751103E-001	5.2662039E-001	2.0858723E+001	4.3815894E+003	1.1499102E+004	1.2305595E+004	-6.9141281E+001	0.0000000E+000	0.0000000E+000	0.0000000E+000	6.9141281E+001	0.0000000E+000	0.0000000E+000	0.0000000E+000	-6.9141281E+001	0.0000000E+000	0.0000000E+000	0.0000000E+000	-2.0858723E+001	0.0000000E+000	0.0000000E+000	0.0000000E+000	2.0858723E+001	2.6244128E+000	6.9141281E+001	1.153400404973783E-005	2.3107743E-005	3.3878213E+003
4.6414854E+003	1.9343044E+000	7.6873493E-001	2.0814626E+000	-2.1673958E+001	5.764689633833768E+000	2.7979004E-001	7.2306097E-002	4.4605309E+001	6.0841866E+000	1.000000000000000E+000	9	5.1836139E-003	2.4903708E-003	0	8.780578051297926E-005	4.4646516E-001	1.7743504E-001	4.8043141E-001	2.1673958E+001	6.0841870E+003	1.5309138E+004	1.6473828E+004	-6.8326042E+001	0.0000000E+000	0.0000000E+000	0.0000000E+000	6.8326042E+001	0.0000000E+000	0.0000000E+000	0.0000000E+000	-6.8326042E+001	0.0000000E+000	0.0000000E+000	0.0000000E+000	-2.1673958E+001	0.0000000E+000	0.0000000E+000	0.0000000E+000	2.1673958E+001	2.5162175E+000	6.8326042E+001	1.669521379369933E-005	2.0230525E-005	3.8695222E+003
3.1610117E+003	2.1077747E+000	8.8046473E-001	2.2842793E+000	-2.2671387E+001	6.454689293270349E+000	2.7979279E-001	7.6497220E-002	5.7184990E+001	8.4958639E+000	1.000000000000000E+000	9	5.1937811E-003	2.2737067E-003	0	9.930248999184309E-005	4.0394828E-001	1.6873825E-001	4.3777484E-001	2.2671387E+001	8.4958633E+003	2.0338539E+004	2.2041686E+004	-6.7328613E+001	0.0000000E+000	0.0000000E+000	0.0000000E+000	6.7328613E+001	0.0000000E+000	0.0000000E+000	0.0000000E+000	-6.7328613E+001	0.0000000E+000	0.0000000E+000	0.0000000E+000	-2.2671387E+001	0.0000000E+000	0.0000000E+000	0.0000000E+000	2.2671387E+001	2.3939342E+000	6.7328613E+001	1.149670947886383E-005	2.1403370E-005	3.6575549E+003
2.1556899E+003	2.3112564E+000	1.0019116E+000	2.5190740E+000	-2.3436356E+001	7.144713486042747E+000	2.7978966E-001	7.5174674E-002	7.3689293E+001	1.1656856E+001	1.000000000000000E+000	9	5.1296982E-003	2.0363429E-003	0	1.155528915479210E-004	3.6422211E-001	1.5788744E-001	3.9697129E-001	2.3436356E+001	1.1656855E+004	2.6890578E+004	2.9308453E+004	-6.6563644E+001	0.0000000E+000	0.0000000E+000	0.0000000E+000	6.6563644E+001	0.0000000E+000	0.0000000E+000	0.0000000E+000	-6.6563644E+001	0.0000000E+000	0.0000000E+000	0.0000000E+000	-2.3436356E+001	0.0000000E+000	0.0000000E+000	0.0000000E+000	2.3436356E+001	2.3068466E+000	6.6563644E+001	1.625040155607793E-005	2.1033096E-005	3.7218606E+003
1.4685898E+003	2.5318103E+000	1.1368040E+000	2.7753174E+000	-2.4180479E+001	7.611964708223240E+000	2.7979192E-001	7.7726588E-002	9.5330971E+001	1.5994840E+001	1.000000000000000E+000	9	5.2053519E-003	1.8755879E-003	0	1.266908331476774E-004	3.2870463E-001	1.4759113E-001	3.6031914E-001	2.4180479E+001	1.5994841E+004	3.5622586E+004	3.9048734E+004	-6.5819519E+001	0.0000000E+000	0.0000000E+000	0.0000000E+000	6.5819519E+001	0.0000000E+000	0.0000000E+000	0.0000000E+000	-6.5819519E+001	0.0000000E+000	0.0000000E+000	0.0000000E+000	-2.4180479E+001	0.0000000E+000	0.0000000E+000	0.0000000E+000	2.4180479E+001	2.2271299E+000	6.5819519E+001	1.113794159975643E-005	2.1747272E-005	3.5996938E+003
1.0003202E+003	2.7714772E+000	1.3195660E+000	3.0695832E+000	-2.5460226E+001	8.081701663882995E+000	2.7978605E-001	7.6832481E-002	1.2057297E+002	2.2281960E+001	1.000000000000000E+000	9	5.1223650E-003	1.6687494E-003	0	1.345273259965858E-004	2.9413894E-001	1.4004652E-001	3.2577714E-001	2.5460226E+001	2.2281963E+004	4.6798680E+004	5.1832445E+004	-6.4539772E+001	0.0000000E+000	0.0000000E+000	0.0000000E+000	6.4539772E+001	0.0000000E+000	0.0000000E+000	0.0000000E+000	-6.4539772E+001	0.0000000E+000	0.0000000E+000	0.0000000E+000	-2.5460226E+001	0.0000000E+000	0.0000000E+000	0.0000000E+000	2.5460226E+001	2.1002946E+000	6.4539772E+001	7.836492848908356E-006	2.1496657E-005	3.6415073E+003
6.8108978E+002	3.0748322E+000	1.5440828E+000	3.4407535E+000	-2.6664347E+001	8.801446151366690E+000	2.7979112E-001	-2.4210757E-003	1.5133704E+002	3.0477493E+001	1.000000000000000E+000	10	5.0719292E-003	1.4740751E-003	0	1.397446207074811E-004	2.5972530E-001	1.3042578E-001	2.9063401E-001	2.6664347E+001	3.0477492E+004	6.0691809E+004	6.7914453E+004	-6.3335655E+001	0.0000000E+000	0.0000000E+000	0.0000000E+000	6.3335655E+001	0.0000000E+000	0.0000000E+000	0.0000000E+000	-6.3335655E+001	0.0000000E+000	0.0000000E+000	0.0000000E+000	-2.6664347E+001	0.0000000E+000	0.0000000E+000	0.0000000E+000	2.6664347E+001	1.9913648E+000	6.3335655E+001	5.217294710895269E-006	-6.7739546E-007	1.1556480E+005
4.6396069E+002	3.4132197E+000	1.8337622E+000	3.8746293E+000	-2.8247046E+001	9.270221640268574E+000	2.7979851E-001	-1.6607834E-003	1.8706645E+002	4.1900734E+001	1.000000000000000E+000	10	4.9844421E-003	1.2864308E-003	0	1.394839203267475E-004	2.2735469E-001	1.2214698E-001	2.5808921E-001	2.8247046E+001	4.1900734E+004	7.7990695E+004	8.8533727E+004	-6.1752953E+001	0.0000000E+000	0.0000000E+000	0.0000000E+000	6.1752953E+001	0.0000000E+000	0.0000000E+000	0.0000000E+000	-6.1752953E+001	0.0000000E+000	0.0000000E+000	0.0000000E+000	-2.8247046E+001	0.0000000E+000	0.0000000E+000	0.0000000E+000	2.8247046E+001	1.8613209E+000	6.1752953E+001	-2.607003807336076E-007	-4.6468472E-007	1.6847381E+005
3.1631589E+002	3.8499515E+000	2.1861489E+000	4.4273438E+000	-2.9589558E+001	9.736926275829319E+000	2.7980033E-001	-1.6291061E-003	2.3015446E+002	5.6116730E+001	1.000000000000000E+000	10	4.9247174E-003	1.1123413E-003	0	1.385532027808173E-004	1.9641232E-001	1.1153039E-001	2.2586906E-001	2.9589558E+001	5.6116730E+004	9.8825242E+004	1.1364645E+005	-6.0410442E+001	0.0000000E+000	0.0000000E+000	0.0000000E+000	6.0410442E+001	0.0000000E+000	0.0000000E+000	0.0000000E+000	-6.0410442E+001	0.0000000E+000	0.0000000E+000	0.0000000E+000	-2.9589558E+001	0.0000000E+000	0.0000000E+000	0.0000000E+000	2.9589558E+001	1.7610656E+000	6.0410446E+001	-9.307175459301233E-007	-4.5582442E-007	1.7175083E+005
2.1534457E+002	4.4262300E+000	2.5779901E+000	5.1222596E+000	-3.0218006E+001	1.020444597801543E+001	2.7978393E-001	-1.8210453E-003	2.8668500E+002	7.2617996E+001	1.000000000000000E+000	10	4.8824786E-003	9.5318846E-004	0	1.376946167056578E-004	1.6869834E-001	9.8255768E-002	1.9522634E-001	3.0218006E+001	7.2617992E+004	1.2468006E+005	1.4428614E+005	-5.9781994E+001	0.0000000E+000	0.0000000E+000	0.0000000E+000	5.9781994E+001	0.0000000E+000	0.0000000E+000	0.0000000E+000	-5.9781994E+001	0.0000000E+000	0.0000000E+000	0.0000000E+000	-3.0218006E+001	0.0000000E+000	0.0000000E+000	0.0000000E+000	3.0218006E+001	1.7169306E+000	5.9781998E+001	-8.585860751595244E-007	-5.0949922E-007	1.5363920E+005
1.4673740E+002	5.1629562E+000	2.9735444E+000	5.9580269E+000	-2.9939287E+001	1.066737293332699E+001	2.7979639E-001	-2.6596133E-003	3.6475806E+002	9.0854996E+001	1.000000000000000E+000	10	4.8503978E-003	8.1409467E-004	0	1.379105653454963E-004	1.4544323E-001	8.3766326E-002	1.6784079E-001	2.9939287E+001	9.0854984E+004	1.5775127E+005	1.8204420E+005	-6.0060715E+001	0.0000000E+000	0.0000000E+000	0.0000000E+000	6.0060715E+001	0.0000000E+000	0.0000000E+000	0.0000000E+000	-6.0060715E+001	0.0000000E+000	0.0000000E+000	0.0000000E+000	-2.9939287E+001	0.0000000E+000	0.0000000E+000	0.0000000E+000	2.9939287E+001	1.7362970E+000	6.0060715E+001	2.159486398385277E-007	-7.4415021E-007	1.0520191E+005
1.0003201E+002	6.0578971E+000	3.2698610E+000	6.8840475E+000	-2.8358768E+001	1.113570447560778E+001	2.7979660E-001	-1.8806875E-003	4.8657730E+002	1.0977987E+002	1.000000000000000E+000	10	4.8243711E-003	7.0080446E-004	0	1.384605255041420E-004	1.2783040E-001	6.8998806E-002	1.4526337E-001	2.8358768E+001	1.0977987E+005	2.0338331E+005	2.3111986E+005	-6.1641232E+001	0.0000000E+000	0.0000000E+000	0.0000000E+000	6.1641232E+001	0.0000000E+000	0.0000000E+000	0.0000000E+000	-6.1641232E+001	0.0000000E+000	0.0000000E+000	0.0000000E+000	-2.8358768E+001	0.0000000E+000	0.0000000E+000	0.0000000E+000	2.8358768E+001	1.8526467E+000	6.1641235E+001	5.499601586456766E-007	-5.2620999E-007	1.4877356E+005
6.8103981E+001	7.0889816E+000	3.4150121E+000	7.8686700E+000	-2.5721754E+001	1.161430041826679E+001	2.7979407E-001	-7.9242140E-004	6.8431390E+002	1.2889534E+002	1.000000000000000E+000	10	4.8196688E-003	6.1251380E-004	0	1.389142664738077E-004	1.1449359E-001	5.5155594E-002	1.2708628E-001	2.5721754E+001	1.2889534E+005	2.6756469E+005	2.9699306E+005	-6.4278244E+001	0.0000000E+000	0.0000000E+000	0.0000000E+000	6.4278244E+001	0.0000000E+000	0.0000000E+000	0.0000000E+000	-6.4278244E+001	0.0000000E+000	0.0000000E+000	0.0000000E+000	-2.5721754E+001	0.0000000E+000	0.0000000E+000	0.0000000E+000	2.5721754E+001	2.0758290E+000	6.4278244E+001	4.537409696656741E-007	-2.2171481E-007	3.5308747E+005
4.6441547E+001	8.1250277E+000	3.3773997E+000	8.7990284E+000	-2.2571608E+001	1.206952417324646E+001	2.7979606E-001	-2.1639375E-003	1.0146844E+003	1.4949493E+002	1.000000000000000E+000	10	4.8140548E-003	5.4711208E-004	0	1.390180435028904E-004	1.0494347E-001	4.3622747E-002	1.1364891E-001	2.2571608E+001	1.4949495E+005	3.5964072E+005	3.8947425E+005	-6.7428391E+001	0.0000000E+000	0.0000000E+000	0.0000000E+000	6.7428391E+001	0.0000000E+000	0.0000000E+000	0.0000000E+000	-6.7428391E+001	0.0000000E+000	0.0000000E+000	0.0000000E+000	-2.2571608E+001	0.0000000E+000	0.0000000E+000	0.0000000E+000	2.2571608E+001	2.4057052E+000	6.7428391E+001	1.037770290826740E-007	-6.0546120E-007	1.2929951E+005
3.1629555E+001	9.0763140E+000	3.1661680E+000	9.6127052E+000	-1.9230740E+001	1.251543675441644E+001	2.7977791E-001	-3.2559310E-003	1.5892532E+003	1.7241289E+002	1.000000000000000E+000	10	4.8090015E-003	5.0027558E-004	0	1.384224397747263E-004	9.8224148E-002	3.4264367E-002	1.0402898E-001	1.9230740E+001	1.7241292E+005	4.9424844E+005	5.2345747E+005	-7.0769257E+001	0.0000000E+000	0.0000000E+000	0.0000000E+000	7.0769257E+001	0.0000000E+000	0.0000000E+000	0.0000000E+000	-7.0769257E+001	0.0000000E+000	0.0000000E+000	0.0000000E+000	-1.9230740E+001	0.0000000E+000	0.0000000E+000	0.0000000E+000	1.9230740E+001	2.8666558E+000	7.0769257E+001	-5.956037281640498E-007	-9.1093756E-007	8.5928703E+004
2.1551722E+001	9.8579102E+000	2.8701041E+000	1.0267224E+001	-1.6232777E+001	1.295436458862969E+001	2.7979249E-001	-4.5640892E-003	2.5730042E+003	2.0106186E+002	1.000000000000000E+000	10	4.7914633E-003	4.6667561E-004	0	1.384923501780031E-004	9.3514457E-002	2.7226482E-002	9.7397305E-002	1.6232777E+001	2.0106184E+005	6.9058475E+005	7.1925875E+005	-7.3767227E+001	0.0000000E+000	0.0000000E+000	0.0000000E+000	7.3767227E+001	0.0000000E+000	0.0000000E+000	0.0000000E+000	-7.3767227E+001	0.0000000E+000	0.0000000E+000	0.0000000E+000	-1.6232777E+001	0.0000000E+000	0.0000000E+000	0.0000000E+000	1.6232777E+001	3.4346874E+000	7.3767227E+001	6.991040327680243E-008	-1.2769979E-006	6.1303027E+004
1.4685154E+001	1.0610435E+001	2.5370507E+000	1.0909534E+001	-1.3447455E+001	1.343204421130940E+001	2.7978274E-001	-2.1043103E-003	4.2718154E+003	2.3102466E+002	1.000000000000000E+000	10	4.8114476E-003	4.4103141E-004	0	1.389936000650636E-004	8.9149877E-002	2.1316541E-002	9.1662943E-002	1.3447455E+001	2.3102467E+005	9.6618956E+005	9.9342575E+005	-7.6552544E+001	0.0000000E+000	0.0000000E+000	0.0000000E+000	7.6552544E+001	0.0000000E+000	0.0000000E+000	0.0000000E+000	-7.6552544E+001	0.0000000E+000	0.0000000E+000	0.0000000E+000	-1.3447455E+001	0.0000000E+000	0.0000000E+000	0.0000000E+000	1.3447455E+001	4.1821923E+000	7.6552544E+001	5.012498870605076E-007	-5.8874969E-007	1.3295698E+005
