EC-Lab ASCII FILE
Nb header lines : 64                          

Potentio Electrochemical Impedance Spectroscopy

Run on channel : 3 (SN 65921)
User : 
CE vs. WE compliance from -10 V to 10 V
Electrode connection : standard
Potential control : Ewe
Ewe ctrl range : min = -10.00 V, max = 10.00 V
Safety Limits :
	Do not start on E overload
Acquisition started on : 09/04/2025 09:44:33.410
Technique started on : 09/04/2025 09:44:35.393
Loaded Setting File :  C:\Users\Celltest\OneDrive - store-dot.com\Documents\EC-Lab\Data\Gyutae\R270\17154_C02.mpr
Saved on :
	File : 17155_C03.mpr
	Directory : C:\Users\Celltest\OneDrive - store-dot.com\Documents\EC-Lab\Data\Gyutae\R270\
	Host : 169.254.61.224
Device : VMP-3e (SN .003165)
Address : USB
EC-LAB for windows v11.62 (software)
Internet server v27.00 (firmware)
Command interpretor v12.03 (firmware)
Electrode material : 
Initial state : 
Electrolyte : 
Comments : 
Electrode surface area : 0.001 cm²
Characteristic mass : 0.001 g
Equivalent Weight : 0.000 g/eq.
Density : 0.000 g/cm3
Volume (V) : 0.001 cm³
Cycle Definition : Charge/Discharge alternance
Mode                Single sine         
E (V)               0.0000              
vs.                 Eoc                 
tE (h:m:s)          0:00:0.0000         
record              0                   
dI                  0.000               
unit dI             mA                  
dt (s)              0.000               
fi                  100.000             
unit fi             kHz                 
ff                  10.000              
unit ff             mHz                 
Nd                  6                   
Points              per decade          
spacing             Logarithmic         
Va (mV)             5.0                 
pw                  0.10                
Na                  2                   
corr                0                   
E range min (V)     -10.000             
E range max (V)     10.000              
I Range             Auto                
Bandwidth           5                   
nc cycles           0                   
goto Ns'            0                   
nr cycles           0                   
inc. cycle          0                   

freq/Hz	Re(Z)/Ohm	-Im(Z)/Ohm	|Z|/Ohm	Phase(Z)/deg	time/s	<Ewe>/V	<I>/mA	Cs/µF	Cp/µF	cycle number	I Range	|Ewe|/V	|I|/A	Ns	(Q-Qo)/mA.h	Re(Y)/Ohm-1	Im(Y)/Ohm-1	|Y|/Ohm-1	Phase(Y)/deg	Re(C)/nF	Im(C)/nF	|C|/nF	Phase(C)/deg	Re(M)	Im(M)	|M|	Phase(M)/deg	Re(Permittivity)	Im(Permittivity)	|Permittivity|	Phase(Permittivity)/deg	Re(Resistivity)/Ohm.cm	Im(Resistivity)/Ohm.cm	|Resistivity|/Ohm.cm	Phase(Resistivity)/deg	Re(Conductivity)/mS/cm	Im(Conductivity)/mS/cm	|Conductivity|/mS/cm	Phase(Conductivity)/deg	Tan(Delta)	Loss Angle(Delta)/deg	dq/mA.h	Pwe/W	Rwe/Ohm	
1.0000371E+005	3.6439695E+000	2.2588511E+000	4.2872977E+000	-3.1794254E+001	1.983474654174643E+000	2.9666150E-001	-3.1642042E-002	7.0455742E-001	1.9557993E-001	1.000000000000000E+000	10	5.2974452E-003	1.2356141E-003	0	-7.733494471318814E-006	1.9824739E-001	1.2289106E-001	2.3324716E-001	3.1794254E+001	1.9557994E+002	3.1550879E+002	3.7121060E+002	-5.8205746E+001	0.0000000E+000	0.0000000E+000	0.0000000E+000	5.8205746E+001	0.0000000E+000	0.0000000E+000	0.0000000E+000	-5.8205746E+001	0.0000000E+000	0.0000000E+000	0.0000000E+000	-3.1794254E+001	0.0000000E+000	0.0000000E+000	0.0000000E+000	3.1794254E+001	1.6131960E+000	5.8205750E+001	-7.733494471318814E-006	-9.3869758E-006	9.3755488E+003
6.8132047E+004	1.8651620E+000	1.3799555E+000	2.3201523E+000	-3.6496193E+001	2.733491249819053E+000	2.9668081E-001	2.4607332E-002	1.6927921E+000	5.9882623E-001	1.000000000000000E+000	9	4.6530440E-003	2.0054907E-003	0	-7.670034750442330E-006	3.4648433E-001	2.5634930E-001	4.3100619E-001	3.6496193E+001	5.9882623E+002	8.0937964E+002	1.0068209E+003	-5.3503807E+001	0.0000000E+000	0.0000000E+000	0.0000000E+000	5.3503807E+001	0.0000000E+000	0.0000000E+000	0.0000000E+000	-5.3503807E+001	0.0000000E+000	0.0000000E+000	0.0000000E+000	-3.6496193E+001	0.0000000E+000	0.0000000E+000	0.0000000E+000	3.6496193E+001	1.3516102E+000	5.3503807E+001	6.345972087648333E-008	7.3005231E-006	1.2056602E+004
4.6420355E+004	1.5749182E+000	1.8543304E+000	2.4328806E+000	-4.9658123E+001	3.593490143975941E+000	2.9668498E-001	8.9253923E-003	1.8489474E+000	1.0741309E+000	1.000000000000000E+000	9	5.0763399E-003	2.0865554E-003	0	-3.653251895118349E-006	2.6608253E-001	3.1328925E-001	4.1103536E-001	4.9658123E+001	1.0741309E+003	9.1227972E+002	1.4092592E+003	-4.0341877E+001	0.0000000E+000	0.0000000E+000	0.0000000E+000	4.0341877E+001	0.0000000E+000	0.0000000E+000	0.0000000E+000	-4.0341877E+001	0.0000000E+000	0.0000000E+000	0.0000000E+000	-4.9658123E+001	0.0000000E+000	0.0000000E+000	0.0000000E+000	4.9658123E+001	8.4931904E-001	4.0341873E+001	4.016782855323981E-006	2.6480297E-006	3.3240555E+004
3.1621139E+004	3.1811812E+000	1.4784017E+000	3.5079317E+000	-2.4925875E+001	4.030496244755341E+000	2.9659650E-001	3.7415596E-003	3.4044755E+000	6.0469007E-001	1.000000000000000E+000	9	5.1668314E-003	1.4728997E-003	0	-2.838303377166287E-006	2.5851524E-001	1.2014071E-001	2.8506827E-001	2.4925875E+001	6.0469000E+002	1.3011542E+003	1.4348004E+003	-6.5074127E+001	0.0000000E+000	0.0000000E+000	0.0000000E+000	6.5074127E+001	0.0000000E+000	0.0000000E+000	0.0000000E+000	-6.5074127E+001	0.0000000E+000	0.0000000E+000	0.0000000E+000	-2.4925875E+001	0.0000000E+000	0.0000000E+000	0.0000000E+000	2.4925875E+001	2.1517706E+000	6.5074127E+001	8.149485179520626E-007	1.1097335E-006	7.9270820E+004
2.1544684E+004	3.5203507E+000	1.1112576E+000	3.6915798E+000	-1.7519173E+001	4.467493225500220E+000	2.9659468E-001	6.2775174E-003	6.6476064E+000	6.0237956E-001	1.000000000000000E+000	9	4.8400410E-003	1.3111029E-003	0	-4.832697550041808E-007	2.5832197E-001	8.1543654E-002	2.7088672E-001	1.7519173E+001	6.0237952E+002	1.9082770E+003	2.0010952E+003	-7.2480827E+001	0.0000000E+000	0.0000000E+000	0.0000000E+000	7.2480827E+001	0.0000000E+000	0.0000000E+000	0.0000000E+000	-7.2480827E+001	0.0000000E+000	0.0000000E+000	0.0000000E+000	-1.7519173E+001	0.0000000E+000	0.0000000E+000	0.0000000E+000	1.7519173E+001	3.1678982E+000	7.2480827E+001	2.355033622162106E-006	1.8618782E-006	4.7247129E+004
1.4678594E+004	3.7498574E+000	1.1129916E+000	3.9115446E+000	-1.6531364E+001	4.763485746254446E+000	2.9660550E-001	7.6760259E-003	9.7419024E+000	7.8873473E-001	1.000000000000000E+000	9	5.1929033E-003	1.3275838E-003	0	1.603277093510971E-006	2.4508581E-001	7.2743684E-002	2.5565347E-001	1.6531364E+001	7.8873480E+002	2.6573813E+003	2.7719629E+003	-7.3468636E+001	0.0000000E+000	0.0000000E+000	0.0000000E+000	7.3468636E+001	0.0000000E+000	0.0000000E+000	0.0000000E+000	-7.3468636E+001	0.0000000E+000	0.0000000E+000	0.0000000E+000	-1.6531364E+001	0.0000000E+000	0.0000000E+000	0.0000000E+000	1.6531364E+001	3.3691697E+000	7.3468636E+001	2.086546848515152E-006	2.2767515E-006	3.8640504E+004
1.0002226E+004	3.9705780E+000	1.2732044E+000	4.1697168E+000	-1.7778954E+001	5.059479280287633E+000	2.9661313E-001	7.3403851E-003	1.2497563E+001	1.1652216E+000	1.000000000000000E+000	9	5.3497977E-003	1.2830122E-003	0	1.482650710153393E-006	2.2837082E-001	7.3229328E-002	2.3982444E-001	1.7778954E+001	1.1652216E+003	3.6338257E+003	3.8160752E+003	-7.2221046E+001	0.0000000E+000	0.0000000E+000	0.0000000E+000	7.2221046E+001	0.0000000E+000	0.0000000E+000	0.0000000E+000	-7.2221046E+001	0.0000000E+000	0.0000000E+000	0.0000000E+000	-1.7778954E+001	0.0000000E+000	0.0000000E+000	0.0000000E+000	1.7778954E+001	3.1185706E+000	7.2221046E+001	-1.206263833575780E-007	2.1772546E-006	4.0408387E+004
6.8110674E+003	4.0989895E+000	1.7029271E+000	4.4386568E+000	-2.2560465E+001	5.646509974816581E+000	2.9662609E-001	-2.4999039E-002	1.3721731E+001	2.0197513E+000	1.000000000000000E+000	10	5.3752167E-003	1.2110007E-003	0	3.625319129852060E-007	2.0805284E-001	8.6435653E-002	2.2529338E-001	2.2560465E+001	2.0197510E+003	4.8615933E+003	5.2644546E+003	-6.7439537E+001	0.0000000E+000	0.0000000E+000	0.0000000E+000	6.7439537E+001	0.0000000E+000	0.0000000E+000	0.0000000E+000	-6.7439537E+001	0.0000000E+000	0.0000000E+000	0.0000000E+000	-2.2560465E+001	0.0000000E+000	0.0000000E+000	0.0000000E+000	2.2560465E+001	2.4070258E+000	6.7439537E+001	-1.120118797168187E-006	-7.4153672E-006	1.1865500E+004
4.6414854E+003	4.3595986E+000	1.9352924E+000	4.7698488E+000	-2.3937164E+001	6.340698247855471E+000	2.9666469E-001	-9.5185880E-003	1.7718075E+001	2.9167588E+000	1.000000000000000E+000	10	5.1056864E-003	1.0704084E-003	0	-1.292668305288519E-006	1.9161843E-001	8.5062340E-002	2.0965025E-001	2.3937164E+001	2.9167588E+003	6.5705308E+003	7.1888354E+003	-6.6062836E+001	0.0000000E+000	0.0000000E+000	0.0000000E+000	6.6062836E+001	0.0000000E+000	0.0000000E+000	0.0000000E+000	-6.6062836E+001	0.0000000E+000	0.0000000E+000	0.0000000E+000	-2.3937164E+001	0.0000000E+000	0.0000000E+000	0.0000000E+000	2.3937164E+001	2.2526822E+000	6.6062836E+001	-1.655200218273725E-006	-2.8238289E-006	3.1166879E+004
3.1610117E+003	4.8861489E+000	1.8013098E+000	5.2076068E+000	-2.0236729E+001	6.807688110035087E+000	2.9667124E-001	-8.7001044E-003	2.7951530E+001	3.3443065E+000	1.000000000000000E+000	10	4.9502733E-003	9.5058512E-004	0	-2.246013481165088E-006	1.8017326E-001	6.6422015E-002	1.9202679E-001	2.0236729E+001	3.3443057E+003	9.0716094E+003	9.6684268E+003	-6.9763275E+001	0.0000000E+000	0.0000000E+000	0.0000000E+000	6.9763275E+001	0.0000000E+000	0.0000000E+000	0.0000000E+000	-6.9763275E+001	0.0000000E+000	0.0000000E+000	0.0000000E+000	-2.0236729E+001	0.0000000E+000	0.0000000E+000	0.0000000E+000	2.0236729E+001	2.7125533E+000	6.9763275E+001	-9.533451758765697E-007	-2.5810707E-006	3.4099734E+004
2.1556899E+003	5.2984347E+000	1.9826156E+000	5.6572232E+000	-2.0515293E+001	7.274674025553395E+000	2.9666927E-001	-8.7168813E-003	3.7238770E+001	4.5736794E+000	1.000000000000000E+000	10	4.8843380E-003	8.6338079E-004	0	-3.162153086857870E-006	1.6555448E-001	6.1948653E-002	1.7676516E-001	2.0515293E+001	4.5736787E+003	1.2222915E+004	1.3050602E+004	-6.9484711E+001	0.0000000E+000	0.0000000E+000	0.0000000E+000	6.9484711E+001	0.0000000E+000	0.0000000E+000	0.0000000E+000	-6.9484711E+001	0.0000000E+000	0.0000000E+000	0.0000000E+000	-2.0515293E+001	0.0000000E+000	0.0000000E+000	0.0000000E+000	2.0515293E+001	2.6724467E+000	6.9484711E+001	-9.161396056927819E-007	-2.5860309E-006	3.4033879E+004
1.4685898E+003	5.7672596E+000	2.2196558E+000	6.1796565E+000	-2.1050310E+001	7.741929274401627E+000	2.9667827E-001	-7.8350091E-003	4.8824074E+001	6.2990723E+000	1.000000000000000E+000	10	4.8436117E-003	7.8379951E-004	0	-4.744409838967840E-006	1.5102221E-001	5.8124196E-002	1.6182129E-001	2.1050310E+001	6.2990713E+003	1.6366674E+004	1.7536998E+004	-6.8949692E+001	0.0000000E+000	0.0000000E+000	0.0000000E+000	6.8949692E+001	0.0000000E+000	0.0000000E+000	0.0000000E+000	-6.8949692E+001	0.0000000E+000	0.0000000E+000	0.0000000E+000	-2.1050310E+001	0.0000000E+000	0.0000000E+000	0.0000000E+000	2.1050310E+001	2.5982676E+000	6.8949692E+001	-1.582256752109970E-006	-2.3244770E-006	3.7865723E+004
1.0003202E+003	6.2884698E+000	2.4957201E+000	6.7656093E+000	-2.1646763E+001	8.210669590007456E+000	2.9666901E-001	-8.1184078E-003	6.3750736E+001	8.6748734E+000	1.000000000000000E+000	10	4.8023956E-003	7.0982456E-004	0	-5.274511972827087E-006	1.3738242E-001	5.4523289E-002	1.4780635E-001	2.1646763E+001	8.6748721E+003	2.1858092E+004	2.3516580E+004	-6.8353241E+001	0.0000000E+000	0.0000000E+000	0.0000000E+000	6.8353241E+001	0.0000000E+000	0.0000000E+000	0.0000000E+000	-6.8353241E+001	0.0000000E+000	0.0000000E+000	0.0000000E+000	-2.1646763E+001	0.0000000E+000	0.0000000E+000	0.0000000E+000	2.1646763E+001	2.5197015E+000	6.8353241E+001	-5.301021338592466E-007	-2.4084800E-006	3.6542758E+004
6.8108978E+002	6.9004102E+000	2.7892237E+000	7.4428105E+000	-2.2009115E+001	8.676426092075417E+000	2.9666886E-001	-7.9431515E-003	8.3778481E+001	1.1765902E+001	1.000000000000000E+000	10	4.7797370E-003	6.4219517E-004	0	-6.336570111811549E-006	1.2456641E-001	5.0351150E-002	1.3435784E-001	2.2009115E+001	1.1765902E+004	2.9108293E+004	3.1396324E+004	-6.7990883E+001	0.0000000E+000	0.0000000E+000	0.0000000E+000	6.7990883E+001	0.0000000E+000	0.0000000E+000	0.0000000E+000	-6.7990883E+001	0.0000000E+000	0.0000000E+000	0.0000000E+000	-2.2009115E+001	0.0000000E+000	0.0000000E+000	0.0000000E+000	2.2009115E+001	2.4739537E+000	6.7990883E+001	-1.062058138984462E-006	-2.3564858E-006	3.7349012E+004
4.6396069E+002	7.5579796E+000	3.1463027E+000	8.1867132E+000	-2.2601419E+001	9.145180647697998E+000	2.9667908E-001	-7.2365277E-003	1.0902809E+002	1.6103500E+001	1.000000000000000E+000	10	4.7584954E-003	5.8124610E-004	0	-7.117007914848930E-006	1.1276817E-001	4.6944138E-002	1.2214914E-001	2.2601419E+001	1.6103500E+004	3.8683477E+004	4.1901480E+004	-6.7398582E+001	0.0000000E+000	0.0000000E+000	0.0000000E+000	6.7398582E+001	0.0000000E+000	0.0000000E+000	0.0000000E+000	-6.7398582E+001	0.0000000E+000	0.0000000E+000	0.0000000E+000	-2.2601419E+001	0.0000000E+000	0.0000000E+000	0.0000000E+000	2.2601419E+001	2.4021780E+000	6.7398582E+001	-7.804378030373806E-007	-2.1469264E-006	4.0997434E+004
3.1631589E+002	8.3407373E+000	3.5612948E+000	9.0692186E+000	-2.3121319E+001	9.611938483227277E+000	2.9667196E-001	-7.9823099E-003	1.4128342E+002	2.1785488E+001	1.000000000000000E+000	10	4.7557652E-003	5.2438531E-004	0	-7.777858367063648E-006	1.0140625E-001	4.3298032E-002	1.1026308E-001	2.3121319E+001	2.1785490E+004	5.1022746E+004	5.5479078E+004	-6.6878677E+001	0.0000000E+000	0.0000000E+000	0.0000000E+000	6.6878677E+001	0.0000000E+000	0.0000000E+000	0.0000000E+000	-6.6878677E+001	0.0000000E+000	0.0000000E+000	0.0000000E+000	-2.3121319E+001	0.0000000E+000	0.0000000E+000	0.0000000E+000	2.3121319E+001	2.3420520E+000	6.6878677E+001	-6.608504522147179E-007	-2.3681275E-006	3.7166180E+004
2.1534457E+002	9.2188454E+000	4.0138869E+000	1.0054770E+001	-2.3528318E+001	1.007945685207960E+001	2.9667985E-001	-7.5255204E-003	1.8412852E+002	2.9343176E+001	1.000000000000000E+000	10	4.7436389E-003	4.7177999E-004	0	-8.479819752159528E-006	9.1186866E-002	3.9702777E-002	9.9455290E-002	2.3528318E+001	2.9343176E+004	6.7393570E+004	7.3504523E+004	-6.6471680E+001	0.0000000E+000	0.0000000E+000	0.0000000E+000	6.6471680E+001	0.0000000E+000	0.0000000E+000	0.0000000E+000	-6.6471680E+001	0.0000000E+000	0.0000000E+000	0.0000000E+000	-2.3528318E+001	0.0000000E+000	0.0000000E+000	0.0000000E+000	2.3528318E+001	2.2967377E+000	6.6471680E+001	-7.019613850958801E-007	-2.2326703E-006	3.9423168E+004
1.4673740E+002	1.0274419E+001	4.5130205E+000	1.1221900E+001	-2.3713400E+001	1.054238828740199E+001	2.9667541E-001	-8.2004508E-003	2.4033223E+002	3.8869938E+001	1.000000000000000E+000	10	4.7428622E-003	4.2264341E-004	0	-9.742847776379171E-006	8.1587657E-002	3.5837241E-002	8.9111470E-002	2.3713400E+001	3.8869945E+004	8.8491961E+004	9.6652469E+004	-6.6286598E+001	0.0000000E+000	0.0000000E+000	0.0000000E+000	6.6286598E+001	0.0000000E+000	0.0000000E+000	0.0000000E+000	-6.6286598E+001	0.0000000E+000	0.0000000E+000	0.0000000E+000	-2.3713400E+001	0.0000000E+000	0.0000000E+000	0.0000000E+000	2.3713400E+001	2.2766168E+000	6.6286598E+001	-1.263028024219643E-006	-2.4328722E-006	3.6177941E+004
1.0003201E+002	1.1514808E+001	4.9585924E+000	1.2537083E+001	-2.3298038E+001	1.101069177633326E+001	2.9668069E-001	-7.4770474E-003	3.2086530E+002	5.0193394E+001	1.000000000000000E+000	10	4.7426592E-003	3.7829048E-004	0	-1.105608124222878E-005	7.3259465E-002	3.1547535E-002	7.9763375E-002	2.3298038E+001	5.0193387E+004	1.1655874E+005	1.2690673E+005	-6.6701965E+001	0.0000000E+000	0.0000000E+000	0.0000000E+000	6.6701965E+001	0.0000000E+000	0.0000000E+000	0.0000000E+000	-6.6701965E+001	0.0000000E+000	0.0000000E+000	0.0000000E+000	-2.3298038E+001	0.0000000E+000	0.0000000E+000	0.0000000E+000	2.3298038E+001	2.3221929E+000	6.6701965E+001	-1.313233465849610E-006	-2.2182955E-006	3.9678855E+004
6.8103981E+001	1.2960437E+001	5.3225732E+000	1.4010807E+001	-2.2326902E+001	1.148934603904490E+001	2.9667911E-001	-6.6865250E-003	4.3906213E+002	6.3364056E+001	1.000000000000000E+000	10	4.7372961E-003	3.3811730E-004	0	-1.217264648027615E-005	6.6022709E-002	2.7114108E-002	7.1373478E-002	2.2326902E+001	6.3364063E+004	1.5429114E+005	1.6679556E+005	-6.7673096E+001	0.0000000E+000	0.0000000E+000	0.0000000E+000	6.7673096E+001	0.0000000E+000	0.0000000E+000	0.0000000E+000	-6.7673096E+001	0.0000000E+000	0.0000000E+000	0.0000000E+000	-2.2326902E+001	0.0000000E+000	0.0000000E+000	0.0000000E+000	2.2326902E+001	2.4349945E+000	6.7673096E+001	-1.116565238047366E-006	-1.9837523E-006	4.4369699E+004
4.6441547E+001	1.4477676E+001	5.5333748E+000	1.5499076E+001	-2.0916880E+001	1.194452419396839E+001	2.9666340E-001	-8.4633389E-003	6.1933179E+002	7.8939056E+001	1.000000000000000E+000	10	4.7357120E-003	3.0554802E-004	0	-1.342098315114628E-005	6.0268071E-002	2.3034485E-002	6.4519979E-002	2.0916880E+001	7.8939047E+004	2.0653834E+005	2.2110961E+005	-6.9083122E+001	0.0000000E+000	0.0000000E+000	0.0000000E+000	6.9083122E+001	0.0000000E+000	0.0000000E+000	0.0000000E+000	-6.9083122E+001	0.0000000E+000	0.0000000E+000	0.0000000E+000	-2.0916880E+001	0.0000000E+000	0.0000000E+000	0.0000000E+000	2.0916880E+001	2.6164279E+000	6.9083122E+001	-1.248336670870130E-006	-2.5107629E-006	3.5052762E+004
3.1629555E+001	1.6114433E+001	5.4996276E+000	1.7027063E+001	-1.8844044E+001	1.263543142678100E+001	2.9667887E-001	-1.2799360E-002	9.1494238E+002	9.5451073E+001	1.000000000000000E+000	11	4.7332644E-003	2.7798477E-004	0	-1.582589259298725E-005	5.5582177E-002	1.8969407E-002	5.8730032E-002	1.8844044E+001	9.5451039E+004	2.7968075E+005	2.9552025E+005	-7.1155960E+001	0.0000000E+000	0.0000000E+000	0.0000000E+000	7.1155960E+001	0.0000000E+000	0.0000000E+000	0.0000000E+000	-7.1155960E+001	0.0000000E+000	0.0000000E+000	0.0000000E+000	-1.8844044E+001	0.0000000E+000	0.0000000E+000	0.0000000E+000	1.8844044E+001	2.9300954E+000	7.1155960E+001	-2.404909441840977E-006	-3.7972995E-006	2.3179195E+004
2.1551722E+001	1.7662161E+001	5.2950211E+000	1.8438795E+001	-1.6688448E+001	1.307436318098917E+001	2.9668611E-001	-1.2553618E-002	1.3946667E+003	1.1501137E+002	1.000000000000000E+000	11	4.7325320E-003	2.5666167E-004	0	-1.801627296804670E-005	5.1949188E-002	1.5574087E-002	5.4233480E-002	1.6688448E+001	1.1501134E+005	3.8363384E+005	4.0050284E+005	-7.3311554E+001	0.0000000E+000	0.0000000E+000	0.0000000E+000	7.3311554E+001	0.0000000E+000	0.0000000E+000	0.0000000E+000	-7.3311554E+001	0.0000000E+000	0.0000000E+000	0.0000000E+000	-1.6688448E+001	0.0000000E+000	0.0000000E+000	0.0000000E+000	1.6688448E+001	3.3356168E+000	7.3311554E+001	-2.190380375059451E-006	-3.7244843E-006	2.3633514E+004
1.4685154E+001	1.9055052E+001	4.9580774E+000	1.9689528E+001	-1.4584817E+001	1.355306779040257E+001	2.9668203E-001	-1.2362319E-002	2.1858899E+003	1.3860674E+002	1.000000000000000E+000	11	4.7318046E-003	2.4032088E-004	0	-1.937591198150605E-005	4.9151812E-002	1.2789181E-002	5.0788421E-002	1.4584817E+001	1.3860670E+005	5.3269806E+005	5.5043531E+005	-7.5415184E+001	0.0000000E+000	0.0000000E+000	0.0000000E+000	7.5415184E+001	0.0000000E+000	0.0000000E+000	0.0000000E+000	-7.5415184E+001	0.0000000E+000	0.0000000E+000	0.0000000E+000	-1.4584817E+001	0.0000000E+000	0.0000000E+000	0.0000000E+000	1.4584817E+001	3.8432341E+000	7.5415184E+001	-1.359639013459350E-006	-3.6676779E-006	2.3998898E+004
