EC-Lab ASCII FILE
Nb header lines : 63                          

Potentio Electrochemical Impedance Spectroscopy

Run on channel : 4 (SN 66756)
User : 
CE vs. WE compliance from -10 V to 10 V
Electrode connection : standard
Potential control : Ewe
Ewe ctrl range : min = -10.00 V, max = 10.00 V
Safety Limits :
	Do not start on E overload
Acquisition started on : 09/04/2025 09:44:47.877
Loaded Setting File :  C:\Users\Celltest\OneDrive - store-dot.com\Documents\EC-Lab\Data\Gyutae\R270\17155_C03.mpr
Saved on :
	File : 17156_C04.mpr
	Directory : C:\Users\Celltest\OneDrive - store-dot.com\Documents\EC-Lab\Data\Gyutae\R270\
	Host : 169.254.61.224
Device : VMP-3e (SN .003165)
Address : USB
EC-LAB for windows v11.62 (software)
Internet server v27.00 (firmware)
Command interpretor v12.03 (firmware)
Electrode material : 
Initial state : 
Electrolyte : 
Comments : 
Electrode surface area : 0.001 cm²
Characteristic mass : 0.001 g
Equivalent Weight : 0.000 g/eq.
Density : 0.000 g/cm3
Volume (V) : 0.001 cm³
Cycle Definition : Charge/Discharge alternance
Mode                Single sine         
E (V)               0.0000              
vs.                 Eoc                 
tE (h:m:s)          0:00:0.0000         
record              0                   
dI                  0.000               
unit dI             mA                  
dt (s)              0.000               
fi                  100.000             
unit fi             kHz                 
ff                  10.000              
unit ff             mHz                 
Nd                  6                   
Points              per decade          
spacing             Logarithmic         
Va (mV)             5.0                 
pw                  0.10                
Na                  2                   
corr                0                   
E range min (V)     -10.000             
E range max (V)     10.000              
I Range             Auto                
Bandwidth           5                   
nc cycles           0                   
goto Ns'            0                   
nr cycles           0                   
inc. cycle          0                   

freq/Hz	Re(Z)/Ohm	-Im(Z)/Ohm	|Z|/Ohm	Phase(Z)/deg	time/s	<Ewe>/V	<I>/mA	Cs/µF	Cp/µF	cycle number	I Range	|Ewe|/V	|I|/A	Ns	(Q-Qo)/mA.h	Re(Y)/Ohm-1	Im(Y)/Ohm-1	|Y|/Ohm-1	Phase(Y)/deg	Re(C)/nF	Im(C)/nF	|C|/nF	Phase(C)/deg	Re(M)	Im(M)	|M|	Phase(M)/deg	Re(Permittivity)	Im(Permittivity)	|Permittivity|	Phase(Permittivity)/deg	Re(Resistivity)/Ohm.cm	Im(Resistivity)/Ohm.cm	|Resistivity|/Ohm.cm	Phase(Resistivity)/deg	Re(Conductivity)/mS/cm	Im(Conductivity)/mS/cm	|Conductivity|/mS/cm	Phase(Conductivity)/deg	Tan(Delta)	Loss Angle(Delta)/deg	dq/mA.h	Pwe/W	Rwe/Ohm	
1.0000371E+005	3.1083541E+000	5.4419726E-001	3.1556325E+000	-9.9304543E+000	2.174500049935887E+000	2.9037380E-001	-8.5060485E-002	2.9244733E+000	8.6973615E-002	1.000000000000000E+000	9	4.5237485E-003	1.4335474E-003	0	-1.684899393717448E-005	3.1214589E-001	5.4649163E-002	3.1689367E-001	9.9304543E+000	8.6973587E+001	4.9677722E+002	5.0433322E+002	-8.0069550E+001	0.0000000E+000	0.0000000E+000	0.0000000E+000	8.0069550E+001	0.0000000E+000	0.0000000E+000	0.0000000E+000	-8.0069550E+001	0.0000000E+000	0.0000000E+000	0.0000000E+000	-9.9304543E+000	0.0000000E+000	0.0000000E+000	0.0000000E+000	9.9304543E+000	5.7118149E+000	8.0069550E+001	-1.684899393717448E-005	-2.4699337E-005	3.4137332E+003
6.8132047E+004	3.2445080E+000	5.9044635E-001	3.2977960E+000	-1.0314006E+001	2.752489010716090E+000	2.9038262E-001	-8.3549932E-002	3.9562910E+000	1.2682404E-001	1.000000000000000E+000	9	5.0452603E-003	1.5298885E-003	0	-3.067012895889477E-005	2.9833296E-001	5.4291628E-002	3.0323282E-001	1.0314006E+001	1.2682400E+002	6.9689917E+002	7.0834509E+002	-7.9685997E+001	0.0000000E+000	0.0000000E+000	0.0000000E+000	7.9685997E+001	0.0000000E+000	0.0000000E+000	0.0000000E+000	-7.9685997E+001	0.0000000E+000	0.0000000E+000	0.0000000E+000	-1.0314006E+001	0.0000000E+000	0.0000000E+000	0.0000000E+000	1.0314006E+001	5.4950089E+000	7.9685997E+001	-1.382113502172029E-005	-2.4261448E-005	3.4755579E+003
4.6420355E+004	3.3746421E+000	6.5350127E-001	3.4373353E+000	-1.0959703E+001	3.330476371484110E+000	2.9039386E-001	-7.9857506E-002	5.2464461E+000	1.8963318E-001	1.000000000000000E+000	9	5.0122924E-003	1.4581913E-003	0	-4.570893895434630E-005	2.8561693E-001	5.5309869E-002	2.9092303E-001	1.0959703E+001	1.8963315E+002	9.7925470E+002	9.9744696E+002	-7.9040298E+001	0.0000000E+000	0.0000000E+000	0.0000000E+000	7.9040298E+001	0.0000000E+000	0.0000000E+000	0.0000000E+000	-7.9040298E+001	0.0000000E+000	0.0000000E+000	0.0000000E+000	-1.0959703E+001	0.0000000E+000	0.0000000E+000	0.0000000E+000	1.0959703E+001	5.1639414E+000	7.9040298E+001	-1.503880999545153E-005	-2.3190129E-005	3.6364004E+003
3.1621139E+004	3.5191433E+000	7.2311026E-001	3.5926673E+000	-1.1611465E+001	3.767486365599325E+000	2.9040226E-001	-7.3778048E-002	6.9604630E+000	2.8197664E-001	1.000000000000000E+000	9	5.2152448E-003	1.4516358E-003	0	-5.164258528235587E-005	2.7264839E-001	5.6023534E-002	2.7834472E-001	1.1611465E+001	2.8197665E+002	1.3722889E+003	1.4009596E+003	-7.8388535E+001	0.0000000E+000	0.0000000E+000	0.0000000E+000	7.8388535E+001	0.0000000E+000	0.0000000E+000	0.0000000E+000	-7.8388535E+001	0.0000000E+000	0.0000000E+000	0.0000000E+000	-1.1611465E+001	0.0000000E+000	0.0000000E+000	0.0000000E+000	1.1611465E+001	4.8666759E+000	7.8388535E+001	-5.933646328009571E-006	-2.1425312E-005	3.9361609E+003
2.1544684E+004	3.6926191E+000	8.2040220E-001	3.7826571E+000	-1.2526150E+001	4.063478939671768E+000	2.9039329E-001	-7.7097513E-002	9.0043669E+000	4.2355800E-001	1.000000000000000E+000	9	4.8743277E-003	1.2885989E-003	0	-5.833303168582885E-005	2.5807178E-001	5.7336722E-002	2.6436442E-001	1.2526150E+001	4.2355814E+002	1.9064286E+003	1.9529136E+003	-7.7473846E+001	0.0000000E+000	0.0000000E+000	0.0000000E+000	7.7473846E+001	0.0000000E+000	0.0000000E+000	0.0000000E+000	-7.7473846E+001	0.0000000E+000	0.0000000E+000	0.0000000E+000	-1.2526150E+001	0.0000000E+000	0.0000000E+000	0.0000000E+000	1.2526150E+001	4.5009861E+000	7.7473846E+001	-6.690446403472983E-006	-2.2388600E-005	3.7665715E+003
1.4678594E+004	3.8889110E+000	9.4175422E-001	4.0013161E+000	-1.3612910E+001	4.359480793675175E+000	2.9039246E-001	-7.9036973E-002	1.1513254E+001	6.3777506E-001	1.000000000000000E+000	9	4.5831925E-003	1.1454213E-003	0	-6.386067200515470E-005	2.4289708E-001	5.8820926E-002	2.4991778E-001	1.3612910E+001	6.3777496E+002	2.6336497E+003	2.7097725E+003	-7.6387093E+001	0.0000000E+000	0.0000000E+000	0.0000000E+000	7.6387093E+001	0.0000000E+000	0.0000000E+000	0.0000000E+000	-7.6387093E+001	0.0000000E+000	0.0000000E+000	0.0000000E+000	-1.3612910E+001	0.0000000E+000	0.0000000E+000	0.0000000E+000	1.3612910E+001	4.1294332E+000	7.6387093E+001	-5.527640319325852E-006	-2.2951741E-005	3.6741343E+003
1.0002226E+004	4.0940280E+000	1.0307521E+000	4.2217903E+000	-1.4131634E+001	4.797486174531514E+000	2.9038879E-001	-7.7489138E-002	1.5437226E+001	9.2020458E-001	1.000000000000000E+000	9	4.9510710E-003	1.1727420E-003	0	-7.308176214695494E-005	2.2969814E-001	5.7831023E-002	2.3686634E-001	1.4131634E+001	9.2020477E+002	3.6549460E+003	3.7690061E+003	-7.5868362E+001	0.0000000E+000	0.0000000E+000	0.0000000E+000	7.5868362E+001	0.0000000E+000	0.0000000E+000	0.0000000E+000	-7.5868362E+001	0.0000000E+000	0.0000000E+000	0.0000000E+000	-1.4131634E+001	0.0000000E+000	0.0000000E+000	0.0000000E+000	1.4131634E+001	3.9718843E+000	7.5868362E+001	-9.221090141800232E-006	-2.2501978E-005	3.7474773E+003
6.8110674E+003	4.3435559E+000	1.1895021E+000	4.5034866E+000	-1.5315213E+001	5.384498229046585E+000	2.9051888E-001	-2.7566370E-002	1.9644444E+001	1.3704791E+000	1.000000000000000E+000	10	4.7798241E-003	1.0613608E-003	0	-7.682070210035373E-005	2.1416458E-001	5.8649924E-002	2.2205018E-001	1.5315213E+001	1.3704792E+003	5.0044063E+003	5.1886699E+003	-7.4684784E+001	0.0000000E+000	0.0000000E+000	0.0000000E+000	7.4684784E+001	0.0000000E+000	0.0000000E+000	0.0000000E+000	-7.4684784E+001	0.0000000E+000	0.0000000E+000	0.0000000E+000	-1.5315213E+001	0.0000000E+000	0.0000000E+000	0.0000000E+000	1.5315213E+001	3.6515749E+000	7.4684784E+001	-3.738939953398790E-006	-8.0085510E-006	1.0538888E+004
4.6414854E+003	4.6268053E+000	1.3586146E+000	4.8221531E+000	-1.6364342E+001	5.855668064818019E+000	2.9055586E-001	-1.7274812E-002	2.5238695E+001	2.0034449E+000	1.000000000000000E+000	10	4.8712096E-003	1.0101731E-003	0	-7.994279504464552E-005	1.9897532E-001	5.8427088E-002	2.0737624E-001	1.6364342E+001	2.0034449E+003	6.8227964E+003	7.1108608E+003	-7.3635658E+001	0.0000000E+000	0.0000000E+000	0.0000000E+000	7.3635658E+001	0.0000000E+000	0.0000000E+000	0.0000000E+000	-7.3635658E+001	0.0000000E+000	0.0000000E+000	0.0000000E+000	-1.6364342E+001	0.0000000E+000	0.0000000E+000	0.0000000E+000	1.6364342E+001	3.4055319E+000	7.3635658E+001	-3.122092944291791E-006	-5.0192980E-006	1.6819625E+004
3.1610117E+003	4.9475698E+000	1.5501947E+000	5.1847420E+000	-1.7397053E+001	6.322702460332948E+000	2.9054758E-001	-1.7711243E-002	3.2479382E+001	2.9035277E+000	1.000000000000000E+000	10	4.8745684E-003	9.4017567E-004	0	-8.280793205543160E-005	1.8405075E-001	5.7667617E-002	1.9287363E-001	1.7397053E+001	2.9035273E+003	9.2668398E+003	9.7110654E+003	-7.2602951E+001	0.0000000E+000	0.0000000E+000	0.0000000E+000	7.2602951E+001	0.0000000E+000	0.0000000E+000	0.0000000E+000	-7.2602951E+001	0.0000000E+000	0.0000000E+000	0.0000000E+000	-1.7397053E+001	0.0000000E+000	0.0000000E+000	0.0000000E+000	1.7397053E+001	3.1915796E+000	7.2602951E+001	-2.865137010786079E-006	-5.1459588E-006	1.6404697E+004
2.1556899E+003	5.3024549E+000	1.7748255E+000	5.5916038E+000	-1.8506306E+001	6.789694482518826E+000	2.9055366E-001	-1.7606804E-002	4.1598549E+001	4.1909909E+000	1.000000000000000E+000	10	4.8420504E-003	8.6595019E-004	0	-8.482427341577648E-005	1.6959155E-001	5.6765292E-002	1.7883956E-001	1.8506306E+001	4.1909902E+003	1.2520973E+004	1.3203755E+004	-7.1493698E+001	0.0000000E+000	0.0000000E+000	0.0000000E+000	7.1493698E+001	0.0000000E+000	0.0000000E+000	0.0000000E+000	-7.1493698E+001	0.0000000E+000	0.0000000E+000	0.0000000E+000	-1.8506306E+001	0.0000000E+000	0.0000000E+000	0.0000000E+000	1.8506306E+001	2.9875925E+000	7.1493698E+001	-2.016341360344887E-006	-5.1157213E-006	1.6502352E+004
1.4685898E+003	5.7221146E+000	2.0264590E+000	6.0703487E+000	-1.9501350E+001	7.256945918023121E+000	2.9056376E-001	-1.6730225E-002	5.3478817E+001	5.9597788E+000	1.000000000000000E+000	10	4.8164376E-003	7.9343672E-004	0	-8.755064591746325E-005	1.5528493E-001	5.4993395E-002	1.6473518E-001	1.9501350E+001	5.9597788E+003	1.6828635E+004	1.7852785E+004	-7.0498650E+001	0.0000000E+000	0.0000000E+000	0.0000000E+000	7.0498650E+001	0.0000000E+000	0.0000000E+000	0.0000000E+000	-7.0498650E+001	0.0000000E+000	0.0000000E+000	0.0000000E+000	-1.9501350E+001	0.0000000E+000	0.0000000E+000	0.0000000E+000	1.9501350E+001	2.8237011E+000	7.0498650E+001	-2.726372501686764E-006	-4.8611969E-006	1.7367594E+004
1.0003202E+003	6.1990085E+000	2.3149436E+000	6.6171498E+000	-2.0477530E+001	7.726713220356032E+000	2.9055604E-001	-1.6982013E-002	6.8729103E+001	8.4116182E+000	1.000000000000000E+000	10	4.7936589E-003	7.2442956E-004	0	-8.934782267814929E-005	1.4157295E-001	5.2868683E-002	1.5112247E-001	2.0477530E+001	8.4116201E+003	2.2524824E+004	2.4044189E+004	-6.9522469E+001	0.0000000E+000	0.0000000E+000	0.0000000E+000	6.9522469E+001	0.0000000E+000	0.0000000E+000	0.0000000E+000	-6.9522469E+001	0.0000000E+000	0.0000000E+000	0.0000000E+000	-2.0477530E+001	0.0000000E+000	0.0000000E+000	0.0000000E+000	2.0477530E+001	2.6778228E+000	6.9522469E+001	-1.797176760686041E-006	-4.9342266E-006	1.7109635E+004
6.8108978E+002	6.7236171E+000	2.6428356E+000	7.2243757E+000	-2.1458178E+001	8.192449482419761E+000	2.9055166E-001	-1.7793324E-002	8.8419006E+001	1.1832739E+001	1.000000000000000E+000	10	4.7726780E-003	6.6063536E-004	0	-9.168820392309378E-005	1.2882565E-001	5.0637178E-002	1.3842027E-001	2.1458178E+001	1.1832736E+004	3.0103574E+004	3.2345615E+004	-6.8541824E+001	0.0000000E+000	0.0000000E+000	0.0000000E+000	6.8541824E+001	0.0000000E+000	0.0000000E+000	0.0000000E+000	-6.8541824E+001	0.0000000E+000	0.0000000E+000	0.0000000E+000	-2.1458178E+001	0.0000000E+000	0.0000000E+000	0.0000000E+000	2.1458178E+001	2.5440919E+000	6.8541824E+001	-2.340381244944490E-006	-5.1698798E-006	1.6329252E+004
4.6396069E+002	7.3510170E+000	3.0387077E+000	7.9543195E+000	-2.2458853E+001	8.661191824678099E+000	2.9055128E-001	-1.6644435E-002	1.1288857E+002	1.6474863E+001	1.000000000000000E+000	10	4.7662631E-003	5.9920439E-004	0	-9.366508219980380E-005	1.1618268E-001	4.8026718E-002	1.2571786E-001	2.2458853E+001	1.6474865E+004	3.9854770E+004	4.3125676E+004	-6.7541145E+001	0.0000000E+000	0.0000000E+000	0.0000000E+000	6.7541145E+001	0.0000000E+000	0.0000000E+000	0.0000000E+000	-6.7541145E+001	0.0000000E+000	0.0000000E+000	0.0000000E+000	-2.2458853E+001	0.0000000E+000	0.0000000E+000	0.0000000E+000	2.2458853E+001	2.4191260E+000	6.7541145E+001	-1.976878276710022E-006	-4.8360616E-006	1.7456361E+004
3.1631589E+002	8.0256519E+000	3.4845173E+000	8.7494545E+000	-2.3469158E+001	9.127902966894908E+000	2.9054955E-001	-1.6982017E-002	1.4439644E+002	2.2902338E+001	1.000000000000000E+000	10	4.7517838E-003	5.4309488E-004	0	-9.543919981835966E-005	1.0483792E-001	4.5517735E-002	1.1429284E-001	2.3469158E+001	2.2902342E+004	5.2749398E+004	5.7506664E+004	-6.6530838E+001	0.0000000E+000	0.0000000E+000	0.0000000E+000	6.6530838E+001	0.0000000E+000	0.0000000E+000	0.0000000E+000	-6.6530838E+001	0.0000000E+000	0.0000000E+000	0.0000000E+000	-2.3469158E+001	0.0000000E+000	0.0000000E+000	0.0000000E+000	2.3469158E+001	2.3032320E+000	6.6530838E+001	-1.774117618555859E-006	-4.9341174E-006	1.7109248E+004
2.1534457E+002	8.8427210E+000	4.0694027E+000	9.7341537E+000	-2.4711794E+001	9.595456669077976E+000	2.9054266E-001	-1.6870111E-002	1.8161661E+002	3.1740992E+001	1.000000000000000E+000	10	4.7440622E-003	4.8736259E-004	0	-9.743132856590091E-005	9.3323171E-002	4.2947140E-002	1.0273106E-001	2.4711794E+001	3.1740988E+004	6.8972461E+004	7.5925563E+004	-6.5288208E+001	0.0000000E+000	0.0000000E+000	0.0000000E+000	6.5288208E+001	0.0000000E+000	0.0000000E+000	0.0000000E+000	-6.5288208E+001	0.0000000E+000	0.0000000E+000	0.0000000E+000	-2.4711794E+001	0.0000000E+000	0.0000000E+000	0.0000000E+000	2.4711794E+001	2.1729777E+000	6.5288208E+001	-1.992128747541251E-006	-4.9014870E-006	1.7222332E+004
1.4673740E+002	9.8706989E+000	4.6958885E+000	1.0930785E+001	-2.5442312E+001	1.005838778437465E+001	2.9054025E-001	-1.7575117E-002	2.3097316E+002	4.2627941E+001	1.000000000000000E+000	10	4.7401367E-003	4.3365016E-004	0	-9.986119681970215E-005	8.2612388E-002	3.9302036E-002	9.1484733E-002	2.5442312E+001	4.2627945E+004	8.9603398E+004	9.9226563E+004	-6.4557686E+001	0.0000000E+000	0.0000000E+000	0.0000000E+000	6.4557686E+001	0.0000000E+000	0.0000000E+000	0.0000000E+000	-6.4557686E+001	0.0000000E+000	0.0000000E+000	0.0000000E+000	-2.5442312E+001	0.0000000E+000	0.0000000E+000	0.0000000E+000	2.5442312E+001	2.1019876E+000	6.4557686E+001	-2.429868253801240E-006	-5.1062789E-006	1.6531342E+004
1.0003201E+002	1.1142192E+001	5.3834562E+000	1.2374573E+001	-2.5787952E+001	1.052668876668031E+001	2.9054278E-001	-1.6672416E-002	2.9554251E+002	5.5934776E+001	1.000000000000000E+000	10	4.7391662E-003	3.8297614E-004	0	-1.023058914276383E-004	7.2762936E-002	3.5156105E-002	8.0810867E-002	2.5787952E+001	5.5934762E+004	1.1576875E+005	1.2857333E+005	-6.4212051E+001	0.0000000E+000	0.0000000E+000	0.0000000E+000	6.4212051E+001	0.0000000E+000	0.0000000E+000	0.0000000E+000	-6.4212051E+001	0.0000000E+000	0.0000000E+000	0.0000000E+000	-2.5787952E+001	0.0000000E+000	0.0000000E+000	0.0000000E+000	2.5787952E+001	2.0697098E+000	6.4212051E+001	-2.444694607936171E-006	-4.8440502E-006	1.7426557E+004
6.8103981E+001	1.2750313E+001	5.9630265E+000	1.4075801E+001	-2.5064404E+001	1.100532014938653E+001	2.9056135E-001	-1.4365303E-002	3.9190509E+002	7.0334457E+001	1.000000000000000E+000	10	4.7398885E-003	3.3674022E-004	0	-1.043879344889946E-004	6.4353861E-002	3.0096812E-002	7.1043916E-002	2.5064404E+001	7.0334469E+004	1.5039116E+005	1.6602541E+005	-6.4935593E+001	0.0000000E+000	0.0000000E+000	0.0000000E+000	6.4935593E+001	0.0000000E+000	0.0000000E+000	0.0000000E+000	-6.4935593E+001	0.0000000E+000	0.0000000E+000	0.0000000E+000	-2.5064404E+001	0.0000000E+000	0.0000000E+000	0.0000000E+000	2.5064404E+001	2.1382284E+000	6.4935593E+001	-2.082043061356264E-006	-4.1740018E-006	2.0226607E+004
4.6441547E+001	1.4553079E+001	6.2865162E+000	1.5852836E+001	-2.3362970E+001	1.146052646430326E+001	2.9053316E-001	-1.8921714E-002	5.4513422E+002	8.5725410E+001	1.000000000000000E+000	10	4.7390452E-003	2.9893991E-004	0	-1.069212958269183E-004	5.7908323E-002	2.5014747E-002	6.3080199E-002	2.3362970E+001	8.5725398E+004	1.9845152E+005	2.1617550E+005	-6.6637032E+001	0.0000000E+000	0.0000000E+000	0.0000000E+000	6.6637032E+001	0.0000000E+000	0.0000000E+000	0.0000000E+000	-6.6637032E+001	0.0000000E+000	0.0000000E+000	0.0000000E+000	-2.3362970E+001	0.0000000E+000	0.0000000E+000	0.0000000E+000	2.3362970E+001	2.3149672E+000	6.6637032E+001	-2.533361337923759E-006	-5.4973852E-006	1.5354483E+004
3.1629555E+001	1.6517775E+001	6.4151487E+000	1.7719791E+001	-2.1225100E+001	1.215043055042042E+001	2.9055408E-001	-1.4382572E-002	7.8436877E+002	1.0280555E+002	1.000000000000000E+000	11	4.7441670E-003	2.6773266E-004	0	-1.102863792066605E-004	5.2605882E-002	2.0430995E-002	5.6434073E-002	2.1225100E+001	1.0280554E+005	2.6470453E+005	2.8396738E+005	-6.8774902E+001	0.0000000E+000	0.0000000E+000	0.0000000E+000	6.8774902E+001	0.0000000E+000	0.0000000E+000	0.0000000E+000	-6.8774902E+001	0.0000000E+000	0.0000000E+000	0.0000000E+000	-2.1225100E+001	0.0000000E+000	0.0000000E+000	0.0000000E+000	2.1225100E+001	2.5748076E+000	6.8774902E+001	-3.365083379742122E-006	-4.1789149E-006	2.0201816E+004
2.1551722E+001	1.8316458E+001	6.1880836E+000	1.9333521E+001	-1.8667170E+001	1.258935835791635E+001	2.9055187E-001	-1.4462225E-002	1.1933888E+003	1.2225663E+002	1.000000000000000E+000	11	4.7331648E-003	2.4481650E-004	0	-1.124308879842477E-004	4.9002655E-002	1.6555194E-002	5.1723637E-002	1.8667170E+001	1.2225662E+005	3.6187431E+005	3.8196819E+005	-7.1332832E+001	0.0000000E+000	0.0000000E+000	0.0000000E+000	7.1332832E+001	0.0000000E+000	0.0000000E+000	0.0000000E+000	-7.1332832E+001	0.0000000E+000	0.0000000E+000	0.0000000E+000	-1.8667170E+001	0.0000000E+000	0.0000000E+000	0.0000000E+000	1.8667170E+001	2.9599564E+000	7.1332832E+001	-2.144508777587252E-006	-4.2020265E-006	2.0090398E+004
1.4685154E+001	1.9990990E+001	5.7994161E+000	2.0815208E+001	-1.6177523E+001	1.306704243397689E+001	2.9055664E-001	-1.3577283E-002	1.8687765E+003	1.4506557E+002	1.000000000000000E+000	11	4.7390214E-003	2.2767110E-004	0	-1.138932457878271E-004	4.6139486E-002	1.3385134E-002	4.8041794E-002	1.6177523E+001	1.4506556E+005	5.0005116E+005	5.2066800E+005	-7.3822479E+001	0.0000000E+000	0.0000000E+000	0.0000000E+000	7.3822479E+001	0.0000000E+000	0.0000000E+000	0.0000000E+000	-7.3822479E+001	0.0000000E+000	0.0000000E+000	0.0000000E+000	-1.6177523E+001	0.0000000E+000	0.0000000E+000	0.0000000E+000	1.6177523E+001	3.4470694E+000	7.3822479E+001	-1.462357803579334E-006	-3.9449696E-006	2.1400205E+004
