
EC-Lab ASCII FILE
Nb header lines : 63                          

Potentio Electrochemical Impedance Spectroscopy

Run on channel : 2 (SN 66139)
User : 
CE vs. WE compliance from -10 V to 10 V
Electrode connection : standard
Potential control : Ewe
Ewe ctrl range : min = -10.00 V, max = 10.00 V
Safety Limits :
	Do not start on E overload
Acquisition started on : 09/04/2025 09:44:15.486
Loaded Setting File :  C:\Users\Celltest\OneDrive - store-dot.com\Documents\EC-Lab\Data\Gyutae\R270\17153_C01.mpr
Saved on :
	File : 17154_C02.mpr
	Directory : C:\Users\Celltest\OneDrive - store-dot.com\Documents\EC-Lab\Data\Gyutae\R270\
	Host : 169.254.61.224
Device : VMP-3e (SN .003165)
Address : USB
EC-LAB for windows v11.62 (software)
Internet server v27.00 (firmware)
Command interpretor v12.03 (firmware)
Electrode material : 
Initial state : 
Electrolyte : 
Comments : 
Electrode surface area : 0.001 cm²
Characteristic mass : 0.001 g
Equivalent Weight : 0.000 g/eq.
Density : 0.000 g/cm3
Volume (V) : 0.001 cm³
Cycle Definition : Charge/Discharge alternance
Mode                Single sine         
E (V)               0.0000              
vs.                 Eoc                 
tE (h:m:s)          0:00:0.0000         
record              0                   
dI                  0.000               
unit dI             mA                  
dt (s)              0.000               
fi                  100.000             
unit fi             kHz                 
ff                  10.000              
unit ff             mHz                 
Nd                  6                   
Points              per decade          
spacing             Logarithmic         
Va (mV)             5.0                 
pw                  0.10                
Na                  2                   
corr                0                   
E range min (V)     -10.000             
E range max (V)     10.000              
I Range             Auto                
Bandwidth           5                   
nc cycles           0                   
goto Ns'            0                   
nr cycles           0                   
inc. cycle          0                   

freq/Hz	Re(Z)/Ohm	-Im(Z)/Ohm	|Z|/Ohm	Phase(Z)/deg	time/s	<Ewe>/V	<I>/mA	Cs/µF	Cp/µF	cycle number	I Range	|Ewe|/V	|I|/A	Ns	(Q-Qo)/mA.h	Re(Y)/Ohm-1	Im(Y)/Ohm-1	|Y|/Ohm-1	Phase(Y)/deg	Re(C)/nF	Im(C)/nF	|C|/nF	Phase(C)/deg	Re(M)	Im(M)	|M|	Phase(M)/deg	Re(Permittivity)	Im(Permittivity)	|Permittivity|	Phase(Permittivity)/deg	Re(Resistivity)/Ohm.cm	Im(Resistivity)/Ohm.cm	|Resistivity|/Ohm.cm	Phase(Resistivity)/deg	Re(Conductivity)/mS/cm	Im(Conductivity)/mS/cm	|Conductivity|/mS/cm	Phase(Conductivity)/deg	Tan(Delta)	Loss Angle(Delta)/deg	dq/mA.h	Pwe/W	Rwe/Ohm	
1.0000371E+005	1.7325191E+000	4.6773076E-001	1.7945458E+000	-1.5108052E+001	1.864480355201522E+000	2.9984191E-001	-3.0744206E-002	3.4025776E+000	2.3114838E-001	1.000000000000000E+000	9	4.6291808E-003	2.5795836E-003	0	-1.329810967764610E-005	5.3798348E-001	1.4524020E-001	5.5724406E-001	1.5108052E+001	2.3114842E+002	8.5619556E+002	8.8684857E+002	-7.4891945E+001	0.0000000E+000	0.0000000E+000	0.0000000E+000	7.4891945E+001	0.0000000E+000	0.0000000E+000	0.0000000E+000	-7.4891945E+001	0.0000000E+000	0.0000000E+000	0.0000000E+000	-1.5108052E+001	0.0000000E+000	0.0000000E+000	0.0000000E+000	1.5108052E+001	3.7040949E+000	7.4891945E+001	-1.329810967764610E-005	-9.2184018E-006	9.7527939E+003
6.8132047E+004	1.8450114E+000	5.3251976E-001	1.9203240E+000	-1.6099558E+001	2.442496275965823E+000	2.9983985E-001	-2.9142635E-002	4.3866496E+000	3.3733034E-001	1.000000000000000E+000	9	5.0572967E-003	2.6335644E-003	0	-1.535427622863143E-005	5.0032252E-001	1.4440648E-001	5.2074546E-001	1.6099558E+001	3.3733029E+002	1.1687423E+003	1.2164498E+003	-7.3900444E+001	0.0000000E+000	0.0000000E+000	0.0000000E+000	7.3900444E+001	0.0000000E+000	0.0000000E+000	0.0000000E+000	-7.3900444E+001	0.0000000E+000	0.0000000E+000	0.0000000E+000	-1.6099558E+001	0.0000000E+000	0.0000000E+000	0.0000000E+000	1.6099558E+001	3.4646814E+000	7.3900444E+001	-2.056166550985330E-006	-8.7381231E-006	1.0288701E+004
4.6420355E+004	1.9752578E+000	6.0312819E-001	2.0652862E+000	-1.6979607E+001	3.020495236763963E+000	2.9983646E-001	-3.0967688E-002	5.6846280E+000	4.8479801E-001	1.000000000000000E+000	9	5.0607240E-003	2.4503742E-003	0	-2.538738226912230E-005	4.6308777E-001	1.4139992E-001	4.8419440E-001	1.6979607E+001	4.8479807E+002	1.5877240E+003	1.6600894E+003	-7.3020393E+001	0.0000000E+000	0.0000000E+000	0.0000000E+000	7.3020393E+001	0.0000000E+000	0.0000000E+000	0.0000000E+000	-7.3020393E+001	0.0000000E+000	0.0000000E+000	0.0000000E+000	-1.6979607E+001	0.0000000E+000	0.0000000E+000	0.0000000E+000	1.6979607E+001	3.2750213E+000	7.3020393E+001	-1.003310604049087E-005	-9.2852415E-006	9.6822354E+003
3.1621139E+004	2.1186593E+000	6.9027132E-001	2.2282710E+000	-1.8045906E+001	3.457480777549790E+000	2.9983741E-001	-3.2122314E-002	7.2915998E+000	6.9972348E-001	1.000000000000000E+000	9	5.3854352E-003	2.4168673E-003	0	-2.835601198315918E-005	4.2670241E-001	1.3902210E-001	4.4877845E-001	1.8045906E+001	6.9972345E+002	2.1476709E+003	2.2587834E+003	-7.1954094E+001	0.0000000E+000	0.0000000E+000	0.0000000E+000	7.1954094E+001	0.0000000E+000	0.0000000E+000	0.0000000E+000	-7.1954094E+001	0.0000000E+000	0.0000000E+000	0.0000000E+000	-1.8045906E+001	0.0000000E+000	0.0000000E+000	0.0000000E+000	1.8045906E+001	3.0693138E+000	7.1954094E+001	-2.968629714036879E-006	-9.6314716E-006	9.3342402E+003
2.1544684E+004	2.2851098E+000	7.8628188E-001	2.4166021E+000	-1.8987793E+001	3.894476718298392E+000	2.9983604E-001	-2.8397733E-002	9.3951073E+000	9.9459893E-001	1.000000000000000E+000	9	5.2899704E-003	2.1890118E-003	0	-3.172209658956207E-005	3.9128819E-001	1.3463809E-001	4.1380414E-001	1.8987793E+001	9.9459888E+002	2.8905254E+003	3.0568552E+003	-7.1012207E+001	0.0000000E+000	0.0000000E+000	0.0000000E+000	7.1012207E+001	0.0000000E+000	0.0000000E+000	0.0000000E+000	-7.1012207E+001	0.0000000E+000	0.0000000E+000	0.0000000E+000	-1.8987793E+001	0.0000000E+000	0.0000000E+000	0.0000000E+000	1.8987793E+001	2.9062221E+000	7.1012207E+001	-3.366084606402892E-006	-8.5146639E-006	1.0558450E+004
1.4678594E+004	2.4647861E+000	8.8934338E-001	2.6203249E+000	-1.9840443E+001	4.332494419097202E+000	2.9984283E-001	-2.6144370E-002	1.2191754E+001	1.4044131E+000	1.000000000000000E+000	9	5.0737532E-003	1.9363069E-003	0	-3.767815962481675E-005	3.5897893E-001	1.2952667E-001	3.8163206E-001	1.9840443E+001	1.4044130E+003	3.8922852E+003	4.1379053E+003	-7.0159561E+001	0.0000000E+000	0.0000000E+000	0.0000000E+000	7.0159561E+001	0.0000000E+000	0.0000000E+000	0.0000000E+000	-7.0159561E+001	0.0000000E+000	0.0000000E+000	0.0000000E+000	-1.9840443E+001	0.0000000E+000	0.0000000E+000	0.0000000E+000	1.9840443E+001	2.7714672E+000	7.0159561E+001	-5.956063035254678E-006	-7.8392022E-006	1.1468734E+004
1.0002226E+004	2.6786602E+000	1.0089840E+000	2.8623886E+000	-2.0640131E+001	4.628485206485493E+000	2.9983869E-001	-2.6125748E-002	1.5770274E+001	1.9595239E+000	1.000000000000000E+000	9	5.0670346E-003	1.7702120E-003	0	-4.066485085459943E-005	3.2693425E-001	1.2314791E-001	3.4935856E-001	2.0640131E+001	1.9595237E+003	5.2021621E+003	5.5589771E+003	-6.9359871E+001	0.0000000E+000	0.0000000E+000	0.0000000E+000	6.9359871E+001	0.0000000E+000	0.0000000E+000	0.0000000E+000	-6.9359871E+001	0.0000000E+000	0.0000000E+000	0.0000000E+000	-2.0640131E+001	0.0000000E+000	0.0000000E+000	0.0000000E+000	2.0640131E+001	2.6548095E+000	6.9359871E+001	-2.986691229782683E-006	-7.8335097E-006	1.1476751E+004
6.8110674E+003	2.9209671E+000	1.1497264E+000	3.1390953E+000	-2.1485172E+001	5.006511784420582E+000	2.9978061E-001	-3.1582270E-002	2.0324059E+001	2.7264054E+000	1.000000000000000E+000	9	4.9583754E-003	1.5795556E-003	0	-4.310815737877662E-005	2.9642695E-001	1.1667707E-001	3.1856313E-001	2.1485172E+001	2.7264053E+003	6.9266401E+003	7.4438989E+003	-6.8514832E+001	0.0000000E+000	0.0000000E+000	0.0000000E+000	6.8514832E+001	0.0000000E+000	0.0000000E+000	0.0000000E+000	-6.8514832E+001	0.0000000E+000	0.0000000E+000	0.0000000E+000	-2.1485172E+001	0.0000000E+000	0.0000000E+000	0.0000000E+000	2.1485172E+001	2.5405757E+000	6.8514832E+001	-2.443306524177185E-006	-9.4677516E-006	9.4920537E+003
4.6414854E+003	3.1883094E+000	1.3021311E+000	3.4439602E+000	-2.2215498E+001	5.477680473530199E+000	2.9987133E-001	6.0733431E-003	2.6333492E+001	3.7644506E+000	1.000000000000000E+000	9	4.8631462E-003	1.4120797E-003	0	-4.205051412417864E-005	2.6880926E-001	1.0978385E-001	2.9036340E-001	2.2215498E+001	3.7644507E+003	9.2173760E+003	9.9564609E+003	-6.7784500E+001	0.0000000E+000	0.0000000E+000	0.0000000E+000	6.7784500E+001	0.0000000E+000	0.0000000E+000	0.0000000E+000	-6.7784500E+001	0.0000000E+000	0.0000000E+000	0.0000000E+000	-2.2215498E+001	0.0000000E+000	0.0000000E+000	0.0000000E+000	2.2215498E+001	2.4485319E+000	6.7784500E+001	1.057643254597978E-006	1.8212214E-006	4.9375000E+004
3.1610117E+003	3.4927225E+000	1.4731548E+000	3.7906854E+000	-2.2868963E+001	6.198706134448003E+000	2.9985794E-001	-2.4705384E-002	3.4177921E+001	5.1618681E+000	1.000000000000000E+000	10	4.9442044E-003	1.3043035E-003	0	-4.525678078174759E-005	2.4306844E-001	1.0252100E-001	2.6380453E-001	2.2868963E+001	5.1618687E+003	1.2238343E+004	1.3282392E+004	-6.7131035E+001	0.0000000E+000	0.0000000E+000	0.0000000E+000	6.7131035E+001	0.0000000E+000	0.0000000E+000	0.0000000E+000	-6.7131035E+001	0.0000000E+000	0.0000000E+000	0.0000000E+000	-2.2868963E+001	0.0000000E+000	0.0000000E+000	0.0000000E+000	2.2868963E+001	2.3709135E+000	6.7131035E+001	-3.206266657568953E-006	-7.4081058E-006	1.2137353E+004
2.1556899E+003	3.8372929E+000	1.6715982E+000	4.1855774E+000	-2.3538862E+001	6.665713969960052E+000	2.9985684E-001	-2.3479799E-002	4.4167412E+001	7.0445776E+000	1.000000000000000E+000	10	4.8673148E-003	1.1628778E-003	0	-4.898910644362654E-005	2.1903536E-001	9.5415987E-002	2.3891567E-001	2.3538862E+001	7.0445781E+003	1.6171415E+004	1.7639182E+004	-6.6461136E+001	0.0000000E+000	0.0000000E+000	0.0000000E+000	6.6461136E+001	0.0000000E+000	0.0000000E+000	0.0000000E+000	-6.6461136E+001	0.0000000E+000	0.0000000E+000	0.0000000E+000	-2.3538862E+001	0.0000000E+000	0.0000000E+000	0.0000000E+000	2.3538862E+001	2.2955832E+000	6.6461136E+001	-3.732325661878951E-006	-7.0405781E-006	1.2770844E+004
1.4685898E+003	4.2405968E+000	1.9034487E+000	4.6482015E+000	-2.4173567E+001	7.132964925462147E+000	2.9985499E-001	-2.3770360E-002	5.6934883E+001	9.5475273E+000	1.000000000000000E+000	10	4.8056720E-003	1.0338777E-003	0	-5.159987984893249E-005	1.9627143E-001	8.8099062E-002	2.1513698E-001	2.4173567E+001	9.5475273E+003	2.1270449E+004	2.3314959E+004	-6.5826431E+001	0.0000000E+000	0.0000000E+000	0.0000000E+000	6.5826431E+001	0.0000000E+000	0.0000000E+000	0.0000000E+000	-6.5826431E+001	0.0000000E+000	0.0000000E+000	0.0000000E+000	-2.4173567E+001	0.0000000E+000	0.0000000E+000	0.0000000E+000	2.4173567E+001	2.2278492E+000	6.5826431E+001	-2.610773405305941E-006	-7.1276613E-006	1.2614659E+004
1.0003202E+003	4.7052865E+000	2.1542466E+000	5.1749878E+000	-2.4599981E+001	7.601706974419358E+000	2.9985386E-001	-2.3463039E-002	7.3855980E+001	1.2798464E+001	1.000000000000000E+000	10	4.7587543E-003	9.1956818E-004	0	-5.479032173959422E-005	1.7569824E-001	8.0440864E-002	1.9323717E-001	2.4599981E+001	1.2798464E+004	2.7954293E+004	3.0744807E+004	-6.5400017E+001	0.0000000E+000	0.0000000E+000	0.0000000E+000	6.5400017E+001	0.0000000E+000	0.0000000E+000	0.0000000E+000	-6.5400017E+001	0.0000000E+000	0.0000000E+000	0.0000000E+000	-2.4599981E+001	0.0000000E+000	0.0000000E+000	0.0000000E+000	2.4599981E+001	2.1841912E+000	6.5400017E+001	-3.190441890661732E-006	-7.0354827E-006	1.2779839E+004
6.8108978E+002	5.2339330E+000	2.4322944E+000	5.7714911E+000	-2.4925064E+001	8.067413983138977E+000	2.9984909E-001	-2.3002977E-002	9.6072624E+001	1.7063019E+001	1.000000000000000E+000	10	4.7206832E-003	8.1793132E-004	0	-5.723337526867140E-005	1.5712747E-001	7.3019706E-002	1.7326546E-001	2.4925064E+001	1.7063018E+004	3.6717059E+004	4.0488133E+004	-6.5074936E+001	0.0000000E+000	0.0000000E+000	0.0000000E+000	6.5074936E+001	0.0000000E+000	0.0000000E+000	0.0000000E+000	-6.5074936E+001	0.0000000E+000	0.0000000E+000	0.0000000E+000	-2.4925064E+001	0.0000000E+000	0.0000000E+000	0.0000000E+000	2.4925064E+001	2.1518502E+000	6.5074936E+001	-2.443053529077184E-006	-6.8974218E-006	1.3035230E+004
4.6396069E+002	5.8584623E+000	2.7471540E+000	6.4705825E+000	-2.5122850E+001	8.536210538790328E+000	2.9985127E-001	-2.2172257E-002	1.2486937E+002	2.2507910E+001	1.000000000000000E+000	10	4.7054733E-003	7.2721014E-004	0	-6.037300241235385E-005	1.3992551E-001	6.5613963E-002	1.5454559E-001	2.5122850E+001	2.2507910E+004	4.7999402E+004	5.3014609E+004	-6.4877151E+001	0.0000000E+000	0.0000000E+000	0.0000000E+000	6.4877151E+001	0.0000000E+000	0.0000000E+000	0.0000000E+000	-6.4877151E+001	0.0000000E+000	0.0000000E+000	0.0000000E+000	-2.5122850E+001	0.0000000E+000	0.0000000E+000	0.0000000E+000	2.5122850E+001	2.1325569E+000	6.4877151E+001	-3.139627143682450E-006	-6.6483794E-006	1.3523714E+004
3.1631589E+002	6.5631585E+000	3.0754416E+000	7.2479920E+000	-2.5107399E+001	9.002911227609729E+000	2.9984859E-001	-2.2812998E-002	1.6360315E+002	2.9455826E+001	1.000000000000000E+000	10	4.6869074E-003	6.4664910E-004	0	-6.353704426038247E-005	1.2493308E-001	5.8542605E-002	1.3796924E-001	2.5107399E+001	2.9455826E+004	6.2860324E+004	6.9419492E+004	-6.4892601E+001	0.0000000E+000	0.0000000E+000	0.0000000E+000	6.4892601E+001	0.0000000E+000	0.0000000E+000	0.0000000E+000	-6.4892601E+001	0.0000000E+000	0.0000000E+000	0.0000000E+000	-2.5107399E+001	0.0000000E+000	0.0000000E+000	0.0000000E+000	2.5107399E+001	2.1340539E+000	6.4892601E+001	-3.164041848028615E-006	-6.8404452E-006	1.3143761E+004
2.1534457E+002	7.4000211E+000	3.4011686E+000	8.1442165E+000	-2.4684271E+001	9.470434156450210E+000	2.9984581E-001	-2.2185296E-002	2.1729918E+002	3.7897953E+001	1.000000000000000E+000	10	4.6811337E-003	5.7478010E-004	0	-6.614919794858239E-005	1.1156664E-001	5.1277820E-002	1.2278652E-001	2.4684271E+001	3.7897953E+004	8.2455672E+004	9.0747961E+004	-6.5315727E+001	0.0000000E+000	0.0000000E+000	0.0000000E+000	6.5315727E+001	0.0000000E+000	0.0000000E+000	0.0000000E+000	-6.5315727E+001	0.0000000E+000	0.0000000E+000	0.0000000E+000	-2.4684271E+001	0.0000000E+000	0.0000000E+000	0.0000000E+000	2.4684271E+001	2.1757290E+000	6.5315727E+001	-2.612153688199924E-006	-6.6521679E-006	1.3515521E+004
1.4673740E+002	8.3380394E+000	3.6933057E+000	9.1193972E+000	-2.3890783E+001	9.933367085090140E+000	2.9984778E-001	-2.2270981E-002	2.9367300E+002	4.8168411E+001	1.000000000000000E+000	10	4.6757837E-003	5.1272946E-004	0	-6.870829949940606E-005	1.0026091E-001	4.4410229E-002	1.0965637E-001	2.3890783E+001	4.8168414E+004	1.0874542E+005	1.1893596E+005	-6.6109215E+001	0.0000000E+000	0.0000000E+000	0.0000000E+000	6.6109215E+001	0.0000000E+000	0.0000000E+000	0.0000000E+000	-6.6109215E+001	0.0000000E+000	0.0000000E+000	0.0000000E+000	-2.3890783E+001	0.0000000E+000	0.0000000E+000	0.0000000E+000	2.3890783E+001	2.2576087E+000	6.6109215E+001	-2.559101550823672E-006	-6.6779044E-006	1.3463609E+004
1.0003201E+002	9.3779831E+000	3.8819580E+000	1.0149688E+001	-2.2486807E+001	1.040169732073991E+001	2.9985425E-001	-2.1430945E-002	4.0985507E+002	5.9955166E+001	1.000000000000000E+000	10	4.6697874E-003	4.6009175E-004	0	-7.123319435495069E-005	9.1034092E-002	3.7682999E-002	9.8525196E-002	2.2486807E+001	5.9955164E+004	1.4483888E+005	1.5675753E+005	-6.7513191E+001	0.0000000E+000	0.0000000E+000	0.0000000E+000	6.7513191E+001	0.0000000E+000	0.0000000E+000	0.0000000E+000	-6.7513191E+001	0.0000000E+000	0.0000000E+000	0.0000000E+000	-2.2486807E+001	0.0000000E+000	0.0000000E+000	0.0000000E+000	2.2486807E+001	2.4157867E+000	6.7513191E+001	-2.524894855544623E-006	-6.4261599E-006	1.3991648E+004
6.8103981E+001	1.0494767E+001	3.9657512E+000	1.1219061E+001	-2.0700521E+001	1.087931710339035E+001	2.9985780E-001	-1.9097097E-002	5.8928058E+002	7.3630898E+001	1.000000000000000E+000	10	4.6627666E-003	4.1561114E-004	0	-7.353990855521665E-005	8.3379604E-002	3.1507395E-002	8.9134023E-002	2.0700521E+001	7.3630906E+004	1.9485316E+005	2.0830089E+005	-6.9299477E+001	0.0000000E+000	0.0000000E+000	0.0000000E+000	6.9299477E+001	0.0000000E+000	0.0000000E+000	0.0000000E+000	-6.9299477E+001	0.0000000E+000	0.0000000E+000	0.0000000E+000	-2.0700521E+001	0.0000000E+000	0.0000000E+000	0.0000000E+000	2.0700521E+001	2.6463504E+000	6.9299477E+001	-2.306714200265959E-006	-5.7264133E-006	1.5701747E+004
4.6441547E+001	1.1635888E+001	3.9204342E+000	1.2278587E+001	-1.8620012E+001	1.133454397835885E+001	2.9984751E-001	-2.3442566E-002	8.7413654E+002	8.9115005E+001	1.000000000000000E+000	10	4.6638530E-003	3.7983627E-004	0	-7.603865746357607E-005	7.7179641E-002	2.6003832E-002	8.1442595E-002	1.8620012E+001	8.9114992E+004	2.6449422E+005	2.7910334E+005	-7.1379990E+001	0.0000000E+000	0.0000000E+000	0.0000000E+000	7.1379990E+001	0.0000000E+000	0.0000000E+000	0.0000000E+000	-7.1379990E+001	0.0000000E+000	0.0000000E+000	0.0000000E+000	-1.8620012E+001	0.0000000E+000	0.0000000E+000	0.0000000E+000	1.8620012E+001	2.9680099E+000	7.1379990E+001	-2.498748908359429E-006	-7.0291953E-006	1.2790729E+004
3.1629555E+001	1.2717220E+001	3.7174964E+000	1.3249433E+001	-1.6294691E+001	1.178143525289488E+001	2.9984289E-001	-2.5156168E-002	1.3535568E+003	1.0655726E+002	1.000000000000000E+000	10	4.6661762E-003	3.5217931E-004	0	-7.913285630102392E-005	7.2443202E-002	2.1176588E-002	7.5474933E-002	1.6294691E+001	1.0655727E+005	3.6452278E+005	3.7977797E+005	-7.3705307E+001	0.0000000E+000	0.0000000E+000	0.0000000E+000	7.3705307E+001	0.0000000E+000	0.0000000E+000	0.0000000E+000	-7.3705307E+001	0.0000000E+000	0.0000000E+000	0.0000000E+000	-1.6294691E+001	0.0000000E+000	0.0000000E+000	0.0000000E+000	1.6294691E+001	3.4209099E+000	7.3705307E+001	-3.094198837447844E-006	-7.5428984E-006	1.1919260E+004
2.1551722E+001	1.3668568E+001	3.4145305E+000	1.4088604E+001	-1.4025940E+001	1.222036559376284E+001	2.9984099E-001	-2.6432056E-002	2.1627542E+003	1.2703787E+002	1.000000000000000E+000	10	4.6614772E-003	3.3086864E-004	0	-8.110073187399718E-005	6.8863183E-002	1.7202640E-002	7.0979357E-002	1.4025940E+001	1.2703788E+005	5.0854016E+005	5.2416763E+005	-7.5974060E+001	0.0000000E+000	0.0000000E+000	0.0000000E+000	7.5974060E+001	0.0000000E+000	0.0000000E+000	0.0000000E+000	-7.5974060E+001	0.0000000E+000	0.0000000E+000	0.0000000E+000	-1.4025940E+001	0.0000000E+000	0.0000000E+000	0.0000000E+000	1.4025940E+001	4.0030594E+000	7.5974060E+001	-1.967875572973259E-006	-7.9254141E-006	1.1343839E+004
1.4685154E+001	1.4561307E+001	3.0426731E+000	1.4875803E+001	-1.1802480E+001	1.295705378876301E+001	2.9987550E-001	-1.6754435E-002	3.5619377E+003	1.4901709E+002	1.000000000000000E+000	11	4.6665412E-003	3.1370012E-004	0	-8.495631978846116E-005	6.5802060E-002	1.3749739E-002	6.7223258E-002	1.1802480E+001	1.4901714E+005	7.1315044E+005	7.2855313E+005	-7.8197517E+001	0.0000000E+000	0.0000000E+000	0.0000000E+000	7.8197517E+001	0.0000000E+000	0.0000000E+000	0.0000000E+000	-7.8197517E+001	0.0000000E+000	0.0000000E+000	0.0000000E+000	-1.1802480E+001	0.0000000E+000	0.0000000E+000	0.0000000E+000	1.1802480E+001	4.7856956E+000	7.8197517E+001	-3.855587914463989E-006	-5.0242447E-006	1.7898275E+004
