EC-Lab ASCII FILE
Nb header lines : 64                          

Potentio Electrochemical Impedance Spectroscopy

Run on channel : 2 (SN 66139)
User : 
CE vs. WE compliance from -10 V to 10 V
Electrode connection : standard
Potential control : Ewe
Ewe ctrl range : min = -10.00 V, max = 10.00 V
Safety Limits :
	Do not start on E overload
Acquisition started on : 09/10/2025 16:53:18.999
Technique started on : 09/10/2025 16:53:20.863
Loaded Setting File :  C:\Users\Celltest\OneDrive - store-dot.com\Documents\EC-Lab\Data\Charmaine\R279\17382_C01.mpr
Saved on :
	File : 17383_C02.mpr
	Directory : C:\Users\Celltest\OneDrive - store-dot.com\Documents\EC-Lab\Data\Charmaine\R279\
	Host : 169.254.61.224
Device : VMP-3e (SN .003165)
Address : USB
EC-LAB for windows v11.62 (software)
Internet server v27.00 (firmware)
Command interpretor v12.03 (firmware)
Electrode material : 
Initial state : 
Electrolyte : 
Comments : 
Electrode surface area : 0.001 cm²
Characteristic mass : 0.001 g
Equivalent Weight : 0.000 g/eq.
Density : 0.000 g/cm3
Volume (V) : 0.001 cm³
Cycle Definition : Charge/Discharge alternance
Mode                Single sine         
E (V)               0.0000              
vs.                 Eoc                 
tE (h:m:s)          0:00:0.0000         
record              0                   
dI                  0.000               
unit dI             mA                  
dt (s)              0.000               
fi                  100.000             
unit fi             kHz                 
ff                  10.000              
unit ff             mHz                 
Nd                  6                   
Points              per decade          
spacing             Logarithmic         
Va (mV)             5.0                 
pw                  0.10                
Na                  2                   
corr                0                   
E range min (V)     -10.000             
E range max (V)     10.000              
I Range             Auto                
Bandwidth           5                   
nc cycles           0                   
goto Ns'            0                   
nr cycles           0                   
inc. cycle          0                   

freq/Hz	Re(Z)/Ohm	-Im(Z)/Ohm	|Z|/Ohm	Phase(Z)/deg	time/s	<Ewe>/V	<I>/mA	Cs/µF	Cp/µF	cycle number	I Range	|Ewe|/V	|I|/A	Ns	(Q-Qo)/mA.h	Re(Y)/Ohm-1	Im(Y)/Ohm-1	|Y|/Ohm-1	Phase(Y)/deg	Re(C)/nF	Im(C)/nF	|C|/nF	Phase(C)/deg	Re(M)	Im(M)	|M|	Phase(M)/deg	Re(Permittivity)	Im(Permittivity)	|Permittivity|	Phase(Permittivity)/deg	Re(Resistivity)/Ohm.cm	Im(Resistivity)/Ohm.cm	|Resistivity|/Ohm.cm	Phase(Resistivity)/deg	Re(Conductivity)/mS/cm	Im(Conductivity)/mS/cm	|Conductivity|/mS/cm	Phase(Conductivity)/deg	Tan(Delta)	Loss Angle(Delta)/deg	dq/mA.h	Pwe/W	Rwe/Ohm	
1.0000371E+005	2.6580508E+000	9.9287623E-001	2.8374350E+000	-2.0482443E+001	1.864483368553920E+000	1.8617094E-001	-3.2103714E-002	1.6029090E+000	1.9626699E-001	1.000000000000000E+000	9	4.5902869E-003	1.6177592E-003	0	-7.016458557550019E-006	3.3015010E-001	1.2332276E-001	3.5243097E-001	2.0482443E+001	1.9626701E+002	5.2543073E+002	5.6089050E+002	-6.9517555E+001	0.0000000E+000	0.0000000E+000	0.0000000E+000	6.9517555E+001	0.0000000E+000	0.0000000E+000	0.0000000E+000	-6.9517555E+001	0.0000000E+000	0.0000000E+000	0.0000000E+000	-2.0482443E+001	0.0000000E+000	0.0000000E+000	0.0000000E+000	2.0482443E+001	2.6771219E+000	6.9517555E+001	-7.016458557550019E-006	-5.9767785E-006	5.7990469E+003
6.8132047E+004	2.8939385E+000	1.0559230E+000	3.0805607E+000	-2.0045712E+001	2.442480409314157E+000	1.8618491E-001	-2.3350926E-002	2.2122614E+000	2.5992101E-001	1.000000000000000E+000	9	5.0573968E-003	1.6417131E-003	0	-1.193363884381122E-005	3.0495080E-001	1.1126862E-001	3.2461622E-001	2.0045712E+001	2.5992105E+002	7.1235822E+002	7.5829626E+002	-6.9954285E+001	0.0000000E+000	0.0000000E+000	0.0000000E+000	6.9954285E+001	0.0000000E+000	0.0000000E+000	0.0000000E+000	-6.9954285E+001	0.0000000E+000	0.0000000E+000	0.0000000E+000	-2.0045712E+001	0.0000000E+000	0.0000000E+000	0.0000000E+000	2.0045712E+001	2.7406719E+000	6.9954285E+001	-4.917180286261202E-006	-4.3475902E-006	7.9733418E+003
4.6420355E+004	3.1501193E+000	1.1396689E+000	3.3499398E+000	-1.9889412E+001	3.020489130081842E+000	1.8617551E-001	-2.9254399E-002	3.0083818E+000	3.4819007E-001	1.000000000000000E+000	9	5.0256751E-003	1.5002284E-003	0	-1.752852775904143E-005	2.8070682E-001	1.0155579E-001	2.9851282E-001	1.9889412E+001	3.4819006E+002	9.6242004E+002	1.0234689E+003	-7.0110588E+001	0.0000000E+000	0.0000000E+000	0.0000000E+000	7.0110588E+001	0.0000000E+000	0.0000000E+000	0.0000000E+000	-7.0110588E+001	0.0000000E+000	0.0000000E+000	0.0000000E+000	-1.9889412E+001	0.0000000E+000	0.0000000E+000	0.0000000E+000	1.9889412E+001	2.7640653E+000	7.0110588E+001	-5.594888915230209E-006	-5.4464526E-006	6.3640176E+003
3.1621139E+004	3.4041886E+000	1.2480233E+000	3.6257498E+000	-2.0133644E+001	3.456498617451871E+000	1.8617436E-001	-3.0669749E-002	4.0329232E+000	4.7782585E-001	1.000000000000000E+000	9	5.2341120E-003	1.4435943E-003	0	-1.975214013582768E-005	2.5895122E-001	9.4935142E-002	2.7580503E-001	2.0133644E+001	4.7782587E+002	1.3033486E+003	1.3881769E+003	-6.9866356E+001	0.0000000E+000	0.0000000E+000	0.0000000E+000	6.9866356E+001	0.0000000E+000	0.0000000E+000	0.0000000E+000	-6.9866356E+001	0.0000000E+000	0.0000000E+000	0.0000000E+000	-2.0133644E+001	0.0000000E+000	0.0000000E+000	0.0000000E+000	2.0133644E+001	2.7276645E+000	6.9866356E+001	-2.223612376786252E-006	-5.7099210E-006	6.0702930E+003
2.1544684E+004	3.6890793E+000	1.3623006E+000	3.9325778E+000	-2.0268147E+001	3.753481911582639E+000	1.8617323E-001	-3.2755524E-002	5.4225936E+000	6.5072626E-001	1.000000000000000E+000	9	5.4074512E-003	1.3750398E-003	0	-2.210163900760623E-005	2.3854117E-001	8.8088326E-002	2.5428614E-001	2.0268147E+001	6.5072614E+002	1.7621519E+003	1.8784631E+003	-6.9731857E+001	0.0000000E+000	0.0000000E+000	0.0000000E+000	6.9731857E+001	0.0000000E+000	0.0000000E+000	0.0000000E+000	-6.9731857E+001	0.0000000E+000	0.0000000E+000	0.0000000E+000	-2.0268147E+001	0.0000000E+000	0.0000000E+000	0.0000000E+000	2.0268147E+001	2.7079773E+000	6.9731857E+001	-2.349498871778550E-006	-6.0982015E-006	5.6837202E+003
1.4678594E+004	3.9820194E+000	1.5238127E+000	4.2636232E+000	-2.0940516E+001	4.049479312292533E+000	1.8617083E-001	-3.2271329E-002	7.1154780E+000	9.0888637E-001	1.000000000000000E+000	9	5.2262954E-003	1.2257873E-003	0	-2.485977763592705E-005	2.1905124E-001	8.3825067E-002	2.3454230E-001	2.0940516E+001	9.0888635E+002	2.3750974E+003	2.5430615E+003	-6.9059486E+001	0.0000000E+000	0.0000000E+000	0.0000000E+000	6.9059486E+001	0.0000000E+000	0.0000000E+000	0.0000000E+000	-6.9059486E+001	0.0000000E+000	0.0000000E+000	0.0000000E+000	-2.0940516E+001	0.0000000E+000	0.0000000E+000	0.0000000E+000	2.0940516E+001	2.6131949E+000	6.9059486E+001	-2.758138628320821E-006	-6.0079801E-006	5.7689233E+003
1.0002226E+004	4.3220406E+000	1.6968472E+000	4.6432018E+000	-2.1435135E+001	4.517499574547401E+000	1.8623134E-001	-3.1384706E-002	9.3773632E+000	1.2523655E+000	1.000000000000000E+000	10	4.7887792E-003	1.0313528E-003	0	-2.807493025744851E-005	2.0047198E-001	7.8705959E-002	2.1536863E-001	2.1435135E+001	1.2523655E+003	3.1899006E+003	3.4269353E+003	-6.8564865E+001	0.0000000E+000	0.0000000E+000	0.0000000E+000	6.8564865E+001	0.0000000E+000	0.0000000E+000	0.0000000E+000	-6.8564865E+001	0.0000000E+000	0.0000000E+000	0.0000000E+000	-2.1435135E+001	0.0000000E+000	0.0000000E+000	0.0000000E+000	2.1435135E+001	2.5471005E+000	6.8564865E+001	-3.215152621521458E-006	-5.8448163E-006	5.9338247E+003
6.8110674E+003	4.6949773E+000	1.9401278E+000	5.0800500E+000	-2.2452116E+001	4.896514339226997E+000	1.8623343E-001	-2.0747351E-002	1.2044106E+001	1.7567070E+000	1.000000000000000E+000	10	5.0460203E-003	9.9330128E-004	0	-3.073131036079981E-005	1.8192714E-001	7.5178623E-002	1.9684845E-001	2.2452116E+001	1.7567072E+003	4.2511108E+003	4.5997788E+003	-6.7547882E+001	0.0000000E+000	0.0000000E+000	0.0000000E+000	6.7547882E+001	0.0000000E+000	0.0000000E+000	0.0000000E+000	-6.7547882E+001	0.0000000E+000	0.0000000E+000	0.0000000E+000	-2.2452116E+001	0.0000000E+000	0.0000000E+000	0.0000000E+000	2.2452116E+001	2.4199319E+000	6.7547882E+001	-2.656380103351293E-006	-3.8638505E-006	8.9762510E+003
4.6414854E+003	5.1185207E+000	2.2300844E+000	5.5832367E+000	-2.3542238E+001	5.367712921644852E+000	1.8626811E-001	-9.5512122E-003	1.5375946E+001	2.4530838E+000	1.000000000000000E+000	10	5.0583566E-003	9.0599002E-004	0	-3.170441824676042E-005	1.6419971E-001	7.1540043E-002	1.7910758E-001	2.3542238E+001	2.4530835E+003	5.6303521E+003	6.1415376E+003	-6.6457764E+001	0.0000000E+000	0.0000000E+000	0.0000000E+000	6.6457764E+001	0.0000000E+000	0.0000000E+000	0.0000000E+000	-6.6457764E+001	0.0000000E+000	0.0000000E+000	0.0000000E+000	-2.3542238E+001	0.0000000E+000	0.0000000E+000	0.0000000E+000	2.3542238E+001	2.2952139E+000	6.6457764E+001	-9.731078859606147E-007	-1.7790862E-006	1.9502039E+004
3.1610117E+003	5.5901365E+000	2.5924847E+000	6.1620293E+000	-2.4880009E+001	5.834677503822604E+000	1.8626980E-001	-9.2382990E-003	1.9421278E+001	3.4376583E+000	1.000000000000000E+000	10	4.9947514E-003	8.1056927E-004	0	-3.347512084702289E-005	1.4722274E-001	6.8276092E-002	1.6228420E-001	2.4880009E+001	3.4376577E+003	7.4125723E+003	8.1709067E+003	-6.5119995E+001	0.0000000E+000	0.0000000E+000	0.0000000E+000	6.5119995E+001	0.0000000E+000	0.0000000E+000	0.0000000E+000	-6.5119995E+001	0.0000000E+000	0.0000000E+000	0.0000000E+000	-2.4880009E+001	0.0000000E+000	0.0000000E+000	0.0000000E+000	2.4880009E+001	2.1562853E+000	6.5119995E+001	-1.770702600262467E-006	-1.7208162E-006	2.0162781E+004
2.1556899E+003	6.1690578E+000	3.0474215E+000	6.8807015E+000	-2.6288675E+001	6.301686672668438E+000	1.8627031E-001	-9.2476131E-003	2.4227093E+001	4.7522678E+000	1.000000000000000E+000	10	4.9529104E-003	7.1982638E-004	0	-3.406256089367929E-005	1.3030270E-001	6.4367563E-002	1.4533402E-001	2.6288675E+001	4.7522676E+003	9.6202705E+003	1.0730035E+004	-6.3711327E+001	0.0000000E+000	0.0000000E+000	0.0000000E+000	6.3711327E+001	0.0000000E+000	0.0000000E+000	0.0000000E+000	-6.3711327E+001	0.0000000E+000	0.0000000E+000	0.0000000E+000	-2.6288675E+001	0.0000000E+000	0.0000000E+000	0.0000000E+000	2.6288675E+001	2.0243533E+000	6.3711327E+001	-5.874400466564076E-007	-1.7225558E-006	2.0142529E+004
1.4685898E+003	6.7961540E+000	3.6152244E+000	7.6978931E+000	-2.8010811E+001	6.768936401524115E+000	1.8626460E-001	-8.8359788E-003	2.9976738E+001	6.6116691E+000	1.000000000000000E+000	10	4.8830151E-003	6.3433137E-004	0	-3.540956287459186E-005	1.1468839E-001	6.1008658E-002	1.2990567E-001	2.8010811E+001	6.6116689E+003	1.2429083E+004	1.4078220E+004	-6.1989189E+001	0.0000000E+000	0.0000000E+000	0.0000000E+000	6.1989189E+001	0.0000000E+000	0.0000000E+000	0.0000000E+000	-6.1989189E+001	0.0000000E+000	0.0000000E+000	0.0000000E+000	-2.8010811E+001	0.0000000E+000	0.0000000E+000	0.0000000E+000	2.8010811E+001	1.8798707E+000	6.1989189E+001	-1.347001980912564E-006	-1.6458301E-006	2.1080246E+004
1.0003202E+003	7.6051555E+000	4.3092318E+000	8.7411594E+000	-2.9536751E+001	7.237682743791083E+000	1.8626349E-001	-9.6369013E-003	3.6921661E+001	8.9731073E+000	1.000000000000000E+000	10	4.8534805E-003	5.5524445E-004	0	-3.658281693085438E-005	9.9533670E-002	5.6397751E-002	1.1440130E-001	2.9536751E+001	8.9731084E+003	1.5836205E+004	1.8201705E+004	-6.0463249E+001	0.0000000E+000	0.0000000E+000	0.0000000E+000	6.0463249E+001	0.0000000E+000	0.0000000E+000	0.0000000E+000	-6.0463249E+001	0.0000000E+000	0.0000000E+000	0.0000000E+000	-2.9536751E+001	0.0000000E+000	0.0000000E+000	0.0000000E+000	2.9536751E+001	1.7648518E+000	6.0463249E+001	-1.173254056262522E-006	-1.7950028E-006	1.9328150E+004
6.8108978E+002	8.5792656E+000	5.1622763E+000	1.0012637E+001	-3.1035971E+001	7.703435272531351E+000	1.8625939E-001	-9.0669459E-003	4.5266251E+001	1.2032617E+001	1.000000000000000E+000	10	4.8246211E-003	4.8185320E-004	0	-3.806580447226750E-005	8.5576236E-002	5.1492538E-002	9.9873789E-002	3.1035971E+001	1.2032617E+004	1.9997189E+004	2.3338197E+004	-5.8964027E+001	0.0000000E+000	0.0000000E+000	0.0000000E+000	5.8964027E+001	0.0000000E+000	0.0000000E+000	0.0000000E+000	-5.8964027E+001	0.0000000E+000	0.0000000E+000	0.0000000E+000	-3.1035971E+001	0.0000000E+000	0.0000000E+000	0.0000000E+000	3.1035971E+001	1.6619152E+000	5.8964027E+001	-1.482987541413116E-006	-1.6888038E-006	2.0542682E+004
4.6396069E+002	9.8391266E+000	6.1651106E+000	1.1611073E+001	-3.2070896E+001	8.172192521480611E+000	1.8626195E-001	-8.9570545E-003	5.5641399E+001	1.5686828E+001	1.000000000000000E+000	10	4.8083123E-003	4.1411439E-004	0	-3.903541670385554E-005	7.2981350E-002	4.5729473E-002	8.6124688E-002	3.2070896E+001	1.5686826E+004	2.5035184E+004	2.9543814E+004	-5.7929104E+001	0.0000000E+000	0.0000000E+000	0.0000000E+000	5.7929104E+001	0.0000000E+000	0.0000000E+000	0.0000000E+000	-5.7929104E+001	0.0000000E+000	0.0000000E+000	0.0000000E+000	-3.2070896E+001	0.0000000E+000	0.0000000E+000	0.0000000E+000	3.2070896E+001	1.5959368E+000	5.7929108E+001	-9.696122315880416E-007	-1.6683584E-006	2.0795000E+004
3.1631589E+002	1.1460174E+001	7.2426424E+000	1.3556971E+001	-3.2292217E+001	8.638898917008191E+000	1.8626671E-001	-9.3090907E-003	6.9470764E+001	1.9827633E+001	1.000000000000000E+000	10	4.7982507E-003	3.5393238E-004	0	-3.998928342667184E-005	6.2354226E-002	3.9406851E-002	7.3762789E-002	3.2292217E+001	1.9827633E+004	3.1373648E+004	3.7113891E+004	-5.7707783E+001	0.0000000E+000	0.0000000E+000	0.0000000E+000	5.7707783E+001	0.0000000E+000	0.0000000E+000	0.0000000E+000	-5.7707783E+001	0.0000000E+000	0.0000000E+000	0.0000000E+000	-3.2292217E+001	0.0000000E+000	0.0000000E+000	0.0000000E+000	3.2292217E+001	1.5823194E+000	5.7707779E+001	-9.538667228163022E-007	-1.7339737E-006	2.0009119E+004
2.1534457E+002	1.3493832E+001	8.3487034E+000	1.5867714E+001	-3.1745293E+001	9.106419632531470E+000	1.8625860E-001	-8.9551946E-003	8.8525253E+001	2.4506231E+001	1.000000000000000E+000	10	4.7957897E-003	3.0223571E-004	0	-4.125002345914739E-005	5.3592812E-002	3.3158150E-002	6.3021049E-002	3.1745293E+001	2.4506230E+004	3.9608898E+004	4.6577035E+004	-5.8254707E+001	0.0000000E+000	0.0000000E+000	0.0000000E+000	5.8254707E+001	0.0000000E+000	0.0000000E+000	0.0000000E+000	-5.8254707E+001	0.0000000E+000	0.0000000E+000	0.0000000E+000	-3.1745293E+001	0.0000000E+000	0.0000000E+000	0.0000000E+000	3.1745293E+001	1.6162788E+000	5.8254707E+001	-1.260740032475551E-006	-1.6679820E-006	2.0798945E+004
1.4673740E+002	1.5968481E+001	9.3080788E+000	1.8483309E+001	-3.0238047E+001	9.569394961145008E+000	1.8625765E-001	-9.9237524E-003	1.1652505E+002	2.9551527E+001	1.000000000000000E+000	10	4.7866446E-003	2.5897121E-004	0	-4.246466932836726E-005	4.6741664E-002	2.7245866E-002	5.4102868E-002	3.0238047E+001	2.9551525E+004	5.0697141E+004	5.8681281E+004	-5.9761955E+001	0.0000000E+000	0.0000000E+000	0.0000000E+000	5.9761955E+001	0.0000000E+000	0.0000000E+000	0.0000000E+000	-5.9761955E+001	0.0000000E+000	0.0000000E+000	0.0000000E+000	-3.0238047E+001	0.0000000E+000	0.0000000E+000	0.0000000E+000	3.0238047E+001	1.7155507E+000	5.9761955E+001	-1.214645869219867E-006	-1.8483747E-006	1.8768873E+004
1.0003201E+002	1.8872862E+001	9.9281445E+000	2.1324938E+001	-2.7746794E+001	1.003768058345304E+001	1.8626742E-001	-8.3088716E-003	1.6025554E+002	3.4735512E+001	1.000000000000000E+000	10	4.7884835E-003	2.2454852E-004	0	-4.356161667338488E-005	4.1501351E-002	2.1831952E-002	4.6893455E-002	2.7746794E+001	3.4735512E+004	6.6030313E+004	7.4609367E+004	-6.2253204E+001	0.0000000E+000	0.0000000E+000	0.0000000E+000	6.2253204E+001	0.0000000E+000	0.0000000E+000	0.0000000E+000	-6.2253204E+001	0.0000000E+000	0.0000000E+000	0.0000000E+000	-2.7746794E+001	0.0000000E+000	0.0000000E+000	0.0000000E+000	2.7746794E+001	1.9009455E+000	6.2253204E+001	-1.096947345017622E-006	-1.5476721E-006	2.2417896E+004
6.8103981E+001	2.1987268E+001	1.0028955E+001	2.4166504E+001	-2.4518944E+001	1.077530445842422E+001	1.8628724E-001	-1.0011974E-002	2.3301932E+002	4.0130600E+001	1.000000000000000E+000	11	4.7901482E-003	1.9821436E-004	0	-4.537179029431879E-005	3.7648149E-002	1.7172284E-002	4.1379590E-002	2.4518944E+001	4.0130605E+004	8.7981477E+004	9.6701633E+004	-6.5481056E+001	0.0000000E+000	0.0000000E+000	0.0000000E+000	6.5481056E+001	0.0000000E+000	0.0000000E+000	0.0000000E+000	-6.5481056E+001	0.0000000E+000	0.0000000E+000	0.0000000E+000	-2.4518944E+001	0.0000000E+000	0.0000000E+000	0.0000000E+000	2.4518944E+001	2.1923788E+000	6.5481056E+001	-1.810173620933912E-006	-1.8651029E-006	1.8606445E+004
4.6441547E+001	2.5033989E+001	9.5299292E+000	2.6786566E+001	-2.0840809E+001	1.123054018671974E+001	1.8627191E-001	-1.0624943E-002	3.5960339E+002	4.5516521E+001	1.000000000000000E+000	11	4.7860043E-003	1.7867182E-004	0	-4.651770485353417E-005	3.4889597E-002	1.3281759E-002	3.7332147E-002	2.0840809E+001	4.5516512E+004	1.1956648E+005	1.2793708E+005	-6.9159195E+001	0.0000000E+000	0.0000000E+000	0.0000000E+000	6.9159195E+001	0.0000000E+000	0.0000000E+000	0.0000000E+000	-6.9159195E+001	0.0000000E+000	0.0000000E+000	0.0000000E+000	-2.0840809E+001	0.0000000E+000	0.0000000E+000	0.0000000E+000	2.0840809E+001	2.6268809E+000	6.9159195E+001	-1.145914559215377E-006	-1.9791285E-006	1.7531566E+004
3.1629555E+001	2.7747412E+001	8.4296827E+000	2.8999628E+001	-1.6898817E+001	1.167645354123670E+001	1.8627582E-001	-1.0688701E-002	5.9691956E+002	5.0437485E+001	1.000000000000000E+000	11	4.7850371E-003	1.6500340E-004	0	-4.786164870364721E-005	3.2994203E-002	1.0023661E-002	3.4483202E-002	1.6898817E+001	5.0437492E+004	1.6602164E+005	1.7351405E+005	-7.3101181E+001	0.0000000E+000	0.0000000E+000	0.0000000E+000	7.3101181E+001	0.0000000E+000	0.0000000E+000	0.0000000E+000	-7.3101181E+001	0.0000000E+000	0.0000000E+000	0.0000000E+000	-1.6898817E+001	0.0000000E+000	0.0000000E+000	0.0000000E+000	1.6898817E+001	3.2916317E+000	7.3101181E+001	-1.343943850113040E-006	-1.9910465E-006	1.7427359E+004
2.1551722E+001	2.9897131E+001	7.0579581E+000	3.0718939E+001	-1.3282894E+001	1.211533276209957E+001	1.8627809E-001	-1.0786575E-002	1.0463068E+003	5.5233784E+001	1.000000000000000E+000	11	4.7880416E-003	1.5586612E-004	0	-4.869738326305024E-005	3.1682327E-002	7.4793980E-003	3.2553207E-002	1.3282894E+001	5.5233805E+004	2.3396734E+005	2.4039861E+005	-7.6717102E+001	0.0000000E+000	0.0000000E+000	0.0000000E+000	7.6717102E+001	0.0000000E+000	0.0000000E+000	0.0000000E+000	-7.6717102E+001	0.0000000E+000	0.0000000E+000	0.0000000E+000	-1.3282894E+001	0.0000000E+000	0.0000000E+000	0.0000000E+000	1.3282894E+001	4.2359462E+000	7.6717102E+001	-8.357345594030310E-007	-2.0093025E-006	1.7269438E+004
1.4685154E+001	3.1331715E+001	5.6752486E+000	3.1841558E+001	-1.0266912E+001	1.259306497147190E+001	1.8628269E-001	-9.7610457E-003	1.9096631E+003	6.0664955E+001	1.000000000000000E+000	11	4.7802078E-003	1.5012480E-004	0	-4.981126823820240E-005	3.0902637E-002	5.5975276E-003	3.1405497E-002	1.0266912E+001	6.0664961E+004	3.3491697E+005	3.4036688E+005	-7.9733086E+001	0.0000000E+000	0.0000000E+000	0.0000000E+000	7.9733086E+001	0.0000000E+000	0.0000000E+000	0.0000000E+000	-7.9733086E+001	0.0000000E+000	0.0000000E+000	0.0000000E+000	-1.0266912E+001	0.0000000E+000	0.0000000E+000	0.0000000E+000	1.0266912E+001	5.5207653E+000	7.9733086E+001	-1.113884975152162E-006	-1.8183139E-006	1.9084297E+004
