EC-Lab ASCII FILE
Nb header lines : 64                          

Potentio Electrochemical Impedance Spectroscopy

Run on channel : 7 (SN 66126)
User : 
CE vs. WE compliance from -10 V to 10 V
Electrode connection : standard
Potential control : Ewe
Ewe ctrl range : min = -10.00 V, max = 10.00 V
Safety Limits :
	Do not start on E overload
Acquisition started on : 09/10/2025 16:54:36.419
Technique started on : 09/10/2025 16:54:38.487
Loaded Setting File :  C:\Users\Celltest\OneDrive - store-dot.com\Documents\EC-Lab\Data\Charmaine\R279\17382_C01.mpr
Saved on :
	File : 17389_C07.mpr
	Directory : C:\Users\Celltest\OneDrive - store-dot.com\Documents\EC-Lab\Data\Charmaine\R279\
	Host : 169.254.61.224
Device : VMP-3e (SN .003165)
Address : USB
EC-LAB for windows v11.62 (software)
Internet server v27.00 (firmware)
Command interpretor v12.03 (firmware)
Electrode material : 
Initial state : 
Electrolyte : 
Comments : 
Electrode surface area : 0.001 cm²
Characteristic mass : 0.001 g
Equivalent Weight : 0.000 g/eq.
Density : 0.000 g/cm3
Volume (V) : 0.001 cm³
Cycle Definition : Charge/Discharge alternance
Mode                Single sine         
E (V)               0.0000              
vs.                 Eoc                 
tE (h:m:s)          0:00:0.0000         
record              0                   
dI                  0.000               
unit dI             mA                  
dt (s)              0.000               
fi                  100.000             
unit fi             kHz                 
ff                  10.000              
unit ff             mHz                 
Nd                  6                   
Points              per decade          
spacing             Logarithmic         
Va (mV)             5.0                 
pw                  0.10                
Na                  2                   
corr                0                   
E range min (V)     -10.000             
E range max (V)     10.000              
I Range             Auto                
Bandwidth           5                   
nc cycles           0                   
goto Ns'            0                   
nr cycles           0                   
inc. cycle          0                   

freq/Hz	Re(Z)/Ohm	-Im(Z)/Ohm	|Z|/Ohm	Phase(Z)/deg	time/s	<Ewe>/V	<I>/mA	Cs/µF	Cp/µF	cycle number	I Range	|Ewe|/V	|I|/A	Ns	(Q-Qo)/mA.h	Re(Y)/Ohm-1	Im(Y)/Ohm-1	|Y|/Ohm-1	Phase(Y)/deg	Re(C)/nF	Im(C)/nF	|C|/nF	Phase(C)/deg	Re(M)	Im(M)	|M|	Phase(M)/deg	Re(Permittivity)	Im(Permittivity)	|Permittivity|	Phase(Permittivity)/deg	Re(Resistivity)/Ohm.cm	Im(Resistivity)/Ohm.cm	|Resistivity|/Ohm.cm	Phase(Resistivity)/deg	Re(Conductivity)/mS/cm	Im(Conductivity)/mS/cm	|Conductivity|/mS/cm	Phase(Conductivity)/deg	Tan(Delta)	Loss Angle(Delta)/deg	dq/mA.h	Pwe/W	Rwe/Ohm	
1.0000371E+005	1.4921737E+000	4.1111794E-001	1.5477726E+000	-1.5403742E+001	2.068495831539622E+000	2.4319573E-001	4.3964513E-002	3.8711281E+000	2.7312163E-001	1.000000000000000E+000	9	4.6418677E-003	2.9990631E-003	0	-1.140780638609107E-006	6.2288094E-001	1.7161375E-001	6.4608973E-001	1.5403742E+001	2.7312161E+002	9.9130902E+002	1.0282456E+003	-7.4596260E+001	0.0000000E+000	0.0000000E+000	0.0000000E+000	7.4596260E+001	0.0000000E+000	0.0000000E+000	0.0000000E+000	-7.4596260E+001	0.0000000E+000	0.0000000E+000	0.0000000E+000	-1.5403742E+001	0.0000000E+000	0.0000000E+000	0.0000000E+000	1.5403742E+001	3.6295514E+000	7.4596260E+001	-1.140780638609107E-006	1.0691982E-005	5.5316372E+003
6.8132047E+004	1.5972331E+000	4.2925131E-001	1.6539075E+000	-1.5042631E+001	2.647482499043690E+000	2.4321993E-001	4.8209429E-002	5.4419813E+000	3.6657080E-001	1.000000000000000E+000	9	5.0459267E-003	3.0509122E-003	0	3.161293892797807E-006	5.8390993E-001	1.5692393E-001	6.0462874E-001	1.5042631E+001	3.6657083E+002	1.3640005E+003	1.4123992E+003	-7.4957367E+001	0.0000000E+000	0.0000000E+000	0.0000000E+000	7.4957367E+001	0.0000000E+000	0.0000000E+000	0.0000000E+000	-7.4957367E+001	0.0000000E+000	0.0000000E+000	0.0000000E+000	-1.5042631E+001	0.0000000E+000	0.0000000E+000	0.0000000E+000	1.5042631E+001	3.7209742E+000	7.4957367E+001	4.302074531406915E-006	1.1725494E-005	5.0450698E+003
4.6420355E+004	1.7063022E+000	4.4646716E-001	1.7637460E+000	-1.4663147E+001	3.226475379866315E+000	2.4321552E-001	4.7595028E-002	7.6793094E+000	4.9207252E-001	1.000000000000000E+000	9	5.0688353E-003	2.8739031E-003	0	2.338946015192454E-006	5.4850912E-001	1.4352165E-001	5.6697506E-001	1.4663147E+001	4.9207248E+002	1.8805961E+003	1.9439076E+003	-7.5336853E+001	0.0000000E+000	0.0000000E+000	0.0000000E+000	7.5336853E+001	0.0000000E+000	0.0000000E+000	0.0000000E+000	-7.5336853E+001	0.0000000E+000	0.0000000E+000	0.0000000E+000	-1.4663147E+001	0.0000000E+000	0.0000000E+000	0.0000000E+000	1.4663147E+001	3.8217864E+000	7.5336853E+001	-8.223478776053529E-007	1.1575849E-005	5.1101035E+003
3.1621139E+004	1.8134757E+000	4.7685260E-001	1.8751221E+000	-1.4732397E+001	3.804497060686117E+000	2.4321820E-001	4.3126702E-002	1.0555006E+001	6.8260223E-001	1.000000000000000E+000	9	5.0325445E-003	2.6838491E-003	0	4.088465872945057E-006	5.1576596E-001	1.3562042E-001	5.3329861E-001	1.4732397E+001	6.8260223E+002	2.5959436E+003	2.6841887E+003	-7.5267601E+001	0.0000000E+000	0.0000000E+000	0.0000000E+000	7.5267601E+001	0.0000000E+000	0.0000000E+000	0.0000000E+000	-7.5267601E+001	0.0000000E+000	0.0000000E+000	0.0000000E+000	-1.4732397E+001	0.0000000E+000	0.0000000E+000	0.0000000E+000	1.4732397E+001	3.8030112E+000	7.5267601E+001	1.749519857752603E-006	1.0489199E-005	5.6396196E+003
2.1544684E+004	1.9320211E+000	5.0862902E-001	1.9978511E+000	-1.4749177E+001	4.241481854784070E+000	2.4321695E-001	3.8770080E-002	1.4523754E+001	9.4135821E-001	1.000000000000000E+000	9	5.1895259E-003	2.5975539E-003	0	7.062654666311573E-006	4.8404488E-001	1.2743095E-001	5.0053781E-001	1.4749177E+001	9.4135815E+002	3.5757375E+003	3.6975742E+003	-7.5250824E+001	0.0000000E+000	0.0000000E+000	0.0000000E+000	7.5250824E+001	0.0000000E+000	0.0000000E+000	0.0000000E+000	-7.5250824E+001	0.0000000E+000	0.0000000E+000	0.0000000E+000	-1.4749177E+001	0.0000000E+000	0.0000000E+000	0.0000000E+000	1.4749177E+001	3.7984879E+000	7.5250824E+001	2.974188793366516E-006	9.4295401E-006	6.2733154E+003
1.4678594E+004	2.0410025E+000	5.3475225E-001	2.1098936E+000	-1.4681753E+001	4.538498082227306E+000	2.4321739E-001	4.3610755E-002	2.0276035E+001	1.3024684E+000	1.000000000000000E+000	9	5.0131273E-003	2.3760095E-003	0	1.103297173597902E-005	4.5848215E-001	1.2012450E-001	4.7395757E-001	1.4681753E+001	1.3024688E+003	4.9711646E+003	5.1389590E+003	-7.5318245E+001	0.0000000E+000	0.0000000E+000	0.0000000E+000	7.5318245E+001	0.0000000E+000	0.0000000E+000	0.0000000E+000	-7.5318245E+001	0.0000000E+000	0.0000000E+000	0.0000000E+000	-1.4681753E+001	0.0000000E+000	0.0000000E+000	0.0000000E+000	1.4681753E+001	3.8167255E+000	7.5318245E+001	3.970317069667443E-006	1.0606895E-005	5.5770049E+003
1.0002226E+004	2.1650240E+000	5.7176584E-001	2.2392511E+000	-1.4793612E+001	4.834487509593600E+000	2.4322088E-001	4.3815542E-002	2.7829491E+001	1.8144127E+000	1.000000000000000E+000	9	4.7508613E-003	2.1216294E-003	0	1.358227913443827E-005	4.3177465E-001	1.1402829E-001	4.4657788E-001	1.4793612E+001	1.8144125E+003	6.8703779E+003	7.1059263E+003	-7.5206390E+001	0.0000000E+000	0.0000000E+000	0.0000000E+000	7.5206390E+001	0.0000000E+000	0.0000000E+000	0.0000000E+000	-7.5206390E+001	0.0000000E+000	0.0000000E+000	0.0000000E+000	-1.4793612E+001	0.0000000E+000	0.0000000E+000	0.0000000E+000	1.4793612E+001	3.7865572E+000	7.5206390E+001	2.549307398459254E-006	1.0656855E-005	5.5510186E+003
6.8110674E+003	2.2864580E+000	6.2301356E-001	2.3698177E+000	-1.5241919E+001	5.212523154244991E+000	2.4309525E-001	-3.6790788E-003	3.7506580E+001	2.5922241E+000	1.000000000000000E+000	9	4.5895055E-003	1.9366492E-003	0	1.269929006191281E-005	4.0713021E-001	1.1093475E-001	4.2197338E-001	1.5241919E+001	2.5922246E+003	9.5134561E+003	9.8602979E+003	-7.4758080E+001	0.0000000E+000	0.0000000E+000	0.0000000E+000	7.4758080E+001	0.0000000E+000	0.0000000E+000	0.0000000E+000	-7.4758080E+001	0.0000000E+000	0.0000000E+000	0.0000000E+000	-1.5241919E+001	0.0000000E+000	0.0000000E+000	0.0000000E+000	1.5241919E+001	3.6699972E+000	7.4758080E+001	-8.829890725254611E-007	-8.9436656E-007	6.6075031E+004
4.6414854E+003	2.4158468E+000	6.9598657E-001	2.5141029E+000	-1.6071276E+001	5.906672867240559E+000	2.4322940E-001	6.6846043E-002	4.9267700E+001	3.7757037E+000	1.000000000000000E+000	9	5.0088782E-003	1.9923123E-003	0	2.187977283765213E-005	3.8221112E-001	1.1011202E-001	3.9775619E-001	1.6071276E+001	3.7757031E+003	1.3105889E+004	1.3638924E+004	-7.3928726E+001	0.0000000E+000	0.0000000E+000	0.0000000E+000	7.3928726E+001	0.0000000E+000	0.0000000E+000	0.0000000E+000	-7.3928726E+001	0.0000000E+000	0.0000000E+000	0.0000000E+000	-1.6071276E+001	0.0000000E+000	0.0000000E+000	0.0000000E+000	1.6071276E+001	3.4711113E+000	7.3928726E+001	9.180482775739316E-006	1.6258924E-005	3.6386506E+003
3.1610117E+003	2.5542359E+000	7.7728707E-001	2.6698871E+000	-1.6925684E+001	6.373683289421024E+000	2.4323119E-001	6.4127810E-002	6.4775772E+001	5.4902191E+000	1.000000000000000E+000	9	4.9527073E-003	1.8550250E-003	0	2.948810197106407E-005	3.5832348E-001	1.0904247E-001	3.7454769E-001	1.6925684E+001	5.4902188E+003	1.8041359E+004	1.8858238E+004	-7.3074318E+001	0.0000000E+000	0.0000000E+000	0.0000000E+000	7.3074318E+001	0.0000000E+000	0.0000000E+000	0.0000000E+000	-7.3074318E+001	0.0000000E+000	0.0000000E+000	0.0000000E+000	-1.6925684E+001	0.0000000E+000	0.0000000E+000	0.0000000E+000	1.6925684E+001	3.2860909E+000	7.3074318E+001	7.608329133411947E-006	1.5597883E-005	3.7929128E+003
2.1556899E+003	2.7020314E+000	8.9529550E-001	2.8464940E+000	-1.8332184E+001	6.840671044934425E+000	2.4322477E-001	6.2191539E-002	8.2464577E+001	8.1579247E+000	1.000000000000000E+000	9	4.9096793E-003	1.7248163E-003	0	3.697308652342245E-005	3.3348003E-001	1.1049583E-001	3.5130936E-001	1.8332184E+001	8.1579253E+003	2.4620887E+004	2.5937229E+004	-7.1667816E+001	0.0000000E+000	0.0000000E+000	0.0000000E+000	7.1667816E+001	0.0000000E+000	0.0000000E+000	0.0000000E+000	-7.1667816E+001	0.0000000E+000	0.0000000E+000	0.0000000E+000	-1.8332184E+001	0.0000000E+000	0.0000000E+000	0.0000000E+000	1.8332184E+001	3.0180330E+000	7.1667816E+001	7.484984552358381E-006	1.5126523E-005	3.9108982E+003
1.4685898E+003	2.8760207E+000	1.0565270E+000	3.0639427E+000	-2.0171173E+001	7.307929573784349E+000	2.4322729E-001	6.4835288E-002	1.0257441E+002	1.2196605E+001	1.000000000000000E+000	9	4.8912177E-003	1.5963803E-003	0	4.380887919528727E-005	3.0635905E-001	1.1254322E-001	3.2637686E-001	2.0171173E+001	1.2196604E+004	3.3200938E+004	3.5370316E+004	-6.9828827E+001	0.0000000E+000	0.0000000E+000	0.0000000E+000	6.9828827E+001	0.0000000E+000	0.0000000E+000	0.0000000E+000	-6.9828827E+001	0.0000000E+000	0.0000000E+000	0.0000000E+000	-2.0171173E+001	0.0000000E+000	0.0000000E+000	0.0000000E+000	2.0171173E+001	2.7221458E+000	6.9828827E+001	6.835792671864817E-006	1.5769710E-005	3.7514646E+003
1.0003202E+003	3.1060572E+000	1.2717582E+000	3.3563313E+000	-2.2266378E+001	8.030709208127519E+000	2.4320363E-001	-1.2932099E-002	1.2510554E+002	1.7962053E+001	1.000000000000000E+000	10	4.9597980E-003	1.4777438E-003	0	4.837048930382460E-005	2.7572733E-001	1.1289505E-001	2.9794437E-001	2.2266378E+001	1.7962053E+004	4.3869316E+004	4.7404137E+004	-6.7733620E+001	0.0000000E+000	0.0000000E+000	0.0000000E+000	6.7733620E+001	0.0000000E+000	0.0000000E+000	0.0000000E+000	-6.7733620E+001	0.0000000E+000	0.0000000E+000	0.0000000E+000	-2.2266378E+001	0.0000000E+000	0.0000000E+000	0.0000000E+000	2.2266378E+001	2.4423332E+000	6.7733620E+001	4.561610108537326E-006	-3.1451334E-006	1.8806199E+004
6.8108978E+002	3.3737419E+000	1.5505862E+000	3.7130110E+000	-2.4683714E+001	8.496418510185322E+000	2.4320564E-001	-1.3125683E-002	1.5070230E+002	2.6282049E+001	1.000000000000000E+000	10	4.9292394E-003	1.3275585E-003	0	4.758472329718966E-005	2.4471430E-001	1.1247174E-001	2.6932320E-001	2.4683714E+001	2.6282049E+004	5.7184078E+004	6.2934609E+004	-6.5316284E+001	0.0000000E+000	0.0000000E+000	0.0000000E+000	6.5316284E+001	0.0000000E+000	0.0000000E+000	0.0000000E+000	-6.5316284E+001	0.0000000E+000	0.0000000E+000	0.0000000E+000	-2.4683714E+001	0.0000000E+000	0.0000000E+000	0.0000000E+000	2.4683714E+001	2.1757848E+000	6.5316284E+001	-7.857660066349332E-007	-3.1922402E-006	1.8528988E+004
4.6396069E+002	3.7186728E+000	1.8995386E+000	4.1757364E+000	-2.7058439E+001	8.965223572478862E+000	2.4320959E-001	-1.2920936E-002	1.8058879E+002	3.7369812E+001	1.000000000000000E+000	10	4.8993654E-003	1.1732937E-003	0	4.586052489432040E-005	2.1326610E-001	1.0893864E-001	2.3947872E-001	2.7058439E+001	3.7369813E+004	7.3157820E+004	8.2149680E+004	-6.2941559E+001	0.0000000E+000	0.0000000E+000	0.0000000E+000	6.2941559E+001	0.0000000E+000	0.0000000E+000	0.0000000E+000	-6.2941559E+001	0.0000000E+000	0.0000000E+000	0.0000000E+000	-2.7058439E+001	0.0000000E+000	0.0000000E+000	0.0000000E+000	2.7058439E+001	1.9576715E+000	6.2941559E+001	-1.724198402869260E-006	-3.1424954E-006	1.8822908E+004
3.1631589E+002	4.1828780E+000	2.3111489E+000	4.7788992E+000	-2.8921791E+001	9.431927381316200E+000	2.4321069E-001	-1.3317416E-002	2.1770641E+002	5.0917999E+001	1.000000000000000E+000	10	4.8846086E-003	1.0221200E-003	0	4.472684414704822E-005	1.8315528E-001	1.0119805E-001	2.0925321E-001	2.8921791E+001	5.0917996E+004	9.2154938E+004	1.0528616E+005	-6.1078209E+001	0.0000000E+000	0.0000000E+000	0.0000000E+000	6.1078209E+001	0.0000000E+000	0.0000000E+000	0.0000000E+000	-6.1078209E+001	0.0000000E+000	0.0000000E+000	0.0000000E+000	-2.8921791E+001	0.0000000E+000	0.0000000E+000	0.0000000E+000	2.8921791E+001	1.8098695E+000	6.1078209E+001	-1.133680747272183E-006	-3.2389380E-006	1.8262604E+004
2.1534457E+002	4.8006964E+000	2.7540731E+000	5.5345826E+000	-2.9842117E+001	9.899446070165141E+000	2.4320614E-001	-1.3488661E-002	2.6835565E+002	6.6449532E+001	1.000000000000000E+000	10	4.8656450E-003	8.7913492E-004	0	4.392258908890573E-005	1.5672363E-001	8.9909524E-002	1.8068209E-001	2.9842117E+001	6.6449531E+004	1.1582990E+005	1.3353691E+005	-6.0157883E+001	0.0000000E+000	0.0000000E+000	0.0000000E+000	6.0157883E+001	0.0000000E+000	0.0000000E+000	0.0000000E+000	-6.0157883E+001	0.0000000E+000	0.0000000E+000	0.0000000E+000	-2.9842117E+001	0.0000000E+000	0.0000000E+000	0.0000000E+000	2.9842117E+001	1.7431259E+000	6.0157883E+001	-8.042550581424950E-007	-3.2805251E-006	1.8030414E+004
1.4673740E+002	5.6004071E+000	3.1782694E+000	6.4394064E+000	-2.9575207E+001	1.036237358549261E+001	2.4320656E-001	-1.4058252E-002	3.4126251E+002	8.3133934E+001	1.000000000000000E+000	10	4.8602326E-003	7.5476407E-004	0	4.194548086768999E-005	1.3506037E-001	7.6647684E-002	1.5529382E-001	2.9575207E+001	8.3133938E+004	1.4648977E+005	1.6843545E+005	-6.0424793E+001	0.0000000E+000	0.0000000E+000	0.0000000E+000	6.0424793E+001	0.0000000E+000	0.0000000E+000	0.0000000E+000	-6.0424793E+001	0.0000000E+000	0.0000000E+000	0.0000000E+000	-2.9575207E+001	0.0000000E+000	0.0000000E+000	0.0000000E+000	2.9575207E+001	1.7620933E+000	6.0424789E+001	-1.977108221215733E-006	-3.4190591E-006	1.7299914E+004
1.0003201E+002	6.5681157E+000	3.5314856E+000	7.4573140E+000	-2.8265633E+001	1.083067563445366E+001	2.4320644E-001	-1.3432832E-002	4.5053000E+002	1.0103543E+002	1.000000000000000E+000	10	4.8515731E-003	6.5057917E-004	0	3.970788174602138E-005	1.1810707E-001	6.3502751E-002	1.3409653E-001	2.8265633E+001	1.0103544E+005	1.8791311E+005	2.1335298E+005	-6.1734367E+001	0.0000000E+000	0.0000000E+000	0.0000000E+000	6.1734367E+001	0.0000000E+000	0.0000000E+000	0.0000000E+000	-6.1734367E+001	0.0000000E+000	0.0000000E+000	0.0000000E+000	-2.8265633E+001	0.0000000E+000	0.0000000E+000	0.0000000E+000	2.8265633E+001	1.8598733E+000	6.1734367E+001	-2.237599121668610E-006	-3.2669511E-006	1.8105375E+004
6.8103981E+001	7.6950302E+000	3.7268949E+000	8.5500431E+000	-2.5842064E+001	1.130932155044866E+001	2.4321778E-001	-1.0298270E-002	6.2704755E+002	1.1914015E+002	1.000000000000000E+000	10	4.8504444E-003	5.6730059E-004	0	3.802193079462288E-005	1.0526251E-001	5.0981257E-002	1.1695848E-001	2.5842064E+001	1.1914017E+005	2.4599223E+005	2.7332500E+005	-6.4157936E+001	0.0000000E+000	0.0000000E+000	0.0000000E+000	6.4157936E+001	0.0000000E+000	0.0000000E+000	0.0000000E+000	-6.4157936E+001	0.0000000E+000	0.0000000E+000	0.0000000E+000	-2.5842064E+001	0.0000000E+000	0.0000000E+000	0.0000000E+000	2.5842064E+001	2.0647297E+000	6.4157936E+001	-1.685950951398506E-006	-2.5047223E-006	2.3617344E+004
4.6441547E+001	8.8773489E+000	3.6584952E+000	9.6016617E+000	-2.2397331E+001	1.176454818542697E+001	2.4320942E-001	-1.5928941E-002	9.3672253E+002	1.3599507E+002	1.000000000000000E+000	10	4.8517995E-003	5.0530833E-004	0	3.605137852167051E-005	9.6292064E-002	3.9683476E-002	1.0414864E-001	2.2397331E+001	1.3599508E+005	3.2999241E+005	3.5691688E+005	-6.7602669E+001	0.0000000E+000	0.0000000E+000	0.0000000E+000	6.7602669E+001	0.0000000E+000	0.0000000E+000	0.0000000E+000	-6.7602669E+001	0.0000000E+000	0.0000000E+000	0.0000000E+000	-2.2397331E+001	0.0000000E+000	0.0000000E+000	0.0000000E+000	2.2397331E+001	2.4265027E+000	6.7602669E+001	-1.970552272952369E-006	-3.8740686E-006	1.5268398E+004
3.1629555E+001	9.9644232E+000	3.3436162E+000	1.0510448E+001	-1.8549458E+001	1.221144705996267E+001	2.4319568E-001	-1.7414324E-002	1.5049103E+003	1.5230040E+002	1.000000000000000E+000	10	4.8513087E-003	4.6157013E-004	0	3.418351015682048E-005	9.0200670E-002	3.0267326E-002	9.5143430E-002	1.8549458E+001	1.5230038E+005	4.5387556E+005	4.7874672E+005	-7.1450546E+001	0.0000000E+000	0.0000000E+000	0.0000000E+000	7.1450546E+001	0.0000000E+000	0.0000000E+000	0.0000000E+000	-7.1450546E+001	0.0000000E+000	0.0000000E+000	0.0000000E+000	-1.8549458E+001	0.0000000E+000	0.0000000E+000	0.0000000E+000	1.8549458E+001	2.9801335E+000	7.1450546E+001	-1.867868364850032E-006	-4.2350885E-006	1.3965267E+004
2.1551722E+001	1.0827340E+001	2.9126492E+000	1.1212262E+001	-1.5056626E+001	1.265033049418707E+001	2.4319145E-001	-1.9601444E-002	2.5354204E+003	1.7109599E+002	1.000000000000000E+000	10	4.8505985E-003	4.3261552E-004	0	3.247069581161809E-005	8.6126201E-002	2.3168702E-002	8.9188069E-002	1.5056626E+001	1.7109600E+005	6.3602394E+005	6.5863519E+005	-7.4943375E+001	0.0000000E+000	0.0000000E+000	0.0000000E+000	7.4943375E+001	0.0000000E+000	0.0000000E+000	0.0000000E+000	-7.4943375E+001	0.0000000E+000	0.0000000E+000	0.0000000E+000	-1.5056626E+001	0.0000000E+000	0.0000000E+000	0.0000000E+000	1.5056626E+001	3.7173512E+000	7.4943375E+001	-1.712814345202382E-006	-4.7669037E-006	1.2406813E+004
1.4685154E+001	1.1465167E+001	2.4334822E+000	1.1720575E+001	-1.1983196E+001	1.312802502355771E+001	2.4321288E-001	-9.8980768E-003	4.4536230E+003	1.9198705E+002	1.000000000000000E+000	10	4.8495079E-003	4.1376022E-004	0	3.068928010846786E-005	8.3460793E-002	1.7714556E-002	8.5320041E-002	1.1983196E+001	1.9198711E+005	9.0453244E+005	9.2468263E+005	-7.8016800E+001	0.0000000E+000	0.0000000E+000	0.0000000E+000	7.8016800E+001	0.0000000E+000	0.0000000E+000	0.0000000E+000	-7.8016800E+001	0.0000000E+000	0.0000000E+000	0.0000000E+000	-1.1983196E+001	0.0000000E+000	0.0000000E+000	0.0000000E+000	1.1983196E+001	4.7114244E+000	7.8016800E+001	-1.781415703150236E-006	-2.4073397E-006	2.4571730E+004
