
EC-Lab ASCII FILE
Nb header lines : 63                          

Potentio Electrochemical Impedance Spectroscopy

Run on channel : 6 (SN 65795)
User : 
CE vs. WE compliance from -10 V to 10 V
Electrode connection : standard
Potential control : Ewe
Ewe ctrl range : min = -10.00 V, max = 10.00 V
Safety Limits :
	Do not start on E overload
Acquisition started on : 09/10/2025 16:54:22.513
Loaded Setting File :  C:\Users\Celltest\OneDrive - store-dot.com\Documents\EC-Lab\Data\Charmaine\R279\17383.mps
Saved on :
	File : 17388_C06.mpr
	Directory : C:\Users\Celltest\OneDrive - store-dot.com\Documents\EC-Lab\Data\Charmaine\R279\
	Host : 169.254.61.224
Device : VMP-3e (SN .003165)
Address : USB
EC-LAB for windows v11.62 (software)
Internet server v27.00 (firmware)
Command interpretor v12.03 (firmware)
Electrode material : 
Initial state : 
Electrolyte : 
Comments : 
Electrode surface area : 0.001 cm²
Characteristic mass : 0.001 g
Equivalent Weight : 0.000 g/eq.
Density : 0.000 g/cm3
Volume (V) : 0.001 cm³
Cycle Definition : Charge/Discharge alternance
Mode                Single sine         
E (V)               0.0000              
vs.                 Eoc                 
tE (h:m:s)          0:00:0.0000         
record              0                   
dI                  0.000               
unit dI             mA                  
dt (s)              0.000               
fi                  100.000             
unit fi             kHz                 
ff                  10.000              
unit ff             mHz                 
Nd                  6                   
Points              per decade          
spacing             Logarithmic         
Va (mV)             5.0                 
pw                  0.10                
Na                  2                   
corr                0                   
E range min (V)     -10.000             
E range max (V)     10.000              
I Range             Auto                
Bandwidth           5                   
nc cycles           0                   
goto Ns'            0                   
nr cycles           0                   
inc. cycle          0                   

freq/Hz	Re(Z)/Ohm	-Im(Z)/Ohm	|Z|/Ohm	Phase(Z)/deg	time/s	<Ewe>/V	<I>/mA	Cs/µF	Cp/µF	cycle number	I Range	|Ewe|/V	|I|/A	Ns	(Q-Qo)/mA.h	Re(Y)/Ohm-1	Im(Y)/Ohm-1	|Y|/Ohm-1	Phase(Y)/deg	Re(C)/nF	Im(C)/nF	|C|/nF	Phase(C)/deg	Re(M)	Im(M)	|M|	Phase(M)/deg	Re(Permittivity)	Im(Permittivity)	|Permittivity|	Phase(Permittivity)/deg	Re(Resistivity)/Ohm.cm	Im(Resistivity)/Ohm.cm	|Resistivity|/Ohm.cm	Phase(Resistivity)/deg	Re(Conductivity)/mS/cm	Im(Conductivity)/mS/cm	|Conductivity|/mS/cm	Phase(Conductivity)/deg	Tan(Delta)	Loss Angle(Delta)/deg	dq/mA.h	Pwe/W	Rwe/Ohm	
1.0000371E+005	1.6831779E+000	4.3221837E-001	1.7377862E+000	-1.4401652E+001	2.067475778196240E+000	2.6576531E-001	1.7184028E-002	3.6821439E+000	2.2777945E-001	1.000000000000000E+000	9	4.6102735E-003	2.6529578E-003	0	-2.956504381753297E-006	5.5736202E-001	1.4312337E-001	5.7544482E-001	1.4401652E+001	2.2777942E+002	8.8703625E+002	9.1581482E+002	-7.5598351E+001	0.0000000E+000	0.0000000E+000	0.0000000E+000	7.5598351E+001	0.0000000E+000	0.0000000E+000	0.0000000E+000	-7.5598351E+001	0.0000000E+000	0.0000000E+000	0.0000000E+000	-1.4401652E+001	0.0000000E+000	0.0000000E+000	0.0000000E+000	1.4401652E+001	3.8942766E+000	7.5598351E+001	-2.956504381753297E-006	4.5669185E-006	1.5465833E+004
6.8132047E+004	1.7916206E+000	4.5762157E-001	1.8491409E+000	-1.4328320E+001	2.645482285617618E+000	2.6576778E-001	1.4390281E-002	5.1046057E+000	3.1263325E-001	1.000000000000000E+000	9	5.0443462E-003	2.7279404E-003	0	1.869202988312787E-006	5.2396959E-001	1.3383402E-001	5.4079169E-001	1.4328320E+001	3.1263336E+002	1.2239812E+003	1.2632773E+003	-7.5671677E+001	0.0000000E+000	0.0000000E+000	0.0000000E+000	7.5671677E+001	0.0000000E+000	0.0000000E+000	0.0000000E+000	-7.5671677E+001	0.0000000E+000	0.0000000E+000	0.0000000E+000	-1.4328320E+001	0.0000000E+000	0.0000000E+000	0.0000000E+000	1.4328320E+001	3.9150703E+000	7.5671677E+001	4.825707370066084E-006	3.8244730E-006	1.8468561E+004
4.6420355E+004	1.9024873E+000	4.8255503E-001	1.9627321E+000	-1.4232594E+001	3.082476413022960E+000	2.6576841E-001	1.9940525E-002	7.1050119E+000	4.2947361E-001	1.000000000000000E+000	9	5.4551517E-003	2.7793664E-003	0	7.767932762495346E-006	4.9385530E-001	1.2526357E-001	5.0949389E-001	1.4232594E+001	4.2947369E+002	1.6932122E+003	1.7468300E+003	-7.5767403E+001	0.0000000E+000	0.0000000E+000	0.0000000E+000	7.5767403E+001	0.0000000E+000	0.0000000E+000	0.0000000E+000	-7.5767403E+001	0.0000000E+000	0.0000000E+000	0.0000000E+000	-1.4232594E+001	0.0000000E+000	0.0000000E+000	0.0000000E+000	1.4232594E+001	3.9425292E+000	7.5767403E+001	5.898729774182559E-006	5.2995615E-006	1.3328055E+004
3.1621139E+004	2.0241275E+000	5.1361829E-001	2.0882759E+000	-1.4238175E+001	3.519489500467898E+000	2.6576754E-001	1.6960528E-002	9.7994604E+000	5.9279889E-001	1.000000000000000E+000	9	5.4474096E-003	2.6085679E-003	0	8.994999348522267E-006	4.6415403E-001	1.1777814E-001	4.7886392E-001	1.4238175E+001	5.9279877E+002	2.3361716E+003	2.4102092E+003	-7.5761826E+001	0.0000000E+000	0.0000000E+000	0.0000000E+000	7.5761826E+001	0.0000000E+000	0.0000000E+000	0.0000000E+000	-7.5761826E+001	0.0000000E+000	0.0000000E+000	0.0000000E+000	-1.4238175E+001	0.0000000E+000	0.0000000E+000	0.0000000E+000	1.4238175E+001	3.9409177E+000	7.5761826E+001	1.227066586026921E-006	4.5075576E-006	1.5669769E+004
2.1544684E+004	2.1461060E+000	5.4602438E-001	2.2144783E+000	-1.4274648E+001	3.956476374558406E+000	2.6576853E-001	1.7798642E-002	1.3529072E+001	8.2252520E-001	1.000000000000000E+000	9	5.3133015E-003	2.3993468E-003	0	1.184867563083147E-005	4.3763128E-001	1.1134461E-001	4.5157364E-001	1.4274648E+001	8.2252527E+002	3.2328706E+003	3.3358657E+003	-7.5725349E+001	0.0000000E+000	0.0000000E+000	0.0000000E+000	7.5725349E+001	0.0000000E+000	0.0000000E+000	0.0000000E+000	-7.5725349E+001	0.0000000E+000	0.0000000E+000	0.0000000E+000	-1.4274648E+001	0.0000000E+000	0.0000000E+000	0.0000000E+000	1.4274648E+001	3.9304216E+000	7.5725349E+001	2.853676282309204E-006	4.7303188E-006	1.4931956E+004
1.4678594E+004	2.2698739E+000	5.7866204E-001	2.3424723E+000	-1.4301860E+001	4.393496555305319E+000	2.6577005E-001	1.6792884E-002	1.8737457E+001	1.1434356E+000	1.000000000000000E+000	9	5.1441309E-003	2.1960263E-003	0	1.130041529675428E-005	4.1366881E-001	1.0545716E-001	4.2689940E-001	1.4301860E+001	1.1434354E+003	4.4852686E+003	4.6287231E+003	-7.5698143E+001	0.0000000E+000	0.0000000E+000	0.0000000E+000	7.5698143E+001	0.0000000E+000	0.0000000E+000	0.0000000E+000	-7.5698143E+001	0.0000000E+000	0.0000000E+000	0.0000000E+000	-1.4301860E+001	0.0000000E+000	0.0000000E+000	0.0000000E+000	1.4301860E+001	3.9226243E+000	7.5698143E+001	-5.482603340771891E-007	4.4630456E-006	1.5826350E+004
1.0002226E+004	2.4048853E+000	6.2984687E-001	2.4859970E+000	-1.4676302E+001	4.830474682763452E+000	2.6576787E-001	1.5004880E-002	2.5263208E+001	1.6216506E+000	1.000000000000000E+000	9	4.9743117E-003	2.0009323E-003	0	1.302452077340179E-005	3.8912866E-001	1.0191399E-001	4.0225312E-001	1.4676302E+001	1.6216503E+003	6.1917964E+003	6.4006323E+003	-7.5323700E+001	0.0000000E+000	0.0000000E+000	0.0000000E+000	7.5323700E+001	0.0000000E+000	0.0000000E+000	0.0000000E+000	-7.5323700E+001	0.0000000E+000	0.0000000E+000	0.0000000E+000	-1.4676302E+001	0.0000000E+000	0.0000000E+000	0.0000000E+000	1.4676302E+001	3.8182063E+000	7.5323700E+001	1.724105476647513E-006	3.9878150E-006	1.7712096E+004
6.8110674E+003	2.5425105E+000	6.8195915E-001	2.6323807E+000	-1.5014622E+001	5.208505154034356E+000	2.6570511E-001	-4.1974708E-003	3.4264671E+001	2.2996721E+000	1.000000000000000E+000	9	5.0963345E-003	1.9360173E-003	0	1.462275242307482E-005	3.6691493E-001	9.8414920E-002	3.7988427E-001	1.5014622E+001	2.2996716E+003	8.5737412E+003	8.8767969E+003	-7.4985382E+001	0.0000000E+000	0.0000000E+000	0.0000000E+000	7.4985382E+001	0.0000000E+000	0.0000000E+000	0.0000000E+000	-7.4985382E+001	0.0000000E+000	0.0000000E+000	0.0000000E+000	-1.5014622E+001	0.0000000E+000	0.0000000E+000	0.0000000E+000	1.5014622E+001	3.7282445E+000	7.4985382E+001	1.598231649673026E-006	-1.1152895E-006	6.3301238E+004
4.6414854E+003	2.6876688E+000	7.4634141E-001	2.7893708E+000	-1.5519494E+001	5.679672483129252E+000	2.6578167E-001	4.1750345E-002	4.5943665E+001	3.2891841E+000	1.000000000000000E+000	9	5.1020388E-003	1.8291003E-003	0	2.114075971191050E-005	3.4543255E-001	9.5923506E-002	3.5850379E-001	1.5519494E+001	3.2891841E+003	1.1844765E+004	1.2292973E+004	-7.4480507E+001	0.0000000E+000	0.0000000E+000	0.0000000E+000	7.4480507E+001	0.0000000E+000	0.0000000E+000	0.0000000E+000	-7.4480507E+001	0.0000000E+000	0.0000000E+000	0.0000000E+000	-1.5519494E+001	0.0000000E+000	0.0000000E+000	0.0000000E+000	1.5519494E+001	3.6011252E+000	7.4480507E+001	6.518007288835684E-006	1.1096477E-005	6.3659756E+003
3.1610117E+003	2.8465462E+000	8.3921456E-001	2.9676769E+000	-1.6426495E+001	6.146709678643674E+000	2.6579121E-001	4.6685956E-002	5.9995819E+001	4.7977080E+000	1.000000000000000E+000	9	5.0701266E-003	1.7084497E-003	0	2.665086313741954E-005	3.2321018E-001	9.5288351E-002	3.3696392E-001	1.6426495E+001	4.7977095E+003	1.6273427E+004	1.6965920E+004	-7.3573502E+001	0.0000000E+000	0.0000000E+000	0.0000000E+000	7.3573502E+001	0.0000000E+000	0.0000000E+000	0.0000000E+000	-7.3573502E+001	0.0000000E+000	0.0000000E+000	0.0000000E+000	-1.6426495E+001	0.0000000E+000	0.0000000E+000	0.0000000E+000	1.6426495E+001	3.3919170E+000	7.3573502E+001	5.510103425509039E-006	1.2408716E-005	5.6931724E+003
2.1556899E+003	3.0144935E+000	9.5376027E-001	3.1617763E+000	-1.7556931E+001	6.613710127487138E+000	2.6579008E-001	4.8082832E-002	7.7409561E+001	7.0438609E+000	1.000000000000000E+000	9	5.0560148E-003	1.5991058E-003	0	3.354076947293813E-005	3.0154496E-001	9.5406272E-002	3.1627792E-001	1.7556931E+001	7.0438613E+003	2.2263115E+004	2.3350852E+004	-7.2443069E+001	0.0000000E+000	0.0000000E+000	0.0000000E+000	7.2443069E+001	0.0000000E+000	0.0000000E+000	0.0000000E+000	-7.2443069E+001	0.0000000E+000	0.0000000E+000	0.0000000E+000	-1.7556931E+001	0.0000000E+000	0.0000000E+000	0.0000000E+000	1.7556931E+001	3.1606407E+000	7.2443069E+001	6.889906335518590E-006	1.2779939E-005	5.5277539E+003
1.4685898E+003	3.2042596E+000	1.1298840E+000	3.3976340E+000	-1.9423637E+001	7.080947962997016E+000	2.6578948E-001	4.5382205E-002	9.5914833E+001	1.0607188E+001	1.000000000000000E+000	9	5.0110961E-003	1.4748782E-003	0	3.914362556703983E-005	2.7757126E-001	9.7877003E-002	2.9432246E-001	1.9423637E+001	1.0607188E+004	3.0081129E+004	3.1896500E+004	-7.0576363E+001	0.0000000E+000	0.0000000E+000	0.0000000E+000	7.0576363E+001	0.0000000E+000	0.0000000E+000	0.0000000E+000	-7.0576363E+001	0.0000000E+000	0.0000000E+000	0.0000000E+000	-1.9423637E+001	0.0000000E+000	0.0000000E+000	0.0000000E+000	1.9423637E+001	2.8359191E+000	7.0576363E+001	5.602856094101701E-006	1.2062113E-005	5.8566895E+003
1.0003202E+003	3.4294927E+000	1.3595239E+000	3.6891363E+000	-2.1624428E+001	7.803670024011808E+000	2.6577777E-001	-7.9941191E-003	1.1702920E+002	1.5893463E+001	1.000000000000000E+000	10	5.0550154E-003	1.3702436E-003	0	3.965853780145213E-005	2.5198838E-001	9.9893555E-002	2.7106616E-001	2.1624428E+001	1.5893463E+004	4.0092355E+004	4.3127707E+004	-6.8375572E+001	0.0000000E+000	0.0000000E+000	0.0000000E+000	6.8375572E+001	0.0000000E+000	0.0000000E+000	0.0000000E+000	-6.8375572E+001	0.0000000E+000	0.0000000E+000	0.0000000E+000	-2.1624428E+001	0.0000000E+000	0.0000000E+000	0.0000000E+000	2.1624428E+001	2.5225689E+000	6.8375572E+001	5.149122344122993E-007	-2.1246592E-006	3.3246660E+004
6.8108978E+002	3.7080255E+000	1.6489801E+000	4.0581508E+000	-2.3974989E+001	8.269456446083495E+000	2.6577890E-001	-8.4413132E-003	1.4170996E+002	2.3397791E+001	1.000000000000000E+000	10	5.0245184E-003	1.2381300E-003	0	3.774860834634940E-005	2.2515745E-001	1.0012881E-001	2.4641766E-001	2.3974989E+001	2.3397793E+004	5.2614098E+004	5.7582113E+004	-6.6025009E+001	0.0000000E+000	0.0000000E+000	0.0000000E+000	6.6025009E+001	0.0000000E+000	0.0000000E+000	0.0000000E+000	-6.6025009E+001	0.0000000E+000	0.0000000E+000	0.0000000E+000	-2.3974989E+001	0.0000000E+000	0.0000000E+000	0.0000000E+000	2.3974989E+001	2.2486780E+000	6.6025009E+001	-1.909929455102731E-006	-2.2435229E-006	3.1485492E+004
4.6396069E+002	4.0595293E+000	2.0246124E+000	4.5363898E+000	-2.6506849E+001	8.738214281707769E+000	2.6577613E-001	-7.8059342E-003	1.6943263E+002	3.3748936E+001	1.000000000000000E+000	10	4.9932562E-003	1.1007114E-003	0	3.728985463840136E-005	1.9726722E-001	9.8383255E-002	2.2043961E-001	2.6506849E+001	3.3748941E+004	6.7669641E+004	7.5618594E+004	-6.3493149E+001	0.0000000E+000	0.0000000E+000	0.0000000E+000	6.3493149E+001	0.0000000E+000	0.0000000E+000	0.0000000E+000	-6.3493149E+001	0.0000000E+000	0.0000000E+000	0.0000000E+000	-2.6506849E+001	0.0000000E+000	0.0000000E+000	0.0000000E+000	2.6506849E+001	2.0050895E+000	6.3493149E+001	-4.587537079480379E-007	-2.0746309E-006	3.4047961E+004
3.1631589E+002	4.5262465E+000	2.4712713E+000	5.1569457E+000	-2.8633961E+001	9.204924090561690E+000	2.6578215E-001	-7.8394776E-003	2.0360045E+002	4.6755688E+001	1.000000000000000E+000	10	4.9720332E-003	9.6414302E-004	0	3.635229275957681E-005	1.7019747E-001	9.2925586E-002	1.9391324E-001	2.8633961E+001	4.6755680E+004	8.5635172E+004	9.7567805E+004	-6.1366039E+001	0.0000000E+000	0.0000000E+000	0.0000000E+000	6.1366039E+001	0.0000000E+000	0.0000000E+000	0.0000000E+000	-6.1366039E+001	0.0000000E+000	0.0000000E+000	0.0000000E+000	-2.8633961E+001	0.0000000E+000	0.0000000E+000	0.0000000E+000	2.8633961E+001	1.8315458E+000	6.1366043E+001	-9.375618788245494E-007	-2.0835932E-006	3.3903043E+004
2.1534457E+002	5.1447930E+000	2.9837296E+000	5.9473977E+000	-3.0111647E+001	9.672446806071093E+000	2.6577118E-001	-8.1618289E-003	2.4770042E+002	6.2343578E+001	1.000000000000000E+000	10	4.9534617E-003	8.3287881E-004	0	3.471566336536651E-005	1.4545009E-001	8.4353969E-002	1.6814077E-001	3.0111647E+001	6.2343578E+004	1.0749794E+005	1.2426797E+005	-5.9888351E+001	0.0000000E+000	0.0000000E+000	0.0000000E+000	5.9888351E+001	0.0000000E+000	0.0000000E+000	0.0000000E+000	-5.9888351E+001	0.0000000E+000	0.0000000E+000	0.0000000E+000	-3.0111647E+001	0.0000000E+000	0.0000000E+000	0.0000000E+000	3.0111647E+001	1.7242826E+000	5.9888351E+001	-1.636629394210309E-006	-2.1691790E-006	3.2562699E+004
1.4673740E+002	5.9623165E+000	3.5255401E+000	6.9266624E+000	-3.0595984E+001	1.013537029470899E+001	2.6577497E-001	-8.1171170E-003	3.0764771E+002	7.9699745E+001	1.000000000000000E+000	10	4.9438043E-003	7.1373541E-004	0	3.386473097918012E-005	1.2427020E-001	7.3481433E-002	1.4436968E-001	3.0595984E+001	7.9699750E+004	1.3478647E+005	1.5658686E+005	-5.9404015E+001	0.0000000E+000	0.0000000E+000	0.0000000E+000	5.9404015E+001	0.0000000E+000	0.0000000E+000	0.0000000E+000	-5.9404015E+001	0.0000000E+000	0.0000000E+000	0.0000000E+000	-3.0595984E+001	0.0000000E+000	0.0000000E+000	0.0000000E+000	3.0595984E+001	1.6911782E+000	5.9404015E+001	-8.509323861863864E-007	-2.1573264E-006	3.2742533E+004
1.0003201E+002	6.9907956E+000	4.0511689E+000	8.0798016E+000	-3.0092308E+001	1.060367061034049E+001	2.6578081E-001	-8.0220895E-003	3.9273608E+002	9.8732491E+001	1.000000000000000E+000	10	4.9390588E-003	6.1128469E-004	0	3.319963099759318E-005	1.0708416E-001	6.2055308E-002	1.2376542E-001	3.0092308E+001	9.8732484E+004	1.7037519E+005	1.9691573E+005	-5.9907692E+001	0.0000000E+000	0.0000000E+000	0.0000000E+000	5.9907692E+001	0.0000000E+000	0.0000000E+000	0.0000000E+000	-5.9907692E+001	0.0000000E+000	0.0000000E+000	0.0000000E+000	-3.0092308E+001	0.0000000E+000	0.0000000E+000	0.0000000E+000	3.0092308E+001	1.7256243E+000	5.9907692E+001	-6.650999815869418E-007	-2.1321175E-006	3.3131121E+004
6.8103981E+001	8.2608871E+000	4.4390235E+000	9.3780165E+000	-2.8251553E+001	1.108232089967350E+001	2.6578259E-001	-6.8202792E-003	5.2645374E+002	1.1795411E+002	1.000000000000000E+000	10	4.9305419E-003	5.2575528E-004	0	3.257454009579993E-005	9.3930088E-002	5.0473738E-002	1.0663236E-001	2.8251553E+001	1.1795411E+005	2.1950902E+005	2.4919345E+005	-6.1748447E+001	0.0000000E+000	0.0000000E+000	0.0000000E+000	6.1748447E+001	0.0000000E+000	0.0000000E+000	0.0000000E+000	-6.1748447E+001	0.0000000E+000	0.0000000E+000	0.0000000E+000	-2.8251553E+001	0.0000000E+000	0.0000000E+000	0.0000000E+000	2.8251553E+001	1.8609694E+000	6.1748444E+001	-6.250909017932490E-007	-1.8127115E-006	3.8969461E+004
4.6441547E+001	9.6965294E+000	4.5937076E+000	1.0729624E+001	-2.5349142E+001	1.153752422795515E+001	2.6577428E-001	-9.0953400E-003	7.4601941E+002	1.3674385E+002	1.000000000000000E+000	10	4.9339626E-003	4.5984489E-004	0	3.135629793589113E-005	8.4226228E-002	3.9901972E-002	9.3199916E-002	2.5349142E+001	1.3674386E+005	2.8864284E+005	3.1939563E+005	-6.4650856E+001	0.0000000E+000	0.0000000E+000	0.0000000E+000	6.4650856E+001	0.0000000E+000	0.0000000E+000	0.0000000E+000	-6.4650856E+001	0.0000000E+000	0.0000000E+000	0.0000000E+000	-2.5349142E+001	0.0000000E+000	0.0000000E+000	0.0000000E+000	2.5349142E+001	2.1108286E+000	6.4650856E+001	-1.218242159908798E-006	-2.4173075E-006	2.9220928E+004
3.1629555E+001	1.1112330E+001	4.4056864E+000	1.1953826E+001	-2.1626757E+001	1.198344155584346E+001	2.6577228E-001	-1.0971664E-002	1.1421245E+003	1.5514107E+002	1.000000000000000E+000	10	4.9277404E-003	4.1223122E-004	0	2.997832269304652E-005	7.7766269E-002	3.0831860E-002	8.3655223E-002	2.1626757E+001	1.5514106E+005	3.9130763E+005	4.2093991E+005	-6.8373245E+001	0.0000000E+000	0.0000000E+000	0.0000000E+000	6.8373245E+001	0.0000000E+000	0.0000000E+000	0.0000000E+000	-6.8373245E+001	0.0000000E+000	0.0000000E+000	0.0000000E+000	-2.1626757E+001	0.0000000E+000	0.0000000E+000	0.0000000E+000	2.1626757E+001	2.5222700E+000	6.8373245E+001	-1.377975242844611E-006	-2.9159644E-006	2.4223516E+004
2.1551722E+001	1.2368190E+001	3.9718270E+000	1.2990286E+001	-1.7803509E+001	1.242232555002556E+001	2.6576206E-001	-1.2665386E-002	1.8592930E+003	1.7381651E+002	1.000000000000000E+000	10	4.9323193E-003	3.7969291E-004	0	2.769231694819367E-005	7.3294051E-002	2.3537096E-002	7.6980598E-002	1.7803509E+001	1.7381655E+005	5.4126119E+005	5.6848556E+005	-7.2196487E+001	0.0000000E+000	0.0000000E+000	0.0000000E+000	7.2196487E+001	0.0000000E+000	0.0000000E+000	0.0000000E+000	-7.2196487E+001	0.0000000E+000	0.0000000E+000	0.0000000E+000	-1.7803509E+001	0.0000000E+000	0.0000000E+000	0.0000000E+000	1.7803509E+001	3.1139801E+000	7.2196487E+001	-2.286005744852851E-006	-3.3659792E-006	2.0983336E+004
1.4685154E+001	1.3385897E+001	3.3881056E+000	1.3808022E+001	-1.4203835E+001	1.316004753173911E+001	2.6580173E-001	-7.6694414E-003	3.1987822E+003	1.9259082E+002	1.000000000000000E+000	11	4.9247122E-003	3.5665586E-004	0	2.981713639293028E-005	7.0207663E-002	1.7770270E-002	7.2421670E-002	1.4203835E+001	1.9259083E+005	7.6089744E+005	7.8489244E+005	-7.5796165E+001	0.0000000E+000	0.0000000E+000	0.0000000E+000	7.5796165E+001	0.0000000E+000	0.0000000E+000	0.0000000E+000	-7.5796165E+001	0.0000000E+000	0.0000000E+000	0.0000000E+000	-1.4203835E+001	0.0000000E+000	0.0000000E+000	0.0000000E+000	1.4203835E+001	3.9508498E+000	7.5796165E+001	2.124819444736610E-006	-2.0385507E-006	3.4657246E+004
1.0003201E+001	1.4089597E+001	2.8702199E+000	1.4378974E+001	-1.1514288E+001	1.362870734068565E+001	2.6580378E-001	-7.8018787E-003	5.5432690E+003	2.2087192E+002	1.000000000000000E+000	11	4.9300417E-003	3.4286463E-004	0	2.991353212749366E-005	6.8146378E-002	1.3882235E-002	6.9545992E-002	1.1514288E+001	2.2087197E+005	1.0842361E+006	1.1065046E+006	-7.8485710E+001	0.0000000E+000	0.0000000E+000	0.0000000E+000	7.8485710E+001	0.0000000E+000	0.0000000E+000	0.0000000E+000	-7.8485710E+001	0.0000000E+000	0.0000000E+000	0.0000000E+000	-1.1514288E+001	0.0000000E+000	0.0000000E+000	0.0000000E+000	1.1514288E+001	4.9088907E+000	7.8485710E+001	9.639573456337816E-008	-2.0737689E-006	3.4069203E+004
