
EC-Lab ASCII FILE
Nb header lines : 63                          

Potentio Electrochemical Impedance Spectroscopy

Run on channel : 4 (SN 66756)
User : 
CE vs. WE compliance from -10 V to 10 V
Electrode connection : standard
Potential control : Ewe
Ewe ctrl range : min = -10.00 V, max = 10.00 V
Safety Limits :
	Do not start on E overload
Acquisition started on : 09/10/2025 16:53:49.045
Loaded Setting File :  C:\Users\Celltest\OneDrive - store-dot.com\Documents\EC-Lab\Data\Charmaine\R279\17382.mps
Saved on :
	File : 17385_C04.mpr
	Directory : C:\Users\Celltest\OneDrive - store-dot.com\Documents\EC-Lab\Data\Charmaine\R279\
	Host : 169.254.61.224
Device : VMP-3e (SN .003165)
Address : USB
EC-LAB for windows v11.62 (software)
Internet server v27.00 (firmware)
Command interpretor v12.03 (firmware)
Electrode material : 
Initial state : 
Electrolyte : 
Comments : 
Electrode surface area : 0.001 cm²
Characteristic mass : 0.001 g
Equivalent Weight : 0.000 g/eq.
Density : 0.000 g/cm3
Volume (V) : 0.001 cm³
Cycle Definition : Charge/Discharge alternance
Mode                Single sine         
E (V)               0.0000              
vs.                 Eoc                 
tE (h:m:s)          0:00:0.0000         
record              0                   
dI                  0.000               
unit dI             mA                  
dt (s)              0.000               
fi                  100.000             
unit fi             kHz                 
ff                  10.000              
unit ff             mHz                 
Nd                  6                   
Points              per decade          
spacing             Logarithmic         
Va (mV)             5.0                 
pw                  0.10                
Na                  2                   
corr                0                   
E range min (V)     -10.000             
E range max (V)     10.000              
I Range             Auto                
Bandwidth           5                   
nc cycles           0                   
goto Ns'            0                   
nr cycles           0                   
inc. cycle          0                   

freq/Hz	Re(Z)/Ohm	-Im(Z)/Ohm	|Z|/Ohm	Phase(Z)/deg	time/s	<Ewe>/V	<I>/mA	Cs/µF	Cp/µF	cycle number	I Range	|Ewe|/V	|I|/A	Ns	(Q-Qo)/mA.h	Re(Y)/Ohm-1	Im(Y)/Ohm-1	|Y|/Ohm-1	Phase(Y)/deg	Re(C)/nF	Im(C)/nF	|C|/nF	Phase(C)/deg	Re(M)	Im(M)	|M|	Phase(M)/deg	Re(Permittivity)	Im(Permittivity)	|Permittivity|	Phase(Permittivity)/deg	Re(Resistivity)/Ohm.cm	Im(Resistivity)/Ohm.cm	|Resistivity|/Ohm.cm	Phase(Resistivity)/deg	Re(Conductivity)/mS/cm	Im(Conductivity)/mS/cm	|Conductivity|/mS/cm	Phase(Conductivity)/deg	Tan(Delta)	Loss Angle(Delta)/deg	dq/mA.h	Pwe/W	Rwe/Ohm	
1.0000371E+005	2.4244742E+000	8.0321372E-001	2.5540609E+000	-1.8329723E+001	2.226475865725661E+000	1.8562742E-001	-9.6453233E-003	1.9814034E+000	1.9596234E-001	1.000000000000000E+000	9	4.9314424E-003	1.9308241E-003	0	-5.695596571947034E-006	3.7166789E-001	1.2313134E-001	3.9153334E-001	1.8329723E+001	1.9596237E+002	5.9150586E+002	6.2312152E+002	-7.1670273E+001	0.0000000E+000	0.0000000E+000	0.0000000E+000	7.1670273E+001	0.0000000E+000	0.0000000E+000	0.0000000E+000	-7.1670273E+001	0.0000000E+000	0.0000000E+000	0.0000000E+000	-1.8329723E+001	0.0000000E+000	0.0000000E+000	0.0000000E+000	1.8329723E+001	3.0184672E+000	7.1670273E+001	-5.695596571947034E-006	-1.7904364E-006	1.9245328E+004
6.8132047E+004	2.5926905E+000	8.9788878E-001	2.7437654E+000	-1.9101759E+001	2.663477059832076E+000	1.8562120E-001	-8.1907297E-003	2.6016335E+000	2.7861038E-001	1.000000000000000E+000	9	5.3098444E-003	1.9352400E-003	0	-8.832770102463352E-006	3.4439492E-001	1.1926927E-001	3.6446264E-001	1.9101759E+001	2.7861041E+002	8.0449896E+002	8.5137671E+002	-7.0898239E+001	0.0000000E+000	0.0000000E+000	0.0000000E+000	7.0898239E+001	0.0000000E+000	0.0000000E+000	0.0000000E+000	-7.0898239E+001	0.0000000E+000	0.0000000E+000	0.0000000E+000	-1.9101759E+001	0.0000000E+000	0.0000000E+000	0.0000000E+000	1.9101759E+001	2.8875408E+000	7.0898239E+001	-3.137173530516318E-006	-1.5203731E-006	2.2662352E+004
4.6420355E+004	2.7972524E+000	9.9202383E-001	2.9679508E+000	-1.9526655E+001	3.100492493918864E+000	1.8563089E-001	-8.3585726E-003	3.4561260E+000	3.8611829E-001	1.000000000000000E+000	9	5.3429427E-003	1.8002127E-003	0	-9.245284748192514E-006	3.1755447E-001	1.1261823E-001	3.3693281E-001	1.9526655E+001	3.8611829E+002	1.0887544E+003	1.1551941E+003	-7.0473343E+001	0.0000000E+000	0.0000000E+000	0.0000000E+000	7.0473343E+001	0.0000000E+000	0.0000000E+000	0.0000000E+000	-7.0473343E+001	0.0000000E+000	0.0000000E+000	0.0000000E+000	-1.9526655E+001	0.0000000E+000	0.0000000E+000	0.0000000E+000	1.9526655E+001	2.8197432E+000	7.0473343E+001	-4.125146457291619E-007	-1.5516092E-006	2.2208443E+004
3.1621139E+004	3.0046961E+000	1.1106752E+000	3.2034042E+000	-2.0286654E+001	3.537482248008018E+000	1.8562303E-001	-1.0167494E-002	4.5316415E+000	5.4476130E-001	1.000000000000000E+000	9	5.3611267E-003	1.6735718E-003	0	-1.451271413031565E-005	2.9280406E-001	1.0823397E-001	3.1216791E-001	2.0286654E+001	5.4476123E+002	1.4737361E+003	1.5711979E+003	-6.9713348E+001	0.0000000E+000	0.0000000E+000	0.0000000E+000	6.9713348E+001	0.0000000E+000	0.0000000E+000	0.0000000E+000	-6.9713348E+001	0.0000000E+000	0.0000000E+000	0.0000000E+000	-2.0286654E+001	0.0000000E+000	0.0000000E+000	0.0000000E+000	2.0286654E+001	2.7052879E+000	6.9713348E+001	-5.267429382123131E-006	-1.8873212E-006	1.8256518E+004
2.1544684E+004	3.2555606E+000	1.2531637E+000	3.4884229E+000	-2.1053223E+001	3.974482855439419E+000	1.8562698E-001	-1.2629122E-002	5.8948426E+000	7.6072830E-001	1.000000000000000E+000	9	5.3753317E-003	1.5409060E-003	0	-1.423043647283016E-005	2.6752695E-001	1.0297920E-001	2.8666249E-001	2.1053223E+001	7.6072821E+002	1.9762756E+003	2.1176338E+003	-6.8946777E+001	0.0000000E+000	0.0000000E+000	0.0000000E+000	6.8946777E+001	0.0000000E+000	0.0000000E+000	0.0000000E+000	-6.8946777E+001	0.0000000E+000	0.0000000E+000	0.0000000E+000	-2.1053223E+001	0.0000000E+000	0.0000000E+000	0.0000000E+000	2.1053223E+001	2.5978734E+000	6.8946777E+001	2.822776574854892E-007	-2.3443058E-006	1.4698329E+004
1.4678594E+004	3.5418324E+000	1.4146968E+000	3.8139145E+000	-2.1773008E+001	4.411493862833595E+000	1.8562505E-001	-8.4891245E-003	7.6642966E+000	1.0545256E+000	1.000000000000000E+000	9	5.3762598E-003	1.4096434E-003	0	-1.673077608598396E-005	2.4349278E-001	9.7257130E-002	2.6219779E-001	2.1773008E+001	1.0545258E+003	2.6401086E+003	2.8429207E+003	-6.8226990E+001	0.0000000E+000	0.0000000E+000	0.0000000E+000	6.8226990E+001	0.0000000E+000	0.0000000E+000	0.0000000E+000	-6.8226990E+001	0.0000000E+000	0.0000000E+000	0.0000000E+000	-2.1773008E+001	0.0000000E+000	0.0000000E+000	0.0000000E+000	2.1773008E+001	2.5035982E+000	6.8226990E+001	-2.500339613153805E-006	-1.5757942E-006	2.1866219E+004
1.0002226E+004	3.8454494E+000	1.6403260E+000	4.1806879E+000	-2.3101295E+001	4.848483510286314E+000	1.8562596E-001	-1.3449668E-002	9.7004814E+000	1.4933382E+000	1.000000000000000E+000	9	5.3362590E-003	1.2764069E-003	0	-1.999960111633280E-005	2.2001465E-001	9.3850084E-002	2.3919508E-001	2.3101295E+001	1.4933380E+003	3.5008628E+003	3.8060608E+003	-6.6898705E+001	0.0000000E+000	0.0000000E+000	0.0000000E+000	6.6898705E+001	0.0000000E+000	0.0000000E+000	0.0000000E+000	-6.6898705E+001	0.0000000E+000	0.0000000E+000	0.0000000E+000	-2.3101295E+001	0.0000000E+000	0.0000000E+000	0.0000000E+000	2.3101295E+001	2.3443203E+000	6.6898705E+001	-3.268825030348835E-006	-2.4966075E-006	1.3801527E+004
6.8110674E+003	4.2155600E+000	1.9300474E+000	4.6363811E+000	-2.4600149E+001	5.610489279817557E+000	1.8562506E-001	-9.8648164E-003	1.2107012E+001	2.0980444E+000	1.000000000000000E+000	10	4.6465397E-003	1.0021911E-003	0	-2.433560853021724E-005	1.9610877E-001	8.9786224E-002	2.1568546E-001	2.4600149E+001	2.0980444E+003	4.5824946E+003	5.0399453E+003	-6.5399849E+001	0.0000000E+000	0.0000000E+000	0.0000000E+000	6.5399849E+001	0.0000000E+000	0.0000000E+000	0.0000000E+000	-6.5399849E+001	0.0000000E+000	0.0000000E+000	0.0000000E+000	-2.4600149E+001	0.0000000E+000	0.0000000E+000	0.0000000E+000	2.4600149E+001	2.1841743E+000	6.5399849E+001	-4.336007413884441E-006	-1.8311572E-006	1.8816879E+004
4.6414854E+003	4.6212807E+000	2.2489958E+000	5.1394763E+000	-2.5950367E+001	6.304680459477822E+000	1.8563482E-001	-7.6006004E-003	1.5246653E+001	2.9195375E+000	1.000000000000000E+000	10	5.1176068E-003	9.9574483E-004	0	-2.546473033688704E-005	1.7495430E-001	8.5143387E-002	1.9457236E-001	2.5950367E+001	2.9195371E+003	5.9991230E+003	6.6718193E+003	-6.4049637E+001	0.0000000E+000	0.0000000E+000	0.0000000E+000	6.4049637E+001	0.0000000E+000	0.0000000E+000	0.0000000E+000	-6.4049637E+001	0.0000000E+000	0.0000000E+000	0.0000000E+000	-2.5950367E+001	0.0000000E+000	0.0000000E+000	0.0000000E+000	2.5950367E+001	2.0548196E+000	6.4049637E+001	-1.129121806669801E-006	-1.4109361E-006	2.4423705E+004
3.1610117E+003	5.0936589E+000	2.6486707E+000	5.7411513E+000	-2.7474148E+001	6.994670492254954E+000	1.8562946E-001	-8.2365982E-003	1.9009296E+001	4.0459824E+000	1.000000000000000E+000	10	5.0641894E-003	8.8208605E-004	0	-2.691085403520588E-005	1.5453678E-001	8.0358155E-002	1.7418109E-001	2.7474148E+001	4.0459827E+003	7.7808301E+003	8.7699082E+003	-6.2525852E+001	0.0000000E+000	0.0000000E+000	0.0000000E+000	6.2525852E+001	0.0000000E+000	0.0000000E+000	0.0000000E+000	-6.2525852E+001	0.0000000E+000	0.0000000E+000	0.0000000E+000	-2.7474148E+001	0.0000000E+000	0.0000000E+000	0.0000000E+000	2.7474148E+001	1.9231001E+000	6.2525848E+001	-1.446123698318843E-006	-1.5289553E-006	2.2537150E+004
2.1556899E+003	5.6667104E+000	3.1782477E+000	6.4971428E+000	-2.9286451E+001	7.461674994432542E+000	1.8563688E-001	-8.0463737E-003	2.3229834E+001	5.5587449E+000	1.000000000000000E+000	10	5.1345523E-003	7.9027849E-004	0	-2.724094835729435E-005	1.3424131E-001	7.5290978E-002	1.5391381E-001	2.9286451E+001	5.5587456E+003	9.9110586E+003	1.1363482E+004	-6.0713547E+001	0.0000000E+000	0.0000000E+000	0.0000000E+000	6.0713547E+001	0.0000000E+000	0.0000000E+000	0.0000000E+000	-6.0713547E+001	0.0000000E+000	0.0000000E+000	0.0000000E+000	-2.9286451E+001	0.0000000E+000	0.0000000E+000	0.0000000E+000	2.9286451E+001	1.7829669E+000	6.0713547E+001	-3.300943220884717E-007	-1.4937037E-006	2.3070875E+004
1.4685898E+003	6.3129930E+000	3.7926705E+000	7.3646607E+000	-3.0996277E+001	7.928923629951896E+000	1.8563132E-001	-7.9139527E-003	2.8574230E+001	7.5780811E+000	1.000000000000000E+000	10	4.9914350E-003	6.7775493E-004	0	-2.845845477912290E-005	1.1639379E-001	6.9926150E-002	1.3578358E-001	3.0996277E+001	7.5780806E+003	1.2613901E+004	1.4715224E+004	-5.9003723E+001	0.0000000E+000	0.0000000E+000	0.0000000E+000	5.9003723E+001	0.0000000E+000	0.0000000E+000	0.0000000E+000	-5.9003723E+001	0.0000000E+000	0.0000000E+000	0.0000000E+000	-3.0996277E+001	0.0000000E+000	0.0000000E+000	0.0000000E+000	3.0996277E+001	1.6645246E+000	5.9003723E+001	-1.217506421828550E-006	-1.4690775E-006	2.3456207E+004
1.0003202E+003	7.1155944E+000	4.5509214E+000	8.4464531E+000	-3.2601768E+001	8.397712852223776E+000	1.8564102E-001	-7.9549896E-003	3.4960831E+001	1.0149197E+001	1.000000000000000E+000	10	4.8619783E-003	5.7562365E-004	0	-2.939453403450898E-005	9.9738404E-002	6.3789710E-002	1.1839289E-001	3.2601768E+001	1.0149198E+004	1.5868780E+004	1.8836783E+004	-5.7398232E+001	0.0000000E+000	0.0000000E+000	0.0000000E+000	5.7398232E+001	0.0000000E+000	0.0000000E+000	0.0000000E+000	-5.7398232E+001	0.0000000E+000	0.0000000E+000	0.0000000E+000	-3.2601768E+001	0.0000000E+000	0.0000000E+000	0.0000000E+000	3.2601768E+001	1.5635502E+000	5.7398232E+001	-9.360792553860768E-007	-1.4767724E-006	2.3336426E+004
6.8108978E+002	8.1369314E+000	5.4902649E+000	9.8159389E+000	-3.4008881E+001	8.863413567625685E+000	1.8562762E-001	-8.1676086E-003	4.2562046E+001	1.3315129E+001	1.000000000000000E+000	10	4.7729830E-003	4.8624826E-004	0	-3.068194411459909E-005	8.4449477E-002	5.6980938E-002	1.0187513E-001	3.4008881E+001	1.3315128E+004	1.9733891E+004	2.3805861E+004	-5.5991119E+001	0.0000000E+000	0.0000000E+000	0.0000000E+000	5.5991119E+001	0.0000000E+000	0.0000000E+000	0.0000000E+000	-5.5991119E+001	0.0000000E+000	0.0000000E+000	0.0000000E+000	-3.4008881E+001	0.0000000E+000	0.0000000E+000	0.0000000E+000	3.4008881E+001	1.4820653E+000	5.5991119E+001	-1.287410080090114E-006	-1.5161338E-006	2.2727291E+004
4.6396069E+002	9.3961220E+000	6.6188116E+000	1.1493293E+001	-3.5161613E+001	9.332216709881322E+000	1.8562441E-001	-8.1265802E-003	5.1827339E+001	1.7188185E+001	1.000000000000000E+000	10	4.7049127E-003	4.0936159E-004	0	-3.148694725813240E-005	7.1131133E-002	5.0106157E-002	8.7007269E-002	3.5161613E+001	1.7188186E+004	2.4400496E+004	2.9846572E+004	-5.4838387E+001	0.0000000E+000	0.0000000E+000	0.0000000E+000	5.4838387E+001	0.0000000E+000	0.0000000E+000	0.0000000E+000	-5.4838387E+001	0.0000000E+000	0.0000000E+000	0.0000000E+000	-3.5161613E+001	0.0000000E+000	0.0000000E+000	0.0000000E+000	3.5161613E+001	1.4196086E+000	5.4838387E+001	-8.050031435333089E-007	-1.5084917E-006	2.2841639E+004
3.1631589E+002	1.1033181E+001	7.9210353E+000	1.3582116E+001	-3.5675644E+001	9.798923692083918E+000	1.8563138E-001	-7.5595966E-003	6.3520977E+001	2.1604599E+001	1.000000000000000E+000	10	4.6680924E-003	3.4369403E-004	0	-3.226905261419920E-005	5.9808906E-002	4.2938519E-002	7.3626228E-002	3.5675644E+001	2.1604600E+004	3.0092967E+004	3.7045180E+004	-5.4324356E+001	0.0000000E+000	0.0000000E+000	0.0000000E+000	5.4324356E+001	0.0000000E+000	0.0000000E+000	0.0000000E+000	-5.4324356E+001	0.0000000E+000	0.0000000E+000	0.0000000E+000	-3.5675644E+001	0.0000000E+000	0.0000000E+000	0.0000000E+000	3.5675644E+001	1.3928964E+000	5.4324356E+001	-7.821053560668005E-007	-1.4032984E-006	2.4555727E+004
2.1534457E+002	1.3198323E+001	9.3429871E+000	1.6170565E+001	-3.5294373E+001	1.026642688762513E+001	1.8563309E-001	-7.4980478E-003	7.9104370E+001	2.6407154E+001	1.000000000000000E+000	10	4.6479250E-003	2.8743120E-004	0	-3.327510250202936E-005	5.0474077E-002	3.5730194E-002	6.1840758E-002	3.5294373E+001	2.6407156E+004	3.7303934E+004	4.5704719E+004	-5.4705627E+001	0.0000000E+000	0.0000000E+000	0.0000000E+000	5.4705627E+001	0.0000000E+000	0.0000000E+000	0.0000000E+000	-5.4705627E+001	0.0000000E+000	0.0000000E+000	0.0000000E+000	-3.5294373E+001	0.0000000E+000	0.0000000E+000	0.0000000E+000	3.5294373E+001	1.4126450E+000	5.4705627E+001	-1.006049887830158E-006	-1.3918858E-006	2.4757523E+004
1.4673740E+002	1.5934295E+001	1.0699663E+001	1.9193346E+001	-3.3880825E+001	1.072936360290623E+001	1.8563014E-001	-7.8337668E-003	1.0136995E+002	3.1502718E+001	1.000000000000000E+000	10	4.6322383E-003	2.4134605E-004	0	-3.429031320171069E-005	4.3254517E-002	2.9044820E-002	5.2101389E-002	3.3880825E+001	3.1502717E+004	4.6914895E+004	5.6510430E+004	-5.6119175E+001	0.0000000E+000	0.0000000E+000	0.0000000E+000	5.6119175E+001	0.0000000E+000	0.0000000E+000	0.0000000E+000	-5.6119175E+001	0.0000000E+000	0.0000000E+000	0.0000000E+000	-3.3880825E+001	0.0000000E+000	0.0000000E+000	0.0000000E+000	3.3880825E+001	1.4892333E+000	5.6119171E+001	-1.015210699681324E-006	-1.4541832E-006	2.3696154E+004
1.0003201E+002	1.9372847E+001	1.1745311E+001	2.2655231E+001	-3.1227468E+001	1.145168617061427E+001	1.8565117E-001	-4.9791359E-003	1.3546173E+002	3.6408993E+001	1.000000000000000E+000	11	4.6440014E-003	2.0498583E-004	0	-3.557114409209317E-005	3.7744738E-002	2.2883765E-002	4.4139914E-002	3.1227468E+001	3.6408992E+004	6.0053395E+004	7.0228375E+004	-5.8772530E+001	0.0000000E+000	0.0000000E+000	0.0000000E+000	5.8772530E+001	0.0000000E+000	0.0000000E+000	0.0000000E+000	-5.8772530E+001	0.0000000E+000	0.0000000E+000	0.0000000E+000	-3.1227468E+001	0.0000000E+000	0.0000000E+000	0.0000000E+000	3.1227468E+001	1.6494112E+000	5.8772530E+001	-1.280830890382479E-006	-9.2438239E-007	3.7285820E+004
6.8103981E+001	2.3183287E+001	1.2119011E+001	2.6159801E+001	-2.7598215E+001	1.193034013998113E+001	1.8564671E-001	-4.7547310E-003	1.9283260E+002	4.1385281E+001	1.000000000000000E+000	11	4.6277037E-003	1.7690133E-004	0	-3.620371545728914E-005	3.3877093E-002	1.7709171E-002	3.8226590E-002	2.7598215E+001	4.1385273E+004	7.9168742E+004	8.9333258E+004	-6.2401787E+001	0.0000000E+000	0.0000000E+000	0.0000000E+000	6.2401787E+001	0.0000000E+000	0.0000000E+000	0.0000000E+000	-6.2401787E+001	0.0000000E+000	0.0000000E+000	0.0000000E+000	-2.7598215E+001	0.0000000E+000	0.0000000E+000	0.0000000E+000	2.7598215E+001	1.9129685E+000	6.2401787E+001	-6.325713651959703E-007	-8.8270019E-007	3.9044629E+004
4.6441547E+001	2.7018286E+001	1.1648145E+001	2.9422220E+001	-2.3321878E+001	1.238556496155798E+001	1.8564309E-001	-5.1455316E-003	2.9420950E+002	4.6112572E+001	1.000000000000000E+000	11	4.6238643E-003	1.5715552E-004	0	-3.676870341202387E-005	3.1210944E-002	1.3455686E-002	3.3987917E-002	2.3321878E+001	4.6112566E+004	1.0695975E+005	1.1647642E+005	-6.6678123E+001	0.0000000E+000	0.0000000E+000	0.0000000E+000	6.6678123E+001	0.0000000E+000	0.0000000E+000	0.0000000E+000	-6.6678123E+001	0.0000000E+000	0.0000000E+000	0.0000000E+000	-2.3321878E+001	0.0000000E+000	0.0000000E+000	0.0000000E+000	2.3321878E+001	2.3195355E+000	6.6678123E+001	-5.649879547347348E-007	-9.5523239E-007	3.6078504E+004
3.1629555E+001	3.0409529E+001	1.0403708E+001	3.2139954E+001	-1.8886843E+001	1.283245919612818E+001	1.8564050E-001	-5.2917781E-003	4.8365860E+002	5.0678608E+001	1.000000000000000E+000	11	4.6189697E-003	1.4371426E-004	0	-3.741823940893503E-005	2.9438740E-002	1.0071581E-002	3.1113923E-002	1.8886843E+001	5.0678605E+004	1.4813111E+005	1.5656036E+005	-7.1113159E+001	0.0000000E+000	0.0000000E+000	0.0000000E+000	7.1113159E+001	0.0000000E+000	0.0000000E+000	0.0000000E+000	-7.1113159E+001	0.0000000E+000	0.0000000E+000	0.0000000E+000	-1.8886843E+001	0.0000000E+000	0.0000000E+000	0.0000000E+000	1.8886843E+001	2.9229512E+000	7.1113159E+001	-6.495359969111550E-007	-9.8236831E-007	3.5080930E+004
2.1551722E+001	3.3036457E+001	8.7186022E+000	3.4167549E+001	-1.4783777E+001	1.327134735035361E+001	1.8563655E-001	-5.5465903E-003	8.4701532E+002	5.5151501E+001	1.000000000000000E+000	11	4.6119923E-003	1.3498166E-004	0	-3.762669623601849E-005	2.8298654E-002	7.4682557E-003	2.9267536E-002	1.4783777E+001	5.5151496E+004	2.0897964E+005	2.1613463E+005	-7.5216225E+001	0.0000000E+000	0.0000000E+000	0.0000000E+000	7.5216225E+001	0.0000000E+000	0.0000000E+000	0.0000000E+000	-7.5216225E+001	0.0000000E+000	0.0000000E+000	0.0000000E+000	-1.4783777E+001	0.0000000E+000	0.0000000E+000	0.0000000E+000	1.4783777E+001	3.7891920E+000	7.5216225E+001	-2.084568270834607E-007	-1.0296499E-006	3.3468590E+004
1.4685154E+001	3.4939743E+001	7.1072707E+000	3.5655281E+001	-1.1497952E+001	1.374905865304754E+001	1.8564481E-001	-4.6640742E-003	1.5248909E+003	6.0589413E+001	1.000000000000000E+000	11	4.6190596E-003	1.2954770E-004	0	-3.828527165350654E-005	2.7483497E-002	5.5905576E-003	2.8046336E-002	1.1497952E+001	6.0589434E+004	2.9786100E+005	3.0396094E+005	-7.8502045E+001	0.0000000E+000	0.0000000E+000	0.0000000E+000	7.8502045E+001	0.0000000E+000	0.0000000E+000	0.0000000E+000	-7.8502045E+001	0.0000000E+000	0.0000000E+000	0.0000000E+000	-1.1497952E+001	0.0000000E+000	0.0000000E+000	0.0000000E+000	1.1497952E+001	4.9160562E+000	7.8502045E+001	-6.585754174880579E-007	-8.6586113E-007	3.9803141E+004
