EC-Lab ASCII FILE
Nb header lines : 64                          

Potentio Electrochemical Impedance Spectroscopy

Run on channel : 5 (SN 65912)
User : 
CE vs. WE compliance from -10 V to 10 V
Electrode connection : standard
Potential control : Ewe
Ewe ctrl range : min = -10.00 V, max = 10.00 V
Safety Limits :
	Do not start on E overload
Acquisition started on : 09/10/2025 16:54:08.534
Technique started on : 09/10/2025 16:54:10.761
Loaded Setting File :  C:\Users\Celltest\OneDrive - store-dot.com\Documents\EC-Lab\Data\Charmaine\R279\17382_C01.mpr
Saved on :
	File : 17387_C05.mpr
	Directory : C:\Users\Celltest\OneDrive - store-dot.com\Documents\EC-Lab\Data\Charmaine\R279\
	Host : 169.254.61.224
Device : VMP-3e (SN .003165)
Address : USB
EC-LAB for windows v11.62 (software)
Internet server v27.00 (firmware)
Command interpretor v12.03 (firmware)
Electrode material : 
Initial state : 
Electrolyte : 
Comments : 
Electrode surface area : 0.001 cm²
Characteristic mass : 0.001 g
Equivalent Weight : 0.000 g/eq.
Density : 0.000 g/cm3
Volume (V) : 0.001 cm³
Cycle Definition : Charge/Discharge alternance
Mode                Single sine         
E (V)               0.0000              
vs.                 Eoc                 
tE (h:m:s)          0:00:0.0000         
record              0                   
dI                  0.000               
unit dI             mA                  
dt (s)              0.000               
fi                  100.000             
unit fi             kHz                 
ff                  10.000              
unit ff             mHz                 
Nd                  6                   
Points              per decade          
spacing             Logarithmic         
Va (mV)             5.0                 
pw                  0.10                
Na                  2                   
corr                0                   
E range min (V)     -10.000             
E range max (V)     10.000              
I Range             Auto                
Bandwidth           5                   
nc cycles           0                   
goto Ns'            0                   
nr cycles           0                   
inc. cycle          0                   

freq/Hz	Re(Z)/Ohm	-Im(Z)/Ohm	|Z|/Ohm	Phase(Z)/deg	time/s	<Ewe>/V	<I>/mA	Cs/µF	Cp/µF	cycle number	I Range	|Ewe|/V	|I|/A	Ns	(Q-Qo)/mA.h	Re(Y)/Ohm-1	Im(Y)/Ohm-1	|Y|/Ohm-1	Phase(Y)/deg	Re(C)/nF	Im(C)/nF	|C|/nF	Phase(C)/deg	Re(M)	Im(M)	|M|	Phase(M)/deg	Re(Permittivity)	Im(Permittivity)	|Permittivity|	Phase(Permittivity)/deg	Re(Resistivity)/Ohm.cm	Im(Resistivity)/Ohm.cm	|Resistivity|/Ohm.cm	Phase(Resistivity)/deg	Re(Conductivity)/mS/cm	Im(Conductivity)/mS/cm	|Conductivity|/mS/cm	Phase(Conductivity)/deg	Tan(Delta)	Loss Angle(Delta)/deg	dq/mA.h	Pwe/W	Rwe/Ohm	
1.0000371E+005	1.5784376E+000	3.9317912E-001	1.6266699E+000	-1.3987370E+001	2.227485785755562E+000	2.6109967E-001	-2.4078434E-002	4.0477486E+000	2.3648064E-001	1.000000000000000E+000	9	4.9076481E-003	3.0169908E-003	0	-1.263008747337800E-005	5.9652489E-001	1.4859068E-001	6.1475289E-001	1.3987370E+001	2.3648059E+002	9.4936365E+002	9.7837335E+002	-7.6012634E+001	0.0000000E+000	0.0000000E+000	0.0000000E+000	7.6012634E+001	0.0000000E+000	0.0000000E+000	0.0000000E+000	-7.6012634E+001	0.0000000E+000	0.0000000E+000	0.0000000E+000	-1.3987370E+001	0.0000000E+000	0.0000000E+000	0.0000000E+000	1.3987370E+001	4.0145507E+000	7.6012634E+001	-1.263008747337800E-005	-6.2868712E-006	1.0843715E+004
6.8132047E+004	1.6758238E+000	4.2771757E-001	1.7295455E+000	-1.4317830E+001	2.665491299907444E+000	2.6108789E-001	-2.4860471E-002	5.4614954E+000	3.3401179E-001	1.000000000000000E+000	9	5.3298110E-003	3.0816253E-003	0	-1.706895109656681E-005	5.6022739E-001	1.4298587E-001	5.7818657E-001	1.4317830E+001	3.3401184E+002	1.3086788E+003	1.3506310E+003	-7.5682167E+001	0.0000000E+000	0.0000000E+000	0.0000000E+000	7.5682167E+001	0.0000000E+000	0.0000000E+000	0.0000000E+000	-7.5682167E+001	0.0000000E+000	0.0000000E+000	0.0000000E+000	-1.4317830E+001	0.0000000E+000	0.0000000E+000	0.0000000E+000	1.4317830E+001	3.9180617E+000	7.5682167E+001	-4.438863623188810E-006	-6.4907681E-006	1.0502130E+004
4.6420355E+004	1.7781868E+000	4.6741372E-001	1.8385929E+000	-1.4727585E+001	3.102484227303648E+000	2.6108828E-001	-1.7561471E-002	7.3351703E+000	4.7406948E-001	1.000000000000000E+000	9	5.3733247E-003	2.9225200E-003	0	-1.877407896998921E-005	5.2602476E-001	1.3827074E-001	5.4389417E-001	1.4727585E+001	4.7406946E+002	1.8035073E+003	1.8647736E+003	-7.5272415E+001	0.0000000E+000	0.0000000E+000	0.0000000E+000	7.5272415E+001	0.0000000E+000	0.0000000E+000	0.0000000E+000	-7.5272415E+001	0.0000000E+000	0.0000000E+000	0.0000000E+000	-1.4727585E+001	0.0000000E+000	0.0000000E+000	0.0000000E+000	1.4727585E+001	3.8043103E+000	7.5272415E+001	-1.705127873422396E-006	-4.5850943E-006	1.4867107E+004
3.1621139E+004	1.8974593E+000	5.0381410E-001	1.9632066E+000	-1.4870082E+001	3.539494248077972E+000	2.6107848E-001	-1.7710429E-002	9.9901571E+000	6.5793186E-001	1.000000000000000E+000	9	5.3765052E-003	2.7386344E-003	0	-2.623354153657824E-005	4.9231201E-001	1.3071887E-001	5.0937074E-001	1.4870082E+001	6.5793170E+002	2.4778960E+003	2.5637556E+003	-7.5129921E+001	0.0000000E+000	0.0000000E+000	0.0000000E+000	7.5129921E+001	0.0000000E+000	0.0000000E+000	0.0000000E+000	-7.5129921E+001	0.0000000E+000	0.0000000E+000	0.0000000E+000	-1.4870082E+001	0.0000000E+000	0.0000000E+000	0.0000000E+000	1.4870082E+001	3.7661893E+000	7.5129921E+001	-7.459462566589030E-006	-4.6238119E-006	1.4741511E+004
2.1544684E+004	2.0153620E+000	5.4034221E-001	2.0865412E+000	-1.5008688E+001	3.977481602254556E+000	2.6108050E-001	-2.0149633E-002	1.3671342E+001	9.1684306E-001	1.000000000000000E+000	9	5.3729620E-003	2.5750566E-003	0	-2.850090138825019E-005	4.6291277E-001	1.2411235E-001	4.7926205E-001	1.5008688E+001	9.1684308E+002	3.4196304E+003	3.5404058E+003	-7.4991310E+001	0.0000000E+000	0.0000000E+000	0.0000000E+000	7.4991310E+001	0.0000000E+000	0.0000000E+000	0.0000000E+000	-7.4991310E+001	0.0000000E+000	0.0000000E+000	0.0000000E+000	-1.5008688E+001	0.0000000E+000	0.0000000E+000	0.0000000E+000	1.5008688E+001	3.7297883E+000	7.4991310E+001	-2.267359851671953E-006	-5.2606765E-006	1.2957085E+004
1.4678594E+004	2.1469207E+000	5.7845116E-001	2.2234824E+000	-1.5079288E+001	4.414487329631811E+000	2.6107952E-001	-2.2086110E-002	1.8744289E+001	1.2686300E+000	1.000000000000000E+000	9	5.3480132E-003	2.4052421E-003	0	-3.313475119948594E-005	4.3425879E-001	1.1700362E-001	4.4974497E-001	1.5079288E+001	1.2686298E+003	4.7085190E+003	4.8764302E+003	-7.4920715E+001	0.0000000E+000	0.0000000E+000	0.0000000E+000	7.4920715E+001	0.0000000E+000	0.0000000E+000	0.0000000E+000	-7.4920715E+001	0.0000000E+000	0.0000000E+000	0.0000000E+000	-1.5079288E+001	0.0000000E+000	0.0000000E+000	0.0000000E+000	1.5079288E+001	3.7114987E+000	7.4920715E+001	-4.633849811235753E-006	-5.7662310E-006	1.1820982E+004
1.0002226E+004	2.2810819E+000	6.3063151E-001	2.3666496E+000	-1.5454077E+001	4.852477670443477E+000	2.6107410E-001	-2.2384040E-002	2.5231777E+001	1.7915595E+000	1.000000000000000E+000	9	5.3467755E-003	2.2592172E-003	0	-3.270175182700364E-005	4.0726110E-001	1.1259205E-001	4.2253825E-001	1.5454077E+001	1.7915596E+003	6.4803193E+003	6.7234087E+003	-7.4545921E+001	0.0000000E+000	0.0000000E+000	0.0000000E+000	7.4545921E+001	0.0000000E+000	0.0000000E+000	0.0000000E+000	-7.4545921E+001	0.0000000E+000	0.0000000E+000	0.0000000E+000	-1.5454077E+001	0.0000000E+000	0.0000000E+000	0.0000000E+000	1.5454077E+001	3.6171391E+000	7.4545921E+001	4.329993724823029E-007	-5.8438932E-006	1.1663403E+004
6.8110674E+003	2.4242299E+000	6.8783355E-001	2.5199218E+000	-1.5840379E+001	5.407508656819118E+000	2.6104707E-001	-4.9773932E-002	3.3972038E+001	2.5311284E+000	1.000000000000000E+000	9	5.2076587E-003	2.0665955E-003	0	-4.303457278747940E-005	3.8176814E-001	1.0832015E-001	3.9683771E-001	1.5840379E+001	2.5311282E+003	8.9208174E+003	9.2729492E+003	-7.4159622E+001	0.0000000E+000	0.0000000E+000	0.0000000E+000	7.4159622E+001	0.0000000E+000	0.0000000E+000	0.0000000E+000	-7.4159622E+001	0.0000000E+000	0.0000000E+000	0.0000000E+000	-1.5840379E+001	0.0000000E+000	0.0000000E+000	0.0000000E+000	1.5840379E+001	3.5244427E+000	7.4159622E+001	-1.033282096047576E-005	-1.2993339E-005	5.2446543E+003
4.6414854E+003	2.5717735E+000	7.7152824E-001	2.6850092E+000	-1.6699167E+001	6.101713303170982E+000	2.6107293E-001	-2.2588871E-002	4.4443813E+001	3.6696396E+000	1.000000000000000E+000	9	5.1476955E-003	1.9171984E-003	0	-4.615793447374987E-005	3.5673124E-001	1.0701885E-001	3.7243819E-001	1.6699167E+001	3.6696394E+003	1.2232192E+004	1.2770778E+004	-7.3300835E+001	0.0000000E+000	0.0000000E+000	0.0000000E+000	7.3300835E+001	0.0000000E+000	0.0000000E+000	0.0000000E+000	-7.3300835E+001	0.0000000E+000	0.0000000E+000	0.0000000E+000	-1.6699167E+001	0.0000000E+000	0.0000000E+000	0.0000000E+000	1.6699167E+001	3.3333497E+000	7.3300835E+001	-3.123361686270476E-006	-5.8973428E-006	1.1557591E+004
3.1610117E+003	2.7308574E+000	8.7644845E-001	2.8680558E+000	-1.7793648E+001	6.791698615947098E+000	2.6107767E-001	-2.6834209E-002	5.7447041E+001	5.3646970E+000	1.000000000000000E+000	9	5.1695704E-003	1.8024651E-003	0	-5.279789991455618E-005	3.3198911E-001	1.0654944E-001	3.4866825E-001	1.7793648E+001	5.3646973E+003	1.6715441E+004	1.7555227E+004	-7.2206352E+001	0.0000000E+000	0.0000000E+000	0.0000000E+000	7.2206352E+001	0.0000000E+000	0.0000000E+000	0.0000000E+000	-7.2206352E+001	0.0000000E+000	0.0000000E+000	0.0000000E+000	-1.7793648E+001	0.0000000E+000	0.0000000E+000	0.0000000E+000	1.7793648E+001	3.1158221E+000	7.2206352E+001	-6.639965440806308E-006	-7.0058127E-006	9.7292852E+003
2.1556899E+003	2.8952098E+000	1.0065969E+000	3.0652041E+000	-1.9171371E+001	7.258711784794286E+000	2.6107290E-001	-2.2402668E-002	7.3346306E+001	7.9098930E+000	1.000000000000000E+000	9	5.3692642E-003	1.7516824E-003	0	-5.518881725341392E-005	3.0814931E-001	1.0713633E-001	3.2624254E-001	1.9171371E+001	7.9098931E+003	2.2750715E+004	2.4086541E+004	-7.0828629E+001	0.0000000E+000	0.0000000E+000	0.0000000E+000	7.0828629E+001	0.0000000E+000	0.0000000E+000	0.0000000E+000	-7.0828629E+001	0.0000000E+000	0.0000000E+000	0.0000000E+000	-1.9171371E+001	0.0000000E+000	0.0000000E+000	0.0000000E+000	1.9171371E+001	2.8762355E+000	7.0828629E+001	-2.390917338857744E-006	-5.8487299E-006	1.1653652E+004
1.4685898E+003	3.0916100E+000	1.1891074E+000	3.3124053E+000	-2.1037941E+001	7.725954846973764E+000	2.6107734E-001	-2.2253711E-002	9.1137802E+001	1.1745020E+001	1.000000000000000E+000	9	5.3903745E-003	1.6273294E-003	0	-5.755231841152999E-005	2.8177193E-001	1.0837625E-001	3.0189541E-001	2.1037941E+001	1.1745020E+004	3.0536365E+004	3.2717199E+004	-6.8962059E+001	0.0000000E+000	0.0000000E+000	0.0000000E+000	6.8962059E+001	0.0000000E+000	0.0000000E+000	0.0000000E+000	-6.8962059E+001	0.0000000E+000	0.0000000E+000	0.0000000E+000	-2.1037941E+001	0.0000000E+000	0.0000000E+000	0.0000000E+000	2.1037941E+001	2.5999417E+000	6.8962059E+001	-2.363501158116069E-006	-5.8099399E-006	1.1731856E+004
1.0003202E+003	3.2991836E+000	1.4324670E+000	3.5967450E+000	-2.3469921E+001	8.448687467978743E+000	2.6107708E-001	-1.2192576E-002	1.1106992E+002	1.7617586E+001	1.000000000000000E+000	10	5.4081455E-003	1.5036222E-003	0	-6.277841913105093E-005	2.5502762E-001	1.1073001E-001	2.7802917E-001	2.3469921E+001	1.7617588E+004	4.0575910E+004	4.4235551E+004	-6.6530075E+001	0.0000000E+000	0.0000000E+000	0.0000000E+000	6.6530075E+001	0.0000000E+000	0.0000000E+000	0.0000000E+000	-6.6530075E+001	0.0000000E+000	0.0000000E+000	0.0000000E+000	-2.3469921E+001	0.0000000E+000	0.0000000E+000	0.0000000E+000	2.3469921E+001	2.3031480E+000	6.6530075E+001	-5.226100719520933E-006	-3.1832021E-006	2.1412791E+004
6.8108978E+002	3.5757806E+000	1.7552274E+000	3.9833441E+000	-2.6144831E+001	8.914422450034181E+000	2.6107875E-001	-1.2812522E-002	1.3313197E+002	2.5849583E+001	1.000000000000000E+000	10	5.3402856E-003	1.3406539E-003	0	-6.538361603803464E-005	2.2535916E-001	1.1062104E-001	2.5104535E-001	2.6144831E+001	2.5849582E+004	5.2661230E+004	5.8663500E+004	-6.3855171E+001	0.0000000E+000	0.0000000E+000	0.0000000E+000	6.3855171E+001	0.0000000E+000	0.0000000E+000	0.0000000E+000	-6.3855171E+001	0.0000000E+000	0.0000000E+000	0.0000000E+000	-2.6144831E+001	0.0000000E+000	0.0000000E+000	0.0000000E+000	2.6144831E+001	2.0372179E+000	6.3855171E+001	-2.605196906983712E-006	-3.3450772E-006	2.0376842E+004
4.6396069E+002	3.9323130E+000	2.1850739E+000	4.4986258E+000	-2.9059675E+001	9.383216818998335E+000	2.6108253E-001	-1.2237246E-002	1.5699030E+002	3.7037811E+001	1.000000000000000E+000	10	5.2716248E-003	1.1718300E-003	0	-6.644227218101473E-005	1.9430697E-001	1.0797082E-001	2.2229011E-001	2.9059675E+001	3.7037813E+004	6.6654164E+004	7.6253375E+004	-6.0940323E+001	0.0000000E+000	0.0000000E+000	0.0000000E+000	6.0940323E+001	0.0000000E+000	0.0000000E+000	0.0000000E+000	-6.0940323E+001	0.0000000E+000	0.0000000E+000	0.0000000E+000	-2.9059675E+001	0.0000000E+000	0.0000000E+000	0.0000000E+000	2.9059675E+001	1.7996247E+000	6.0940323E+001	-1.058656142980093E-006	-3.1949312E-006	2.1335072E+004
3.1631589E+002	4.4248567E+000	2.7031050E+000	5.1851840E+000	-3.1420380E+001	9.849923694506288E+000	2.6108804E-001	-1.1982199E-002	1.8613850E+002	5.0586391E+001	1.000000000000000E+000	10	5.2203643E-003	1.0067847E-003	0	-6.799056338939570E-005	1.6457766E-001	1.0053900E-001	1.9285719E-001	3.1420380E+001	5.0586387E+004	8.2807563E+004	9.7036461E+004	-5.8579620E+001	0.0000000E+000	0.0000000E+000	0.0000000E+000	5.8579620E+001	0.0000000E+000	0.0000000E+000	0.0000000E+000	-5.8579620E+001	0.0000000E+000	0.0000000E+000	0.0000000E+000	-3.1420380E+001	0.0000000E+000	0.0000000E+000	0.0000000E+000	3.1420380E+001	1.6369534E+000	5.8579620E+001	-1.548291208380970E-006	-3.1284089E-006	2.1789660E+004
2.1534457E+002	5.1012917E+000	3.3207948E+000	6.0869412E+000	-3.3062977E+001	1.031744561003870E+001	2.6107493E-001	-1.2079014E-002	2.2255850E+002	6.6241486E+001	1.000000000000000E+000	10	5.1793838E-003	8.5090089E-004	0	-7.017194430604124E-005	1.3768350E-001	8.9628026E-002	1.6428612E-001	3.3062977E+001	6.6241484E+004	1.0175790E+005	1.2141913E+005	-5.6937023E+001	0.0000000E+000	0.0000000E+000	0.0000000E+000	5.6937023E+001	0.0000000E+000	0.0000000E+000	0.0000000E+000	-5.6937023E+001	0.0000000E+000	0.0000000E+000	0.0000000E+000	-3.3062977E+001	0.0000000E+000	0.0000000E+000	0.0000000E+000	3.3062977E+001	1.5361658E+000	5.6937027E+001	-2.181380916645541E-006	-3.1535276E-006	2.1613928E+004
1.4673740E+002	6.0182023E+000	3.9787655E+000	7.2145224E+000	-3.3469566E+001	1.078037256535026E+001	2.6107600E-001	-1.1861208E-002	2.7260321E+002	8.2911064E+001	1.000000000000000E+000	10	5.1591317E-003	7.1510370E-004	0	-7.153004370759785E-005	1.1562496E-001	7.6442204E-002	1.3860932E-001	3.3469566E+001	8.2911063E+004	1.2540963E+005	1.5033902E+005	-5.6530434E+001	0.0000000E+000	0.0000000E+000	0.0000000E+000	5.6530434E+001	0.0000000E+000	0.0000000E+000	0.0000000E+000	-5.6530434E+001	0.0000000E+000	0.0000000E+000	0.0000000E+000	-3.3469566E+001	0.0000000E+000	0.0000000E+000	0.0000000E+000	3.3469566E+001	1.5125803E+000	5.6530434E+001	-1.358099401556603E-006	-3.0966767E-006	2.2010912E+004
1.0003201E+002	7.1989317E+000	4.5919919E+000	8.5387945E+000	-3.2532635E+001	1.124870173430827E+001	2.6108301E-001	-1.1950572E-002	3.4648148E+002	1.0020494E+002	1.000000000000000E+000	10	5.1452015E-003	6.0256768E-004	0	-7.273124865543407E-005	9.8735861E-002	6.2980771E-002	1.1711255E-001	3.2532635E+001	1.0020494E+005	1.5709272E+005	1.8633077E+005	-5.7467365E+001	0.0000000E+000	0.0000000E+000	0.0000000E+000	5.7467365E+001	0.0000000E+000	0.0000000E+000	0.0000000E+000	-5.7467365E+001	0.0000000E+000	0.0000000E+000	0.0000000E+000	-3.2532635E+001	0.0000000E+000	0.0000000E+000	0.0000000E+000	3.2532635E+001	1.5677143E+000	5.7467361E+001	-1.201204947836226E-006	-3.1200914E-006	2.1846904E+004
6.8103981E+001	8.6329088E+000	5.0638394E+000	1.0008475E+001	-3.0394775E+001	1.172734762364416E+001	2.6108050E-001	-1.1868658E-002	4.6149573E+002	1.1813857E+002	1.000000000000000E+000	10	5.1311404E-003	5.1267951E-004	0	-7.404192151433381E-005	8.6182937E-002	5.0552666E-002	9.9915318E-002	3.0394775E+001	1.1813855E+005	2.0140438E+005	2.3349613E+005	-5.9605225E+001	0.0000000E+000	0.0000000E+000	0.0000000E+000	5.9605225E+001	0.0000000E+000	0.0000000E+000	0.0000000E+000	-5.9605225E+001	0.0000000E+000	0.0000000E+000	0.0000000E+000	-3.0394775E+001	0.0000000E+000	0.0000000E+000	0.0000000E+000	3.0394775E+001	1.7048149E+000	5.9605225E+001	-1.310672858899741E-006	-3.0986753E-006	2.1997475E+004
4.6441547E+001	1.0268621E+001	5.2484565E+000	1.1532167E+001	-2.7072300E+001	1.218252089861198E+001	2.6108196E-001	-1.2207489E-002	6.5295294E+002	1.3524561E+002	1.000000000000000E+000	10	5.1298765E-003	4.4483194E-004	0	-7.561640820538418E-005	7.7212974E-002	3.9464783E-002	8.6713970E-002	2.7072300E+001	1.3524559E+005	2.6460847E+005	2.9716831E+005	-6.2927700E+001	0.0000000E+000	0.0000000E+000	0.0000000E+000	6.2927700E+001	0.0000000E+000	0.0000000E+000	0.0000000E+000	-6.2927700E+001	0.0000000E+000	0.0000000E+000	0.0000000E+000	-2.7072300E+001	0.0000000E+000	0.0000000E+000	0.0000000E+000	2.7072300E+001	1.9565032E+000	6.2927704E+001	-1.574486691050371E-006	-3.1871552E-006	2.1387031E+004
3.1629555E+001	1.1934841E+001	5.0850015E+000	1.2972960E+001	-2.3077089E+001	1.262843923977925E+001	2.6107311E-001	-1.2276374E-002	9.8954596E+002	1.5203375E+002	1.000000000000000E+000	10	5.1265368E-003	3.9517097E-004	0	-7.718798820813471E-005	7.0915073E-002	3.0214330E-002	7.7083416E-002	2.3077089E+001	1.5203375E+005	3.5683350E+005	3.8787163E+005	-6.6922913E+001	0.0000000E+000	0.0000000E+000	0.0000000E+000	6.6922913E+001	0.0000000E+000	0.0000000E+000	0.0000000E+000	-6.6922913E+001	0.0000000E+000	0.0000000E+000	0.0000000E+000	-2.3077089E+001	0.0000000E+000	0.0000000E+000	0.0000000E+000	2.3077089E+001	2.3470674E+000	6.6922913E+001	-1.571580002750528E-006	-3.2050311E-006	2.1266305E+004
2.1551722E+001	1.3386367E+001	4.5750675E+000	1.4146592E+001	-1.8868921E+001	1.306736435394851E+001	2.6107189E-001	-1.3188613E-002	1.6141379E+003	1.6882315E+002	1.000000000000000E+000	10	5.1170676E-003	3.6171734E-004	0	-7.956254695864886E-005	6.6889673E-002	2.2860926E-002	7.0688404E-002	1.8868921E+001	1.6882311E+005	4.9396619E+005	5.2201900E+005	-7.1131081E+001	0.0000000E+000	0.0000000E+000	0.0000000E+000	7.1131081E+001	0.0000000E+000	0.0000000E+000	0.0000000E+000	-7.1131081E+001	0.0000000E+000	0.0000000E+000	0.0000000E+000	-1.8868921E+001	0.0000000E+000	0.0000000E+000	0.0000000E+000	1.8868921E+001	2.9259386E+000	7.1131081E+001	-2.374558750514147E-006	-3.4431760E-006	1.9795250E+004
1.4685154E+001	1.4555157E+001	3.9434130E+000	1.5079890E+001	-1.5159171E+001	1.380405172231258E+001	2.6108414E-001	-8.2201045E-003	2.7483330E+003	1.8793927E+002	1.000000000000000E+000	11	5.1239198E-003	3.3978495E-004	0	-7.797902881128862E-005	6.4005978E-002	1.7341072E-002	6.6313483E-002	1.5159171E+001	1.8793928E+005	6.9368475E+005	7.1869306E+005	-7.4840828E+001	0.0000000E+000	0.0000000E+000	0.0000000E+000	7.4840828E+001	0.0000000E+000	0.0000000E+000	0.0000000E+000	-7.4840828E+001	0.0000000E+000	0.0000000E+000	0.0000000E+000	-1.5159171E+001	0.0000000E+000	0.0000000E+000	0.0000000E+000	1.5159171E+001	3.6910050E+000	7.4840828E+001	1.583518147360238E-006	-2.1461390E-006	3.1761656E+004
