EC-Lab ASCII FILE
Nb header lines : 64                          

Potentio Electrochemical Impedance Spectroscopy

Run on channel : 2 (SN 66139)
User : 
CE vs. WE compliance from -10 V to 10 V
Electrode connection : standard
Potential control : Ewe
Ewe ctrl range : min = -10.00 V, max = 10.00 V
Safety Limits :
	Do not start on E overload
Acquisition started on : 09/11/2025 15:38:18.426
Technique started on : 09/11/2025 15:38:20.492
Loaded Setting File :  C:\Users\Celltest\OneDrive - store-dot.com\Documents\EC-Lab\Data\Charmaine\R279\17382_C01.mpr
Saved on :
	File : 17386_C02.mpr
	Directory : C:\Users\Celltest\OneDrive - store-dot.com\Documents\EC-Lab\Data\Charmaine\R279\
	Host : 169.254.61.224
Device : VMP-3e (SN .003165)
Address : USB
EC-LAB for windows v11.62 (software)
Internet server v27.00 (firmware)
Command interpretor v12.03 (firmware)
Electrode material : 
Initial state : 
Electrolyte : 
Comments : 
Electrode surface area : 0.001 cm²
Characteristic mass : 0.001 g
Equivalent Weight : 0.000 g/eq.
Density : 0.000 g/cm3
Volume (V) : 0.001 cm³
Cycle Definition : Charge/Discharge alternance
Mode                Single sine         
E (V)               0.0000              
vs.                 Eoc                 
tE (h:m:s)          0:00:0.0000         
record              0                   
dI                  0.000               
unit dI             mA                  
dt (s)              0.000               
fi                  100.000             
unit fi             kHz                 
ff                  10.000              
unit ff             mHz                 
Nd                  6                   
Points              per decade          
spacing             Logarithmic         
Va (mV)             5.0                 
pw                  0.10                
Na                  2                   
corr                0                   
E range min (V)     -10.000             
E range max (V)     10.000              
I Range             Auto                
Bandwidth           5                   
nc cycles           0                   
goto Ns'            0                   
nr cycles           0                   
inc. cycle          0                   

freq/Hz	Re(Z)/Ohm	-Im(Z)/Ohm	|Z|/Ohm	Phase(Z)/deg	time/s	<Ewe>/V	<I>/mA	Cs/µF	Cp/µF	cycle number	I Range	|Ewe|/V	|I|/A	Ns	(Q-Qo)/mA.h	Re(Y)/Ohm-1	Im(Y)/Ohm-1	|Y|/Ohm-1	Phase(Y)/deg	Re(C)/nF	Im(C)/nF	|C|/nF	Phase(C)/deg	Re(M)	Im(M)	|M|	Phase(M)/deg	Re(Permittivity)	Im(Permittivity)	|Permittivity|	Phase(Permittivity)/deg	Re(Resistivity)/Ohm.cm	Im(Resistivity)/Ohm.cm	|Resistivity|/Ohm.cm	Phase(Resistivity)/deg	Re(Conductivity)/mS/cm	Im(Conductivity)/mS/cm	|Conductivity|/mS/cm	Phase(Conductivity)/deg	Tan(Delta)	Loss Angle(Delta)/deg	dq/mA.h	Pwe/W	Rwe/Ohm	
1.0000371E+005	1.9737412E+000	7.8454596E-001	2.1239507E+000	-2.1677416E+001	2.066490844794316E+000	1.8809630E-001	-1.8881401E-002	2.0285494E+000	2.7677923E-001	1.000000000000000E+000	9	4.6908413E-003	2.2085453E-003	0	-8.782153441117973E-006	4.3752345E-001	1.7391199E-001	4.7082072E-001	2.1677416E+001	2.7677924E+002	6.9631439E+002	7.4930664E+002	-6.8322586E+001	0.0000000E+000	0.0000000E+000	0.0000000E+000	6.8322586E+001	0.0000000E+000	0.0000000E+000	0.0000000E+000	-6.8322586E+001	0.0000000E+000	0.0000000E+000	0.0000000E+000	-2.1677416E+001	0.0000000E+000	0.0000000E+000	0.0000000E+000	2.1677416E+001	2.5157750E+000	6.8322586E+001	-8.782153441117973E-006	-3.5515216E-006	9.9619883E+003
6.8132047E+004	2.1568246E+000	8.5729784E-001	2.3209593E+000	-2.1676905E+001	2.645480178965954E+000	1.8809055E-001	-1.8136485E-002	2.7248147E+000	3.7176231E-001	1.000000000000000E+000	9	5.0721765E-003	2.1853794E-003	0	-4.828496095090587E-006	4.0038681E-001	1.5914635E-001	4.3085632E-001	2.1676905E+001	3.7176233E+002	9.3529474E+002	1.0064708E+003	-6.8323097E+001	0.0000000E+000	0.0000000E+000	0.0000000E+000	6.8323097E+001	0.0000000E+000	0.0000000E+000	0.0000000E+000	-6.8323097E+001	0.0000000E+000	0.0000000E+000	0.0000000E+000	-2.1676905E+001	0.0000000E+000	0.0000000E+000	0.0000000E+000	2.1676905E+001	2.5158405E+000	6.8323097E+001	3.953657346027385E-006	-3.4113013E-006	1.0370838E+004
4.6420355E+004	2.3592892E+000	9.4509000E-001	2.5415430E+000	-2.1830175E+001	3.224500499811256E+000	1.8808825E-001	-2.2773612E-002	3.6277599E+000	5.0163740E-001	1.000000000000000E+000	9	5.1190169E-003	2.0141373E-003	0	-1.063043139784390E-005	3.6524665E-001	1.4631143E-001	3.9346176E-001	2.1830175E+001	5.0163742E+002	1.2522698E+003	1.3490070E+003	-6.8169823E+001	0.0000000E+000	0.0000000E+000	0.0000000E+000	6.8169823E+001	0.0000000E+000	0.0000000E+000	0.0000000E+000	-6.8169823E+001	0.0000000E+000	0.0000000E+000	0.0000000E+000	-2.1830175E+001	0.0000000E+000	0.0000000E+000	0.0000000E+000	2.1830175E+001	2.4963646E+000	6.8169823E+001	-5.801935302753311E-006	-4.2834490E-006	8.2590430E+003
3.1621139E+004	2.5665629E+000	1.0713432E+000	2.7811906E+000	-2.2656794E+001	3.661487320525339E+000	1.8808235E-001	-1.9682204E-002	4.6980109E+000	6.9712353E-001	1.000000000000000E+000	9	5.3697363E-003	1.9307330E-003	0	-1.030082746899118E-005	3.3181071E-001	1.3850552E-001	3.5955822E-001	2.2656794E+001	6.9712341E+002	1.6700637E+003	1.8097220E+003	-6.7343208E+001	0.0000000E+000	0.0000000E+000	0.0000000E+000	6.7343208E+001	0.0000000E+000	0.0000000E+000	0.0000000E+000	-6.7343208E+001	0.0000000E+000	0.0000000E+000	0.0000000E+000	-2.2656794E+001	0.0000000E+000	0.0000000E+000	0.0000000E+000	2.2656794E+001	2.3956497E+000	6.7343208E+001	3.296039288527225E-007	-3.7018754E-006	9.5559600E+003
2.1544684E+004	2.8004589E+000	1.2202057E+000	3.0547459E+000	-2.3543543E+001	4.098482061323011E+000	1.8808088E-001	-2.2457024E-002	6.0540633E+000	9.6596831E-001	1.000000000000000E+000	9	5.1249801E-003	1.6777108E-003	0	-1.263025905838488E-005	3.0010900E-001	1.3076240E-001	3.2735947E-001	2.3543543E+001	9.6596826E+002	2.2169661E+003	2.4182708E+003	-6.6456459E+001	0.0000000E+000	0.0000000E+000	0.0000000E+000	6.6456459E+001	0.0000000E+000	0.0000000E+000	0.0000000E+000	-6.6456459E+001	0.0000000E+000	0.0000000E+000	0.0000000E+000	-2.3543543E+001	0.0000000E+000	0.0000000E+000	0.0000000E+000	2.3543543E+001	2.2950711E+000	6.6456459E+001	-2.329431589393709E-006	-4.2237366E-006	8.3751465E+003
1.4678594E+004	3.0592444E+000	1.3886342E+000	3.3596549E+000	-2.4413969E+001	4.395491702103755E+000	1.8807323E-001	-2.3034334E-002	7.8081436E+000	1.3339335E+000	1.000000000000000E+000	9	4.9142474E-003	1.4627238E-003	0	-1.413632068697674E-005	2.7103466E-001	1.2302646E-001	2.9764962E-001	2.4413969E+001	1.3339337E+003	2.9387356E+003	3.2273125E+003	-6.5586029E+001	0.0000000E+000	0.0000000E+000	0.0000000E+000	6.5586029E+001	0.0000000E+000	0.0000000E+000	0.0000000E+000	-6.5586029E+001	0.0000000E+000	0.0000000E+000	0.0000000E+000	-2.4413969E+001	0.0000000E+000	0.0000000E+000	0.0000000E+000	2.4413969E+001	2.2030599E+000	6.5586029E+001	-1.506061628591852E-006	-4.3321415E-006	8.1649087E+003
1.0002226E+004	3.3385973E+000	1.6119142E+000	3.7073574E+000	-2.5771797E+001	4.691486649477156E+000	1.8807875E-001	-2.4412440E-002	9.8714638E+000	1.8661067E+000	1.000000000000000E+000	9	4.6950448E-003	1.2664128E-003	0	-1.560634286021943E-005	2.4290426E-001	1.1727703E-001	2.6973391E-001	2.5771797E+001	1.8661066E+003	3.8650811E+003	4.2919932E+003	-6.4228203E+001	0.0000000E+000	0.0000000E+000	0.0000000E+000	6.4228203E+001	0.0000000E+000	0.0000000E+000	0.0000000E+000	-6.4228203E+001	0.0000000E+000	0.0000000E+000	0.0000000E+000	-2.5771797E+001	0.0000000E+000	0.0000000E+000	0.0000000E+000	2.5771797E+001	2.0712004E+000	6.4228203E+001	-1.470022173242696E-006	-4.5914612E-006	7.7042173E+003
6.8110674E+003	3.7115526E+000	1.8838631E+000	4.1622787E+000	-2.6910864E+001	5.277516170666786E+000	1.8808623E-001	-1.9022575E-002	1.2403825E+001	2.5409257E+000	1.000000000000000E+000	10	4.6811691E-003	1.1246650E-003	0	-1.931712137508859E-005	2.1423644E-001	1.0873943E-001	2.4025302E-001	2.6910864E+001	2.5409260E+003	5.0060854E+003	5.6140181E+003	-6.3089134E+001	0.0000000E+000	0.0000000E+000	0.0000000E+000	6.3089134E+001	0.0000000E+000	0.0000000E+000	0.0000000E+000	-6.3089134E+001	0.0000000E+000	0.0000000E+000	0.0000000E+000	-2.6910864E+001	0.0000000E+000	0.0000000E+000	0.0000000E+000	2.6910864E+001	1.9701817E+000	6.3089134E+001	-3.710778514869162E-006	-3.5778842E-006	9.8875273E+003
4.6414854E+003	4.1046824E+000	2.2216668E+000	4.6673570E+000	-2.8424547E+001	5.748711419735628E+000	1.8809779E-001	-8.9011556E-003	1.5434203E+001	3.4970355E+000	1.000000000000000E+000	10	4.6682493E-003	1.0001912E-003	0	-1.962329826281510E-005	1.8842457E-001	1.0198513E-001	2.1425402E-001	2.8424547E+001	3.4970352E+003	6.4610137E+003	7.3466968E+003	-6.1575455E+001	0.0000000E+000	0.0000000E+000	0.0000000E+000	6.1575455E+001	0.0000000E+000	0.0000000E+000	0.0000000E+000	-6.1575455E+001	0.0000000E+000	0.0000000E+000	0.0000000E+000	-2.8424547E+001	0.0000000E+000	0.0000000E+000	0.0000000E+000	2.8424547E+001	1.8475689E+000	6.1575455E+001	-3.061768877265021E-007	-1.6742877E-006	2.1131840E+004
3.1610117E+003	4.5953870E+000	2.6313918E+000	5.2954512E+000	-2.9796141E+001	6.214707761871978E+000	1.8810482E-001	-8.6012799E-003	1.9134121E+001	4.7246928E+000	1.000000000000000E+000	10	4.5813755E-003	8.6515304E-004	0	-2.121447209484823E-005	1.6387630E-001	9.3838185E-002	1.8884133E-001	2.9796141E+001	4.7246934E+003	8.2510674E+003	9.5080410E+003	-6.0203857E+001	0.0000000E+000	0.0000000E+000	0.0000000E+000	6.0203857E+001	0.0000000E+000	0.0000000E+000	0.0000000E+000	-6.0203857E+001	0.0000000E+000	0.0000000E+000	0.0000000E+000	-2.9796141E+001	0.0000000E+000	0.0000000E+000	0.0000000E+000	2.9796141E+001	1.7463713E+000	6.0203857E+001	-1.591173832033138E-006	-1.6179422E-006	2.1869398E+004
2.1556899E+003	5.1464510E+000	3.1335649E+000	6.0253787E+000	-3.1336348E+001	6.904708887981542E+000	1.8810053E-001	-8.5025644E-003	2.3561075E+001	6.3724117E+000	1.000000000000000E+000	10	4.9942215E-003	8.2886434E-004	0	-2.341022763546951E-005	1.4175525E-001	8.6311765E-002	1.6596468E-001	3.1336348E+001	6.3724116E+003	1.0465813E+004	1.2253198E+004	-5.8663651E+001	0.0000000E+000	0.0000000E+000	0.0000000E+000	5.8663651E+001	0.0000000E+000	0.0000000E+000	0.0000000E+000	-5.8663651E+001	0.0000000E+000	0.0000000E+000	0.0000000E+000	-3.1336348E+001	0.0000000E+000	0.0000000E+000	0.0000000E+000	3.1336348E+001	1.6423630E+000	5.8663651E+001	-2.195755540621273E-006	-1.5993369E-006	2.2122801E+004
1.4685898E+003	5.8303757E+000	3.7471588E+000	6.9306912E+000	-3.2728687E+001	7.371949736814713E+000	1.8808898E-001	-8.2920957E-003	2.8921282E+001	8.4541245E+000	1.000000000000000E+000	10	4.9188933E-003	7.0972624E-004	0	-2.422620358461508E-005	1.2137897E-001	7.8009762E-002	1.4428575E-001	3.2728687E+001	8.4541230E+003	1.3154158E+004	1.5636626E+004	-5.7271313E+001	0.0000000E+000	0.0000000E+000	0.0000000E+000	5.7271313E+001	0.0000000E+000	0.0000000E+000	0.0000000E+000	-5.7271313E+001	0.0000000E+000	0.0000000E+000	0.0000000E+000	-3.2728687E+001	0.0000000E+000	0.0000000E+000	0.0000000E+000	3.2728687E+001	1.5559458E+000	5.7271317E+001	-8.159759491455696E-007	-1.5596519E-006	2.2682924E+004
1.0003202E+003	6.6618319E+000	4.5081768E+000	8.0438585E+000	-3.4086891E+001	7.840672559104860E+000	1.8809552E-001	-8.8080373E-003	3.5292316E+001	1.1085446E+001	1.000000000000000E+000	10	4.8710583E-003	6.0556241E-004	0	-2.532752701989496E-005	1.0295912E-001	6.9674216E-002	1.2431845E-001	3.4086891E+001	1.1085446E+004	1.6381208E+004	1.9779563E+004	-5.5913109E+001	0.0000000E+000	0.0000000E+000	0.0000000E+000	5.5913109E+001	0.0000000E+000	0.0000000E+000	0.0000000E+000	-5.5913109E+001	0.0000000E+000	0.0000000E+000	0.0000000E+000	-3.4086891E+001	0.0000000E+000	0.0000000E+000	0.0000000E+000	3.4086891E+001	1.4777219E+000	5.5913109E+001	-1.101323435279886E-006	-1.6567524E-006	2.1354988E+004
6.8108978E+002	7.7055073E+000	5.4093723E+000	9.4146776E+000	-3.5069386E+001	8.306409914483083E+000	1.8810180E-001	-8.6534470E-003	4.3198524E+001	1.4261059E+001	1.000000000000000E+000	10	4.8352485E-003	5.1358622E-004	0	-2.602812742523060E-005	8.6934134E-002	6.1028961E-002	1.0621712E-001	3.5069386E+001	1.4261058E+004	2.0314496E+004	2.4820486E+004	-5.4930614E+001	0.0000000E+000	0.0000000E+000	0.0000000E+000	5.4930614E+001	0.0000000E+000	0.0000000E+000	0.0000000E+000	-5.4930614E+001	0.0000000E+000	0.0000000E+000	0.0000000E+000	-3.5069386E+001	0.0000000E+000	0.0000000E+000	0.0000000E+000	3.5069386E+001	1.4244734E+000	5.4930618E+001	-7.006004053356379E-007	-1.6277289E-006	2.1737211E+004
4.6396069E+002	9.0500154E+000	6.4440069E+000	1.1109816E+001	-3.5452530E+001	8.775208230101271E+000	1.8811053E-001	-8.1486814E-003	5.3233246E+001	1.7909409E+001	1.000000000000000E+000	10	4.8181764E-003	4.3368645E-004	0	-2.725795704597517E-005	7.3322222E-002	5.2208629E-002	9.0010494E-002	3.5452530E+001	1.7909408E+004	2.5152117E+004	3.0876785E+004	-5.4547470E+001	0.0000000E+000	0.0000000E+000	0.0000000E+000	5.4547470E+001	0.0000000E+000	0.0000000E+000	0.0000000E+000	-5.4547470E+001	0.0000000E+000	0.0000000E+000	0.0000000E+000	-3.5452530E+001	0.0000000E+000	0.0000000E+000	0.0000000E+000	3.5452530E+001	1.4044081E+000	5.4547470E+001	-1.229829620744567E-006	-1.5328528E-006	2.3084781E+004
3.1631589E+002	1.0740950E+001	7.5880909E+000	1.3150936E+001	-3.5239819E+001	9.241917398961959E+000	1.8810327E-001	-9.0632252E-003	6.6308105E+001	2.2075895E+001	1.000000000000000E+000	10	4.7993823E-003	3.6494606E-004	0	-2.852932745393466E-005	6.2105399E-002	4.3875210E-002	7.6040216E-002	3.5239819E+001	2.2075895E+004	3.1248447E+004	3.8259777E+004	-5.4760181E+001	0.0000000E+000	0.0000000E+000	0.0000000E+000	5.4760181E+001	0.0000000E+000	0.0000000E+000	0.0000000E+000	-5.4760181E+001	0.0000000E+000	0.0000000E+000	0.0000000E+000	-3.5239819E+001	0.0000000E+000	0.0000000E+000	0.0000000E+000	3.5239819E+001	1.4155009E+000	5.4760178E+001	-1.271370407959491E-006	-1.7048224E-006	2.0754563E+004
2.1534457E+002	1.2903362E+001	8.6859684E+000	1.5554511E+001	-3.3946682E+001	9.709437527839327E+000	1.8809977E-001	-9.2122350E-003	8.5087936E+001	2.6533329E+001	1.000000000000000E+000	10	4.7951839E-003	3.0828253E-004	0	-2.950182505842208E-005	5.3332284E-002	3.5900917E-002	6.4290032E-002	3.3946682E+001	2.6533328E+004	3.9416348E+004	4.7514902E+004	-5.6053318E+001	0.0000000E+000	0.0000000E+000	0.0000000E+000	5.6053318E+001	0.0000000E+000	0.0000000E+000	0.0000000E+000	-5.6053318E+001	0.0000000E+000	0.0000000E+000	0.0000000E+000	-3.3946682E+001	0.0000000E+000	0.0000000E+000	0.0000000E+000	3.3946682E+001	1.4855410E+000	5.6053314E+001	-9.724976044874173E-007	-1.7328193E-006	2.0418473E+004
1.4673740E+002	1.5582503E+001	9.5775938E+000	1.8290564E+001	-3.1576450E+001	1.017237165648839E+001	1.8809877E-001	-9.7821932E-003	1.1324601E+002	3.1051426E+001	1.000000000000000E+000	10	4.7905641E-003	2.6191451E-004	0	-3.063505895730567E-005	4.6578240E-002	2.8628740E-002	5.4673001E-002	3.1576450E+001	3.1051426E+004	5.0519887E+004	5.9299664E+004	-5.8423550E+001	0.0000000E+000	0.0000000E+000	0.0000000E+000	5.8423550E+001	0.0000000E+000	0.0000000E+000	0.0000000E+000	-5.8423550E+001	0.0000000E+000	0.0000000E+000	0.0000000E+000	-3.1576450E+001	0.0000000E+000	0.0000000E+000	0.0000000E+000	3.1576450E+001	1.6269747E+000	5.8423553E+001	-1.133233898883596E-006	-1.8400185E-006	1.9228691E+004
1.0003201E+002	1.8544512E+001	1.0102584E+001	2.1117792E+001	-2.8580437E+001	1.064070349209214E+001	1.8809840E-001	-8.5994378E-003	1.5748843E+002	3.6042641E+001	1.000000000000000E+000	10	4.7866283E-003	2.2666329E-004	0	-3.165182929186428E-005	4.1583247E-002	2.2653507E-002	4.7353435E-002	2.8580437E+001	3.6042637E+004	6.6160609E+004	7.5341211E+004	-6.1419563E+001	0.0000000E+000	0.0000000E+000	0.0000000E+000	6.1419563E+001	0.0000000E+000	0.0000000E+000	0.0000000E+000	-6.1419563E+001	0.0000000E+000	0.0000000E+000	0.0000000E+000	-2.8580437E+001	0.0000000E+000	0.0000000E+000	0.0000000E+000	2.8580437E+001	1.8356206E+000	6.1419563E+001	-1.016770334558612E-006	-1.6175405E-006	2.1873338E+004
6.8103981E+001	2.1893326E+001	9.9605064E+000	2.4052639E+001	-2.4463459E+001	1.137832619374967E+001	1.8814024E-001	-6.8671550E-003	2.3462064E+002	4.0234959E+001	1.000000000000000E+000	11	4.8011374E-003	1.9960960E-004	0	-3.285629817445685E-005	3.7843063E-002	1.7216939E-002	4.1575480E-002	2.4463459E+001	4.0234953E+004	8.8436984E+004	9.7159414E+004	-6.5536545E+001	0.0000000E+000	0.0000000E+000	0.0000000E+000	6.5536545E+001	0.0000000E+000	0.0000000E+000	0.0000000E+000	-6.5536545E+001	0.0000000E+000	0.0000000E+000	0.0000000E+000	-2.4463459E+001	0.0000000E+000	0.0000000E+000	0.0000000E+000	2.4463459E+001	2.1980133E+000	6.5536545E+001	-1.204468882592567E-006	-1.2919882E-006	2.7397117E+004
4.6441547E+001	2.4848965E+001	9.1335869E+000	2.6474392E+001	-2.0181614E+001	1.183355037539150E+001	1.8812785E-001	-7.4018249E-003	3.7520801E+002	4.4658367E+001	1.000000000000000E+000	11	4.7905119E-003	1.8094889E-004	0	-3.389959246550117E-005	3.5453271E-002	1.3031349E-002	3.7772350E-002	2.0181614E+001	4.4658355E+004	1.2149818E+005	1.2944565E+005	-6.9818390E+001	0.0000000E+000	0.0000000E+000	0.0000000E+000	6.9818390E+001	0.0000000E+000	0.0000000E+000	0.0000000E+000	-6.9818390E+001	0.0000000E+000	0.0000000E+000	0.0000000E+000	-2.0181614E+001	0.0000000E+000	0.0000000E+000	0.0000000E+000	2.0181614E+001	2.7206140E+000	6.9818390E+001	-1.043294291044323E-006	-1.3924894E-006	2.5416414E+004
3.1629555E+001	2.7314596E+001	7.7783141E+000	2.8400517E+001	-1.5895240E+001	1.228044727657107E+001	1.8812016E-001	-7.4929884E-003	6.4690656E+002	4.8524384E+001	1.000000000000000E+000	11	4.7889818E-003	1.6862305E-004	0	-3.470438363681812E-005	3.3864316E-002	9.6434625E-003	3.5210628E-002	1.5895240E+001	4.8524391E+004	1.7039992E+005	1.7717434E+005	-7.4104759E+001	0.0000000E+000	0.0000000E+000	0.0000000E+000	7.4104759E+001	0.0000000E+000	0.0000000E+000	0.0000000E+000	-7.4104759E+001	0.0000000E+000	0.0000000E+000	0.0000000E+000	-1.5895240E+001	0.0000000E+000	0.0000000E+000	0.0000000E+000	1.5895240E+001	3.5116346E+000	7.4104759E+001	-8.047911713169451E-007	-1.4095822E-006	2.5106158E+004
2.1551722E+001	2.9083744E+001	6.3407984E+000	2.9766926E+001	-1.2299091E+001	1.271932980409474E+001	1.8812093E-001	-7.6810922E-003	1.1646467E+003	5.2846241E+001	1.000000000000000E+000	11	4.7842329E-003	1.6072311E-004	0	-3.597377989409951E-005	3.2823309E-002	7.1560931E-003	3.3594333E-002	1.2299091E+001	5.2846234E+004	2.4239325E+005	2.4808711E+005	-7.7700912E+001	0.0000000E+000	0.0000000E+000	0.0000000E+000	7.7700912E+001	0.0000000E+000	0.0000000E+000	0.0000000E+000	-7.7700912E+001	0.0000000E+000	0.0000000E+000	0.0000000E+000	-1.2299091E+001	0.0000000E+000	0.0000000E+000	0.0000000E+000	1.2299091E+001	4.5867639E+000	7.7700912E+001	-1.269396257281386E-006	-1.4449743E-006	2.4491430E+004
1.4685154E+001	3.0267216E+001	5.0490208E+000	3.0685452E+001	-9.4705820E+000	1.319702286683605E+001	1.8813141E-001	-6.7866212E-003	2.1465176E+003	5.8114395E+001	1.000000000000000E+000	11	4.7830800E-003	1.5587451E-004	0	-3.700822565521796E-005	3.2144558E-002	5.3621889E-003	3.2588735E-002	9.4705820E+000	5.8114395E+004	3.4837669E+005	3.5319059E+005	-8.0529419E+001	0.0000000E+000	0.0000000E+000	0.0000000E+000	8.0529419E+001	0.0000000E+000	0.0000000E+000	0.0000000E+000	-8.0529419E+001	0.0000000E+000	0.0000000E+000	0.0000000E+000	-9.4705820E+000	0.0000000E+000	0.0000000E+000	0.0000000E+000	9.4705820E+000	5.9946704E+000	8.0529419E+001	-1.034445761118451E-006	-1.2767766E-006	2.7720924E+004
