
EC-Lab ASCII FILE
Nb header lines : 63                          

Potentio Electrochemical Impedance Spectroscopy

Run on channel : 3 (SN 65921)
User : 
CE vs. WE compliance from -10 V to 10 V
Electrode connection : standard
Potential control : Ewe
Ewe ctrl range : min = -10.00 V, max = 10.00 V
Safety Limits :
	Do not start on E overload
Acquisition started on : 09/10/2025 16:53:35.972
Loaded Setting File :  C:\Users\Celltest\OneDrive - store-dot.com\Documents\EC-Lab\Data\Charmaine\R279\17382_C01.mpr
Saved on :
	File : 17384_C03.mpr
	Directory : C:\Users\Celltest\OneDrive - store-dot.com\Documents\EC-Lab\Data\Charmaine\R279\
	Host : 169.254.61.224
Device : VMP-3e (SN .003165)
Address : USB
EC-LAB for windows v11.62 (software)
Internet server v27.00 (firmware)
Command interpretor v12.03 (firmware)
Electrode material : 
Initial state : 
Electrolyte : 
Comments : 
Electrode surface area : 0.001 cm²
Characteristic mass : 0.001 g
Equivalent Weight : 0.000 g/eq.
Density : 0.000 g/cm3
Volume (V) : 0.001 cm³
Cycle Definition : Charge/Discharge alternance
Mode                Single sine         
E (V)               0.0000              
vs.                 Eoc                 
tE (h:m:s)          0:00:0.0000         
record              0                   
dI                  0.000               
unit dI             mA                  
dt (s)              0.000               
fi                  100.000             
unit fi             kHz                 
ff                  10.000              
unit ff             mHz                 
Nd                  6                   
Points              per decade          
spacing             Logarithmic         
Va (mV)             5.0                 
pw                  0.10                
Na                  2                   
corr                0                   
E range min (V)     -10.000             
E range max (V)     10.000              
I Range             Auto                
Bandwidth           5                   
nc cycles           0                   
goto Ns'            0                   
nr cycles           0                   
inc. cycle          0                   

freq/Hz	Re(Z)/Ohm	-Im(Z)/Ohm	|Z|/Ohm	Phase(Z)/deg	time/s	<Ewe>/V	<I>/mA	Cs/µF	Cp/µF	cycle number	I Range	|Ewe|/V	|I|/A	Ns	(Q-Qo)/mA.h	Re(Y)/Ohm-1	Im(Y)/Ohm-1	|Y|/Ohm-1	Phase(Y)/deg	Re(C)/nF	Im(C)/nF	|C|/nF	Phase(C)/deg	Re(M)	Im(M)	|M|	Phase(M)/deg	Re(Permittivity)	Im(Permittivity)	|Permittivity|	Phase(Permittivity)/deg	Re(Resistivity)/Ohm.cm	Im(Resistivity)/Ohm.cm	|Resistivity|/Ohm.cm	Phase(Resistivity)/deg	Re(Conductivity)/mS/cm	Im(Conductivity)/mS/cm	|Conductivity|/mS/cm	Phase(Conductivity)/deg	Tan(Delta)	Loss Angle(Delta)/deg	dq/mA.h	Pwe/W	Rwe/Ohm	
1.0000371E+005	2.4680834E+000	8.6039996E-001	2.6137567E+000	-1.9219095E+001	2.227483999129618E+000	1.8793218E-001	3.6205627E-002	1.8497099E+000	2.0043524E-001	1.000000000000000E+000	9	4.9155508E-003	1.8806459E-003	0	2.411762425223262E-006	3.6126804E-001	1.2594186E-001	3.8259110E-001	1.9219095E+001	2.0043524E+002	5.7495465E+002	6.0889008E+002	-7.0780907E+001	0.0000000E+000	0.0000000E+000	0.0000000E+000	7.0780907E+001	0.0000000E+000	0.0000000E+000	0.0000000E+000	-7.0780907E+001	0.0000000E+000	0.0000000E+000	0.0000000E+000	-1.9219095E+001	0.0000000E+000	0.0000000E+000	0.0000000E+000	1.9219095E+001	2.8685303E+000	7.0780907E+001	2.411762425223262E-006	6.8042023E-006	5.1906899E+003
6.8132047E+004	2.6703176E+000	9.3903762E-001	2.8306162E+000	-1.9374613E+001	2.664482366555603E+000	1.8792659E-001	3.8461886E-002	2.4876294E+000	2.7377242E-001	1.000000000000000E+000	9	5.3305100E-003	1.8831624E-003	0	6.676118796138326E-006	3.3327365E-001	1.1719822E-001	3.5327998E-001	1.9374613E+001	2.7377237E+002	7.7851978E+002	8.2525409E+002	-7.0625389E+001	0.0000000E+000	0.0000000E+000	0.0000000E+000	7.0625389E+001	0.0000000E+000	0.0000000E+000	0.0000000E+000	-7.0625389E+001	0.0000000E+000	0.0000000E+000	0.0000000E+000	-1.9374613E+001	0.0000000E+000	0.0000000E+000	0.0000000E+000	1.9374613E+001	2.8436749E+000	7.0625389E+001	4.264356370915064E-006	7.2280113E-006	4.8860474E+003
4.6420355E+004	2.8818848E+000	1.0173552E+000	3.0561857E+000	-1.9443913E+001	3.101498680625809E+000	1.8793263E-001	3.8144886E-002	3.3700709E+000	3.7344342E-001	1.000000000000000E+000	9	5.3683477E-003	1.7565516E-003	0	6.752861025963082E-006	3.0854401E-001	1.0892137E-001	3.2720524E-001	1.9443913E+001	3.7344333E+002	1.0578616E+003	1.1218427E+003	-7.0556091E+001	0.0000000E+000	0.0000000E+000	0.0000000E+000	7.0556091E+001	0.0000000E+000	0.0000000E+000	0.0000000E+000	-7.0556091E+001	0.0000000E+000	0.0000000E+000	0.0000000E+000	-1.9443913E+001	0.0000000E+000	0.0000000E+000	0.0000000E+000	1.9443913E+001	2.8327224E+000	7.0556091E+001	7.674222982475622E-008	7.1686686E-006	4.9268105E+003
3.1621139E+004	3.1054335E+000	1.1338029E+000	3.3059380E+000	-2.0057287E+001	3.538484808028443E+000	1.8795095E-001	3.4900341E-002	4.4392037E+000	5.2214462E-001	1.000000000000000E+000	9	5.3748540E-003	1.6258181E-003	0	1.383657473878055E-005	2.8414029E-001	1.0374045E-001	3.0248600E-001	2.0057287E+001	5.2214465E+002	1.4301298E+003	1.5224672E+003	-6.9942711E+001	0.0000000E+000	0.0000000E+000	0.0000000E+000	6.9942711E+001	0.0000000E+000	0.0000000E+000	0.0000000E+000	-6.9942711E+001	0.0000000E+000	0.0000000E+000	0.0000000E+000	-2.0057287E+001	0.0000000E+000	0.0000000E+000	0.0000000E+000	2.0057287E+001	2.7389536E+000	6.9942711E+001	7.083713712817472E-006	6.5595523E-006	5.3853613E+003
2.1544684E+004	3.3797934E+000	1.2698606E+000	3.6104777E+000	-2.0592272E+001	3.975482802110491E+000	1.8795440E-001	3.9953612E-002	5.8173337E+000	7.1962583E-001	1.000000000000000E+000	9	5.3396258E-003	1.4789250E-003	0	1.751409979396138E-005	2.5927511E-001	9.7415194E-002	2.7697167E-001	2.0592272E+001	7.1962567E+002	1.9153176E+003	2.0460457E+003	-6.9407730E+001	0.0000000E+000	0.0000000E+000	0.0000000E+000	6.9407730E+001	0.0000000E+000	0.0000000E+000	0.0000000E+000	-6.9407730E+001	0.0000000E+000	0.0000000E+000	0.0000000E+000	-2.0592272E+001	0.0000000E+000	0.0000000E+000	0.0000000E+000	2.0592272E+001	2.6615467E+000	6.9407730E+001	3.677525055180822E-006	7.5094572E-006	4.7043154E+003
1.4678594E+004	3.6424611E+000	1.4145588E+000	3.9074926E+000	-2.1223804E+001	4.412478502868908E+000	1.8793730E-001	3.9990906E-002	7.6650443E+000	1.0045240E+000	1.000000000000000E+000	9	5.3378553E-003	1.3660564E-003	0	2.361574641941115E-005	2.3856053E-001	9.2645571E-002	2.5591859E-001	2.1223804E+001	1.0045239E+003	2.5866296E+003	2.7748372E+003	-6.8776199E+001	0.0000000E+000	0.0000000E+000	0.0000000E+000	6.8776199E+001	0.0000000E+000	0.0000000E+000	0.0000000E+000	-6.8776199E+001	0.0000000E+000	0.0000000E+000	0.0000000E+000	-2.1223804E+001	0.0000000E+000	0.0000000E+000	0.0000000E+000	2.1223804E+001	2.5749803E+000	6.8776199E+001	6.101646625449777E-006	7.5157832E-006	4.6995010E+003
1.0002226E+004	3.9314458E+000	1.6093731E+000	4.2480993E+000	-2.2262186E+001	5.162487365159905E+000	1.8795761E-001	-1.2455083E-002	9.8870506E+000	1.4190278E+000	1.000000000000000E+000	10	4.8759617E-003	1.1477984E-003	0	2.423085557290243E-005	2.1785271E-001	8.9179993E-002	2.3539940E-001	2.2262186E+001	1.4190278E+003	3.4664624E+003	3.7456643E+003	-6.7737816E+001	0.0000000E+000	0.0000000E+000	0.0000000E+000	6.7737816E+001	0.0000000E+000	0.0000000E+000	0.0000000E+000	-6.7737816E+001	0.0000000E+000	0.0000000E+000	0.0000000E+000	-2.2262186E+001	0.0000000E+000	0.0000000E+000	0.0000000E+000	2.2262186E+001	2.4428430E+000	6.7737816E+001	6.151091534912756E-007	-2.3410278E-006	1.5090836E+004
6.8110674E+003	4.2838092E+000	1.8534995E+000	4.6675992E+000	-2.3396955E+001	5.717498938232893E+000	1.8792404E-001	-1.1990834E-002	1.2607020E+001	1.9879723E+000	1.000000000000000E+000	10	5.1608346E-003	1.1056722E-003	0	2.266772261567854E-005	1.9662693E-001	8.5075669E-002	2.1424291E-001	2.3396955E+001	1.9879727E+003	4.5946030E+003	5.0062373E+003	-6.6603043E+001	0.0000000E+000	0.0000000E+000	0.0000000E+000	6.6603043E+001	0.0000000E+000	0.0000000E+000	0.0000000E+000	-6.6603043E+001	0.0000000E+000	0.0000000E+000	0.0000000E+000	-2.3396955E+001	0.0000000E+000	0.0000000E+000	0.0000000E+000	2.3396955E+001	2.3112006E+000	6.6603043E+001	-1.563132957223893E-006	-2.2533659E-006	1.5672308E+004
4.6414854E+003	4.6819797E+000	2.1528480E+000	5.1532211E+000	-2.4693716E+001	6.411693531226774E+000	1.8795569E-001	-4.3000216E-003	1.5927579E+001	2.7798345E+000	1.000000000000000E+000	10	5.1104445E-003	9.9169905E-004	0	2.094629792484334E-005	1.7630798E-001	8.1069179E-002	1.9405338E-001	2.4693716E+001	2.7798350E+003	6.0455405E+003	6.6540244E+003	-6.5306282E+001	0.0000000E+000	0.0000000E+000	0.0000000E+000	6.5306282E+001	0.0000000E+000	0.0000000E+000	0.0000000E+000	-6.5306282E+001	0.0000000E+000	0.0000000E+000	0.0000000E+000	-2.4693716E+001	0.0000000E+000	0.0000000E+000	0.0000000E+000	2.4693716E+001	2.1747842E+000	6.5306282E+001	-1.721424690835192E-006	-8.0821354E-007	4.3710406E+004
3.1610117E+003	5.1373844E+000	2.5160193E+000	5.7204084E+000	-2.6093170E+001	6.877669820030860E+000	1.8795559E-001	-4.3223957E-003	2.0011518E+001	3.8712740E+000	1.000000000000000E+000	10	5.2456511E-003	9.1700640E-004	0	2.101165101438366E-005	1.5699579E-001	7.6888233E-002	1.7481269E-001	2.6093170E+001	3.8712744E+003	7.9046387E+003	8.8017090E+003	-6.3906830E+001	0.0000000E+000	0.0000000E+000	0.0000000E+000	6.3906830E+001	0.0000000E+000	0.0000000E+000	0.0000000E+000	-6.3906830E+001	0.0000000E+000	0.0000000E+000	0.0000000E+000	-2.6093170E+001	0.0000000E+000	0.0000000E+000	0.0000000E+000	2.6093170E+001	2.0418701E+000	6.3906830E+001	6.535308954031959E-008	-8.1241842E-007	4.3484125E+004
2.1556899E+003	5.6730595E+000	2.9619431E+000	6.3997431E+000	-2.7569368E+001	7.344676322209125E+000	1.8796130E-001	-4.4324002E-003	2.4926260E+001	5.3393140E+000	1.000000000000000E+000	10	5.1772255E-003	8.0897397E-004	0	2.081135179617235E-005	1.3851355E-001	7.2318867E-002	1.5625627E-001	2.7569368E+001	5.3393140E+003	1.0226479E+004	1.1536427E+004	-6.2430634E+001	0.0000000E+000	0.0000000E+000	0.0000000E+000	6.2430634E+001	0.0000000E+000	0.0000000E+000	0.0000000E+000	-6.2430634E+001	0.0000000E+000	0.0000000E+000	0.0000000E+000	-2.7569368E+001	0.0000000E+000	0.0000000E+000	0.0000000E+000	2.7569368E+001	1.9153168E+000	6.2430634E+001	-2.002992182113092E-007	-8.3311971E-007	4.2406211E+004
1.4685898E+003	6.3067045E+000	3.5628772E+000	7.2435222E+000	-2.9463619E+001	7.811925091053126E+000	1.8796325E-001	-3.6456129E-003	3.0417168E+001	7.3590355E+000	1.000000000000000E+000	10	5.0850878E-003	7.0201867E-004	0	1.999247884431032E-005	1.2019956E-001	6.7904927E-002	1.3805439E-001	2.9463619E+001	7.3590347E+003	1.3026343E+004	1.4961316E+004	-6.0536381E+001	0.0000000E+000	0.0000000E+000	0.0000000E+000	6.0536381E+001	0.0000000E+000	0.0000000E+000	0.0000000E+000	-6.0536381E+001	0.0000000E+000	0.0000000E+000	0.0000000E+000	-2.9463619E+001	0.0000000E+000	0.0000000E+000	0.0000000E+000	2.9463619E+001	1.7701156E+000	6.0536377E+001	-8.188729518620294E-007	-6.8524122E-007	5.1558750E+004
1.0003202E+003	7.0741563E+000	4.2657304E+000	8.2607594E+000	-3.1090061E+001	8.280684500001371E+000	1.8795539E-001	-4.1993526E-003	3.7298183E+001	9.9456816E+000	1.000000000000000E+000	10	4.9939658E-003	6.0454081E-004	0	1.986662939965997E-005	1.0366561E-001	6.2510572E-002	1.2105425E-001	3.1090061E+001	9.9456816E+003	1.6493613E+004	1.9260215E+004	-5.8909939E+001	0.0000000E+000	0.0000000E+000	0.0000000E+000	5.8909939E+001	0.0000000E+000	0.0000000E+000	0.0000000E+000	-5.8909939E+001	0.0000000E+000	0.0000000E+000	0.0000000E+000	-3.1090061E+001	0.0000000E+000	0.0000000E+000	0.0000000E+000	3.1090061E+001	1.6583693E+000	5.8909943E+001	-1.258494446503577E-007	-7.8929099E-007	4.4758184E+004
6.8108978E+002	8.0209255E+000	5.1271706E+000	9.5196180E+000	-3.2587704E+001	8.746421375399223E+000	1.8795066E-001	-4.1788495E-003	4.5576191E+001	1.3220702E+001	1.000000000000000E+000	10	4.9275942E-003	5.1762519E-004	0	1.932184404286414E-005	8.8508599E-002	5.6576848E-002	1.0504624E-001	3.2587704E+001	1.3220703E+004	2.0682414E+004	2.4546879E+004	-5.7412296E+001	0.0000000E+000	0.0000000E+000	0.0000000E+000	5.7412296E+001	0.0000000E+000	0.0000000E+000	0.0000000E+000	-5.7412296E+001	0.0000000E+000	0.0000000E+000	0.0000000E+000	-3.2587704E+001	0.0000000E+000	0.0000000E+000	0.0000000E+000	3.2587704E+001	1.5643960E+000	5.7412292E+001	-5.447853567958316E-007	-7.8541751E-007	4.4976652E+004
4.6396069E+002	9.2252693E+000	6.1619945E+000	1.1093952E+001	-3.3740837E+001	9.215223264327506E+000	1.8794735E-001	-3.9998638E-003	5.5669540E+001	1.7174641E+001	1.000000000000000E+000	10	4.8919586E-003	4.4095726E-004	0	1.894731991245297E-005	7.4956015E-002	5.0066672E-002	9.0139203E-002	3.3740837E+001	1.7174639E+004	2.5712564E+004	3.0920936E+004	-5.6259163E+001	0.0000000E+000	0.0000000E+000	0.0000000E+000	5.6259163E+001	0.0000000E+000	0.0000000E+000	0.0000000E+000	-5.6259163E+001	0.0000000E+000	0.0000000E+000	0.0000000E+000	-3.3740837E+001	0.0000000E+000	0.0000000E+000	0.0000000E+000	3.3740837E+001	1.4971240E+000	5.6259163E+001	-3.745241304111681E-007	-7.5176376E-007	4.6988438E+004
3.1631589E+002	1.0809493E+001	7.3188972E+000	1.3054172E+001	-3.4101166E+001	9.681941499875393E+000	1.8793672E-001	-4.2534289E-003	6.8746956E+001	2.1609571E+001	1.000000000000000E+000	10	4.8626298E-003	3.7249623E-004	0	1.872368617858026E-005	6.3431747E-002	4.2948406E-002	7.6603867E-002	3.4101166E+001	2.1609572E+004	3.1915807E+004	3.8543383E+004	-5.5898834E+001	0.0000000E+000	0.0000000E+000	0.0000000E+000	5.5898834E+001	0.0000000E+000	0.0000000E+000	0.0000000E+000	-5.5898834E+001	0.0000000E+000	0.0000000E+000	0.0000000E+000	-3.4101166E+001	0.0000000E+000	0.0000000E+000	0.0000000E+000	3.4101166E+001	1.4769292E+000	5.5898834E+001	-2.236337338727058E-007	-7.9937547E-007	4.4184758E+004
2.1534457E+002	1.2827061E+001	8.5657864E+000	1.5424208E+001	-3.3734615E+001	1.014942773539224E+001	1.8794787E-001	-3.8712197E-003	8.6281754E+001	2.6610174E+001	1.000000000000000E+000	10	4.8443712E-003	3.1407585E-004	0	1.846396950987239E-005	5.3916462E-002	3.6004893E-002	6.4833149E-002	3.3734615E+001	2.6610174E+004	3.9848098E+004	4.7916305E+004	-5.6265385E+001	0.0000000E+000	0.0000000E+000	0.0000000E+000	5.6265385E+001	0.0000000E+000	0.0000000E+000	0.0000000E+000	-5.6265385E+001	0.0000000E+000	0.0000000E+000	0.0000000E+000	-3.3734615E+001	0.0000000E+000	0.0000000E+000	0.0000000E+000	3.3734615E+001	1.4974761E+000	5.6265381E+001	-2.597166687078740E-007	-7.2758752E-007	4.8550039E+004
1.4673740E+002	1.5372265E+001	9.6718102E+000	1.8161785E+001	-3.2176983E+001	1.061240151737002E+001	1.8794557E-001	-3.6624018E-003	1.1214285E+002	3.1803141E+001	1.000000000000000E+000	10	4.8305197E-003	2.6597164E-004	0	1.788911464028186E-005	4.6603743E-002	2.9321803E-002	5.5060666E-002	3.2176983E+001	3.1803139E+004	5.0547547E+004	5.9720133E+004	-5.7823017E+001	0.0000000E+000	0.0000000E+000	0.0000000E+000	5.7823017E+001	0.0000000E+000	0.0000000E+000	0.0000000E+000	-5.7823017E+001	0.0000000E+000	0.0000000E+000	0.0000000E+000	-3.2176983E+001	0.0000000E+000	0.0000000E+000	0.0000000E+000	3.2176983E+001	1.5893886E+000	5.7823013E+001	-5.748548695905301E-007	-6.8833219E-007	5.1317574E+004
1.0003201E+002	1.8407911E+001	1.0438297E+001	2.1161505E+001	-2.9555618E+001	1.108067380632565E+001	1.8795030E-001	-3.8078295E-003	1.5242334E+002	3.7086658E+001	1.000000000000000E+000	10	4.8275176E-003	2.2812733E-004	0	1.724414684469068E-005	4.1106589E-002	2.3309695E-002	4.7255620E-002	2.9555618E+001	3.7086660E+004	6.5402234E+004	7.5185586E+004	-6.0444382E+001	0.0000000E+000	0.0000000E+000	0.0000000E+000	6.0444382E+001	0.0000000E+000	0.0000000E+000	0.0000000E+000	-6.0444382E+001	0.0000000E+000	0.0000000E+000	0.0000000E+000	-2.9555618E+001	0.0000000E+000	0.0000000E+000	0.0000000E+000	2.9555618E+001	1.7634975E+000	6.0444382E+001	-6.449677955911773E-007	-7.1568269E-007	4.9358906E+004
6.8103981E+001	2.1782248E+001	1.0672214E+001	2.4256184E+001	-2.6102547E+001	1.181834504133440E+001	1.8796717E-001	-7.1786093E-003	2.1897429E+002	4.2389393E+001	1.000000000000000E+000	11	4.8373444E-003	1.9942726E-004	0	1.617156511599427E-005	3.7021816E-002	1.8138841E-002	4.1226599E-002	2.6102547E+001	4.2389391E+004	8.6517773E+004	9.6344102E+004	-6.3897453E+001	0.0000000E+000	0.0000000E+000	0.0000000E+000	6.3897453E+001	0.0000000E+000	0.0000000E+000	0.0000000E+000	-6.3897453E+001	0.0000000E+000	0.0000000E+000	0.0000000E+000	-2.6102547E+001	0.0000000E+000	0.0000000E+000	0.0000000E+000	2.6102547E+001	2.0410244E+000	6.3897453E+001	-1.072581728696405E-006	-1.3493428E-006	2.6184344E+004
4.6441547E+001	2.5059292E+001	1.0168529E+001	2.7043798E+001	-2.2086271E+001	1.227351964960690E+001	1.8796723E-001	-7.3551792E-003	3.3701974E+002	4.7647068E+001	1.000000000000000E+000	11	4.8278398E-003	1.7851929E-004	0	1.532935977770831E-005	3.4263629E-002	1.3903455E-002	3.6977053E-002	2.2086271E+001	4.7647074E+004	1.1742129E+005	1.2672017E+005	-6.7913727E+001	0.0000000E+000	0.0000000E+000	0.0000000E+000	6.7913727E+001	0.0000000E+000	0.0000000E+000	0.0000000E+000	-6.7913727E+001	0.0000000E+000	0.0000000E+000	0.0000000E+000	-2.2086271E+001	0.0000000E+000	0.0000000E+000	0.0000000E+000	2.2086271E+001	2.4643970E+000	6.7913727E+001	-8.422053382859692E-007	-1.3825327E-006	2.5555764E+004
3.1629555E+001	2.8024048E+001	9.0138626E+000	2.9438019E+001	-1.7830254E+001	1.271944236409036E+001	1.8796295E-001	-7.6745702E-003	5.5823376E+002	5.2338444E+001	1.000000000000000E+000	11	4.8290230E-003	1.6404035E-004	0	1.432008083414298E-005	3.2338042E-002	1.0401448E-002	3.3969678E-002	1.7830254E+001	5.2338449E+004	1.6271994E+005	1.7093008E+005	-7.2169746E+001	0.0000000E+000	0.0000000E+000	0.0000000E+000	7.2169746E+001	0.0000000E+000	0.0000000E+000	0.0000000E+000	-7.2169746E+001	0.0000000E+000	0.0000000E+000	0.0000000E+000	-1.7830254E+001	0.0000000E+000	0.0000000E+000	0.0000000E+000	1.7830254E+001	3.1089942E+000	7.2169746E+001	-1.009278943565329E-006	-1.4425349E-006	2.4491658E+004
2.1551722E+001	3.0301764E+001	7.5360065E+000	3.1224802E+001	-1.3966043E+001	1.315833011831273E+001	1.8795133E-001	-7.8162747E-003	9.7993408E+002	5.7079479E+001	1.000000000000000E+000	11	4.8285243E-003	1.5463747E-004	0	1.339159368337358E-005	3.1079108E-002	7.7293306E-003	3.2025825E-002	1.3966043E+001	5.7079477E+004	2.2951269E+005	2.3650400E+005	-7.6033958E+001	0.0000000E+000	0.0000000E+000	0.0000000E+000	7.6033958E+001	0.0000000E+000	0.0000000E+000	0.0000000E+000	-7.6033958E+001	0.0000000E+000	0.0000000E+000	0.0000000E+000	-1.3966043E+001	0.0000000E+000	0.0000000E+000	0.0000000E+000	1.3966043E+001	4.0209312E+000	7.6033958E+001	-9.284871507693921E-007	-1.4690792E-006	2.4046152E+004
1.4685154E+001	3.1864946E+001	6.0551310E+000	3.2435158E+001	-1.0759340E+001	1.363604971434688E+001	1.8796805E-001	-7.1443049E-003	1.7898560E+003	6.2378242E+001	1.000000000000000E+000	11	4.8261229E-003	1.4879295E-004	0	1.272015473962205E-005	3.0288737E-002	5.7556122E-003	3.0830743E-002	1.0759340E+001	6.2378238E+004	3.2826366E+005	3.3413781E+005	-7.9240662E+001	0.0000000E+000	0.0000000E+000	0.0000000E+000	7.9240662E+001	0.0000000E+000	0.0000000E+000	0.0000000E+000	-7.9240662E+001	0.0000000E+000	0.0000000E+000	0.0000000E+000	-1.0759340E+001	0.0000000E+000	0.0000000E+000	0.0000000E+000	1.0759340E+001	5.2624702E+000	7.9240662E+001	-6.714389437515321E-007	-1.3429010E-006	2.6310193E+004
