EC-Lab ASCII FILE
Nb header lines : 64                          

Potentio Electrochemical Impedance Spectroscopy

Run on channel : 1 (SN 66354)
User : 
CE vs. WE compliance from -10 V to 10 V
Electrode connection : standard
Potential control : Ewe
Ewe ctrl range : min = -10.00 V, max = 10.00 V
Safety Limits :
	Do not start on E overload
Acquisition started on : 09/10/2025 16:53:05.256
Technique started on : 09/10/2025 16:53:07.281
Loaded Setting File :  C:\Users\Celltest\OneDrive - store-dot.com\Documents\EC-Lab\Data\Gyutae\EIS_SOC0_C01.mpr
Saved on :
	File : 17382_C01.mpr
	Directory : C:\Users\Celltest\OneDrive - store-dot.com\Documents\EC-Lab\Data\Charmaine\R279\
	Host : 169.254.61.224
Device : VMP-3e (SN .003165)
Address : USB
EC-LAB for windows v11.62 (software)
Internet server v27.00 (firmware)
Command interpretor v12.03 (firmware)
Electrode material : 
Initial state : 
Electrolyte : 
Comments : 
Electrode surface area : 0.001 cm²
Characteristic mass : 0.001 g
Equivalent Weight : 0.000 g/eq.
Density : 0.000 g/cm3
Volume (V) : 0.001 cm³
Cycle Definition : Charge/Discharge alternance
Mode                Single sine         
E (V)               0.0000              
vs.                 Eoc                 
tE (h:m:s)          0:00:0.0000         
record              0                   
dI                  0.000               
unit dI             mA                  
dt (s)              0.000               
fi                  100.000             
unit fi             kHz                 
ff                  10.000              
unit ff             mHz                 
Nd                  6                   
Points              per decade          
spacing             Logarithmic         
Va (mV)             5.0                 
pw                  0.10                
Na                  2                   
corr                0                   
E range min (V)     -10.000             
E range max (V)     10.000              
I Range             Auto                
Bandwidth           5                   
nc cycles           0                   
goto Ns'            0                   
nr cycles           0                   
inc. cycle          0                   

freq/Hz	Re(Z)/Ohm	-Im(Z)/Ohm	|Z|/Ohm	Phase(Z)/deg	time/s	<Ewe>/V	<I>/mA	Cs/µF	Cp/µF	cycle number	I Range	|Ewe|/V	|I|/A	Ns	(Q-Qo)/mA.h	Re(Y)/Ohm-1	Im(Y)/Ohm-1	|Y|/Ohm-1	Phase(Y)/deg	Re(C)/nF	Im(C)/nF	|C|/nF	Phase(C)/deg	Re(M)	Im(M)	|M|	Phase(M)/deg	Re(Permittivity)	Im(Permittivity)	|Permittivity|	Phase(Permittivity)/deg	Re(Resistivity)/Ohm.cm	Im(Resistivity)/Ohm.cm	|Resistivity|/Ohm.cm	Phase(Resistivity)/deg	Re(Conductivity)/mS/cm	Im(Conductivity)/mS/cm	|Conductivity|/mS/cm	Phase(Conductivity)/deg	Tan(Delta)	Loss Angle(Delta)/deg	dq/mA.h	Pwe/W	Rwe/Ohm	
1.0000371E+005	3.1847696E+000	1.2020581E+000	3.4040713E+000	-2.0678492E+001	2.025476016191533E+000	1.8150385E-001	-2.4253489E-002	1.3239712E+000	1.6509433E-001	1.000000000000000E+000	10	4.9640140E-003	1.4582579E-003	0	-6.954632963804114E-006	2.7484050E-001	1.0373568E-001	2.9376587E-001	2.0678492E+001	1.6509431E+002	4.3740598E+002	4.6752554E+002	-6.9321510E+001	0.0000000E+000	0.0000000E+000	0.0000000E+000	6.9321510E+001	0.0000000E+000	0.0000000E+000	0.0000000E+000	-6.9321510E+001	0.0000000E+000	0.0000000E+000	0.0000000E+000	-2.0678492E+001	0.0000000E+000	0.0000000E+000	0.0000000E+000	2.0678492E+001	2.6494308E+000	6.9321510E+001	-6.954632963804114E-006	-4.4021017E-006	7.4836177E+003
6.8132047E+004	3.4820910E+000	1.2861601E+000	3.7120297E+000	-2.0272430E+001	2.463488570327172E+000	1.8150550E-001	-2.2032231E-002	1.8162419E+000	2.1804234E-001	1.000000000000000E+000	10	5.4498767E-003	1.4681662E-003	0	-6.929998244909156E-006	2.5270697E-001	9.3340933E-002	2.6939440E-001	2.0272430E+001	2.1804233E+002	5.9031781E+002	6.2929926E+002	-6.9727570E+001	0.0000000E+000	0.0000000E+000	0.0000000E+000	6.9727570E+001	0.0000000E+000	0.0000000E+000	0.0000000E+000	-6.9727570E+001	0.0000000E+000	0.0000000E+000	0.0000000E+000	-2.0272430E+001	0.0000000E+000	0.0000000E+000	0.0000000E+000	2.0272430E+001	2.7073541E+000	6.9727570E+001	2.463471889495859E-008	-3.9989714E-006	8.2381807E+003
4.6420355E+004	3.7873123E+000	1.3716676E+000	4.0280523E+000	-1.9909092E+001	2.900476377719315E+000	1.8151012E-001	-2.1089315E-002	2.4995556E+000	2.8984803E-001	1.000000000000000E+000	10	5.4041604E-003	1.3416312E-003	0	-9.903688913651018E-006	2.3342152E-001	8.4539309E-002	2.4825893E-001	1.9909092E+001	2.8984799E+002	8.0029956E+002	8.5117053E+002	-7.0090912E+001	0.0000000E+000	0.0000000E+000	0.0000000E+000	7.0090912E+001	0.0000000E+000	0.0000000E+000	0.0000000E+000	-7.0090912E+001	0.0000000E+000	0.0000000E+000	0.0000000E+000	-1.9909092E+001	0.0000000E+000	0.0000000E+000	0.0000000E+000	1.9909092E+001	2.7611005E+000	7.0090912E+001	-2.973690668741862E-006	-3.8279240E-006	8.6067334E+003
3.1621139E+004	4.1114249E+000	1.4786444E+000	4.3692336E+000	-1.9780758E+001	3.338486745225964E+000	1.8150915E-001	-2.3893842E-002	3.4039166E+000	3.8984847E-001	1.000000000000000E+000	10	5.3675487E-003	1.2284875E-003	0	-1.256159735646280E-005	2.1536832E-001	7.7455670E-002	2.2887309E-001	1.9780758E+001	3.8984857E+002	1.0839879E+003	1.1519600E+003	-7.0219238E+001	0.0000000E+000	0.0000000E+000	0.0000000E+000	7.0219238E+001	0.0000000E+000	0.0000000E+000	0.0000000E+000	-7.0219238E+001	0.0000000E+000	0.0000000E+000	0.0000000E+000	-1.9780758E+001	0.0000000E+000	0.0000000E+000	0.0000000E+000	1.9780758E+001	2.7805367E+000	7.0219238E+001	-2.657908442811781E-006	-4.3369510E-006	7.5964824E+003
2.1544684E+004	4.4482036E+000	1.5856245E+000	4.7223639E+000	-1.9619320E+001	3.775499859271804E+000	1.8150607E-001	-2.3429839E-002	4.6588602E+000	5.2524441E-001	1.000000000000000E+000	10	5.2034575E-003	1.1018756E-003	0	-1.457219816398315E-005	1.9946456E-001	7.1101934E-002	2.1175835E-001	1.9619320E+001	5.2524451E+002	1.4734852E+003	1.5643019E+003	-7.0380676E+001	0.0000000E+000	0.0000000E+000	0.0000000E+000	7.0380676E+001	0.0000000E+000	0.0000000E+000	0.0000000E+000	-7.0380676E+001	0.0000000E+000	0.0000000E+000	0.0000000E+000	-1.9619320E+001	0.0000000E+000	0.0000000E+000	0.0000000E+000	1.9619320E+001	2.8053324E+000	7.0380676E+001	-2.010600807520353E-006	-4.2526581E-006	7.7467910E+003
1.4678594E+004	4.8104405E+000	1.7184213E+000	5.1081610E+000	-1.9658123E+001	4.212487293378217E+000	1.8151195E-001	-2.1994971E-002	6.3096609E+000	7.1406239E-001	1.000000000000000E+000	10	5.1880628E-003	1.0156420E-003	0	-1.812619384306648E-005	1.8435532E-001	6.5856785E-002	1.9576517E-001	1.9658123E+001	7.1406262E+002	1.9989014E+003	2.1226145E+003	-7.0341873E+001	0.0000000E+000	0.0000000E+000	0.0000000E+000	7.0341873E+001	0.0000000E+000	0.0000000E+000	0.0000000E+000	-7.0341873E+001	0.0000000E+000	0.0000000E+000	0.0000000E+000	-1.9658123E+001	0.0000000E+000	0.0000000E+000	0.0000000E+000	1.9658123E+001	2.7993371E+000	7.0341873E+001	-3.553995679083325E-006	-3.9923502E-006	8.2524297E+003
1.0002226E+004	5.1876450E+000	1.8908402E+000	5.5214977E+000	-2.0026247E+001	4.649477127502905E+000	1.8151592E-001	-2.0712903E-002	8.4152822E+000	9.8688036E-001	1.000000000000000E+000	10	5.0656381E-003	9.1743912E-004	0	-2.033621530546548E-005	1.7015959E-001	6.2021319E-002	1.8111028E-001	2.0026247E+001	9.8688019E+002	2.7075715E+003	2.8818181E+003	-6.9973755E+001	0.0000000E+000	0.0000000E+000	0.0000000E+000	6.9973755E+001	0.0000000E+000	0.0000000E+000	0.0000000E+000	-6.9973755E+001	0.0000000E+000	0.0000000E+000	0.0000000E+000	-2.0026247E+001	0.0000000E+000	0.0000000E+000	0.0000000E+000	2.0026247E+001	2.7435660E+000	6.9973755E+001	-2.210021462399001E-006	-3.7597215E-006	8.7634229E+003
6.8110674E+003	5.6101360E+000	2.1041808E+000	5.9917612E+000	-2.0559444E+001	5.027508105413290E+000	1.8154722E-001	-3.9994433E-003	1.1105085E+001	1.3695536E+000	1.000000000000000E+000	10	5.1508085E-003	8.5964851E-004	0	-1.991187724600119E-005	1.5626596E-001	5.8610313E-002	1.6689584E-001	2.0559444E+001	1.3695536E+003	3.6514834E+003	3.8998728E+003	-6.9440552E+001	0.0000000E+000	0.0000000E+000	0.0000000E+000	6.9440552E+001	0.0000000E+000	0.0000000E+000	0.0000000E+000	-6.9440552E+001	0.0000000E+000	0.0000000E+000	0.0000000E+000	-2.0559444E+001	0.0000000E+000	0.0000000E+000	0.0000000E+000	2.0559444E+001	2.6661854E+000	6.9440552E+001	4.243380594642871E-007	-7.2608782E-007	4.5393125E+004
4.6414854E+003	6.0683041E+000	2.3605800E+000	6.5112710E+000	-2.1256115E+001	5.498705994526972E+000	1.8158412E-001	6.6689155E-003	1.4525947E+001	1.9091952E+000	1.000000000000000E+000	10	5.1250933E-003	7.8711106E-004	0	-1.852736609959458E-005	1.4313169E-001	5.5678453E-002	1.5357985E-001	2.1256115E+001	1.9091954E+003	4.9079360E+003	5.2662002E+003	-6.8743881E+001	0.0000000E+000	0.0000000E+000	0.0000000E+000	6.8743881E+001	0.0000000E+000	0.0000000E+000	0.0000000E+000	-6.8743881E+001	0.0000000E+000	0.0000000E+000	0.0000000E+000	-2.1256115E+001	0.0000000E+000	0.0000000E+000	0.0000000E+000	2.1256115E+001	2.5706835E+000	6.8743881E+001	1.384511146406616E-006	1.2109691E-006	2.7228434E+004
3.1610117E+003	6.5720840E+000	2.6964169E+000	7.1037278E+000	-2.2307529E+001	5.965676203377370E+000	1.8159321E-001	7.1776398E-003	1.8672693E+001	2.6903479E+000	1.000000000000000E+000	10	5.0736140E-003	7.1421853E-004	0	-1.823157654597566E-005	1.3023584E-001	5.3433601E-002	1.4077117E-001	2.2307529E+001	2.6903477E+003	6.5572920E+003	7.0877393E+003	-6.7692474E+001	0.0000000E+000	0.0000000E+000	0.0000000E+000	6.7692474E+001	0.0000000E+000	0.0000000E+000	0.0000000E+000	-6.7692474E+001	0.0000000E+000	0.0000000E+000	0.0000000E+000	-2.2307529E+001	0.0000000E+000	0.0000000E+000	0.0000000E+000	2.2307529E+001	2.4373398E+000	6.7692474E+001	2.957895536189129E-007	1.3034106E-006	2.5299850E+004
2.1556899E+003	7.1554461E+000	3.1017435E+000	7.7987962E+000	-2.3435772E+001	6.432701425561390E+000	1.8158834E-001	6.9279326E-003	2.3802795E+001	3.7651699E+000	1.000000000000000E+000	10	5.0324472E-003	6.4528512E-004	0	-1.683567768355230E-005	1.1764720E-001	5.0997719E-002	1.2822492E-001	2.3435772E+001	3.7651702E+003	8.6859111E+003	9.4668662E+003	-6.6564224E+001	0.0000000E+000	0.0000000E+000	0.0000000E+000	6.6564224E+001	0.0000000E+000	0.0000000E+000	0.0000000E+000	-6.6564224E+001	0.0000000E+000	0.0000000E+000	0.0000000E+000	-2.3435772E+001	0.0000000E+000	0.0000000E+000	0.0000000E+000	2.3435772E+001	2.3069110E+000	6.6564224E+001	1.395898862423362E-006	1.2580317E-006	2.6211043E+004
1.4685898E+003	7.8328834E+000	3.6221597E+000	8.6298380E+000	-2.4817234E+001	6.899950034392532E+000	1.8158489E-001	6.8683014E-003	2.9919340E+001	5.2708654E+000	1.000000000000000E+000	10	5.0004763E-003	5.7944033E-004	0	-1.588337324003482E-005	1.0517593E-001	4.8636500E-002	1.1587703E-001	2.4817234E+001	5.2708652E+003	1.1398193E+004	1.2557899E+004	-6.5182770E+001	0.0000000E+000	0.0000000E+000	0.0000000E+000	6.5182770E+001	0.0000000E+000	0.0000000E+000	0.0000000E+000	-6.5182770E+001	0.0000000E+000	0.0000000E+000	0.0000000E+000	-2.4817234E+001	0.0000000E+000	0.0000000E+000	0.0000000E+000	2.4817234E+001	2.1624899E+000	6.5182770E+001	9.523044435174815E-007	1.2471797E-006	2.6438107E+004
1.0003202E+003	8.6437492E+000	4.2698445E+000	9.6408491E+000	-2.6288477E+001	7.368673016680987E+000	1.8158157E-001	6.9409744E-003	3.7262245E+001	7.3090777E+000	1.000000000000000E+000	10	4.9764062E-003	5.1617925E-004	0	-1.537103933126653E-005	9.2997573E-002	4.5938991E-002	1.0372531E-001	2.6288477E+001	7.3090771E+003	1.4796286E+004	1.6503111E+004	-6.3711525E+001	0.0000000E+000	0.0000000E+000	0.0000000E+000	6.3711525E+001	0.0000000E+000	0.0000000E+000	0.0000000E+000	-6.3711525E+001	0.0000000E+000	0.0000000E+000	0.0000000E+000	-2.6288477E+001	0.0000000E+000	0.0000000E+000	0.0000000E+000	2.6288477E+001	2.0243709E+000	6.3711525E+001	5.123339087682918E-007	1.2603531E-006	2.6160818E+004
6.8108978E+002	9.6521034E+000	5.0600934E+000	1.0898057E+001	-2.7665674E+001	7.834452052105917E+000	1.8157849E-001	6.7918953E-003	4.6180355E+001	9.9558001E+000	1.000000000000000E+000	10	4.9688462E-003	4.5593872E-004	0	-1.480318311532675E-005	8.1268795E-002	4.2604979E-002	9.1759473E-002	2.7665674E+001	9.9557988E+003	1.8990639E+004	2.1442068E+004	-6.2334328E+001	0.0000000E+000	0.0000000E+000	0.0000000E+000	6.2334328E+001	0.0000000E+000	0.0000000E+000	0.0000000E+000	-6.2334328E+001	0.0000000E+000	0.0000000E+000	0.0000000E+000	-2.7665674E+001	0.0000000E+000	0.0000000E+000	0.0000000E+000	2.7665674E+001	1.9074951E+000	6.2334328E+001	5.678562159397807E-007	1.2332621E-006	2.6734582E+004
4.6396069E+002	1.0862898E+001	5.9600964E+000	1.2390532E+001	-2.8752054E+001	8.302213434333680E+000	1.8158525E-001	7.1235895E-003	5.7555347E+001	1.3317180E+001	1.000000000000000E+000	10	4.9477774E-003	3.9931919E-004	0	-1.380306835651734E-005	7.0756406E-002	3.8821593E-002	8.0706783E-002	2.8752054E+001	1.3317180E+004	2.4271951E+004	2.7685283E+004	-6.1247948E+001	0.0000000E+000	0.0000000E+000	0.0000000E+000	6.1247948E+001	0.0000000E+000	0.0000000E+000	0.0000000E+000	-6.1247948E+001	0.0000000E+000	0.0000000E+000	0.0000000E+000	-2.8752054E+001	0.0000000E+000	0.0000000E+000	0.0000000E+000	2.8752054E+001	1.8226044E+000	6.1247948E+001	1.000114758809406E-006	1.2935388E-006	2.5490695E+004
3.1631589E+002	1.2431961E+001	6.9089770E+000	1.4222785E+001	-2.9062817E+001	8.768915109831141E+000	1.8157916E-001	6.5925005E-003	7.2825821E+001	1.7184765E+001	1.000000000000000E+000	10	4.9401899E-003	3.4734336E-004	0	-1.305589853995480E-005	6.1456859E-002	3.4154229E-002	7.0309721E-002	2.9062817E+001	1.7184764E+004	3.0922135E+004	3.5376469E+004	-6.0937183E+001	0.0000000E+000	0.0000000E+000	0.0000000E+000	6.0937183E+001	0.0000000E+000	0.0000000E+000	0.0000000E+000	-6.0937183E+001	0.0000000E+000	0.0000000E+000	0.0000000E+000	-2.9062817E+001	0.0000000E+000	0.0000000E+000	0.0000000E+000	2.9062817E+001	1.7993925E+000	6.0937180E+001	7.471698165625434E-007	1.1970607E-006	2.7543291E+004
2.1534457E+002	1.4400355E+001	7.8762016E+000	1.6413555E+001	-2.8676231E+001	9.236437638668576E+000	1.8157622E-001	6.7192144E-003	9.3835976E+001	2.1607162E+001	1.000000000000000E+000	10	4.9336823E-003	3.0058585E-004	0	-1.246383856287058E-005	5.3452484E-002	2.9235566E-002	6.0925253E-002	2.8676231E+001	2.1607160E+004	3.9505184E+004	4.5028090E+004	-6.1323769E+001	0.0000000E+000	0.0000000E+000	0.0000000E+000	6.1323769E+001	0.0000000E+000	0.0000000E+000	0.0000000E+000	-6.1323769E+001	0.0000000E+000	0.0000000E+000	0.0000000E+000	-2.8676231E+001	0.0000000E+000	0.0000000E+000	0.0000000E+000	2.8676231E+001	1.8283376E+000	6.1323769E+001	5.920599770842177E-007	1.2200495E-006	2.7023430E+004
1.4673740E+002	1.6750525E+001	8.6704721E+000	1.8861526E+001	-2.7367163E+001	9.699368940695422E+000	1.8157519E-001	5.7781618E-003	1.2509402E+002	2.6434336E+001	1.000000000000000E+000	10	4.9345205E-003	2.6161829E-004	0	-1.163595594195552E-005	4.7084153E-002	2.4371881E-002	5.3017978E-002	2.7367163E+001	2.6434336E+004	5.1068613E+004	5.7504586E+004	-6.2632835E+001	0.0000000E+000	0.0000000E+000	0.0000000E+000	6.2632835E+001	0.0000000E+000	0.0000000E+000	0.0000000E+000	-6.2632835E+001	0.0000000E+000	0.0000000E+000	0.0000000E+000	-2.7367163E+001	0.0000000E+000	0.0000000E+000	0.0000000E+000	2.7367163E+001	1.9319046E+000	6.2632835E+001	8.278826209150592E-007	1.0491708E-006	3.1424387E+004
1.0003201E+002	1.9484171E+001	9.0579815E+000	2.1486738E+001	-2.4933208E+001	1.016769989629393E+001	1.8157883E-001	6.2906146E-003	1.7565062E+002	3.1215593E+001	1.000000000000000E+000	10	4.9337633E-003	2.2961901E-004	0	-1.065968302514011E-005	4.2202767E-002	1.9619612E-002	4.6540335E-002	2.4933208E+001	3.1215594E+004	6.7146297E+004	7.4047539E+004	-6.5066788E+001	0.0000000E+000	0.0000000E+000	0.0000000E+000	6.5066788E+001	0.0000000E+000	0.0000000E+000	0.0000000E+000	-6.5066788E+001	0.0000000E+000	0.0000000E+000	0.0000000E+000	-2.4933208E+001	0.0000000E+000	0.0000000E+000	0.0000000E+000	2.4933208E+001	2.1510501E+000	6.5066788E+001	9.762729168154088E-007	1.1422425E-006	2.8865037E+004
6.8103981E+001	2.2330812E+001	9.0652742E+000	2.4100714E+001	-2.2094870E+001	1.090532118463307E+001	1.8160139E-001	-3.0495531E-003	2.5779034E+002	3.6472771E+001	1.000000000000000E+000	11	4.9376357E-003	2.0487508E-004	0	-1.044166750334827E-005	3.8445432E-002	1.5607061E-002	4.1492548E-002	2.2094870E+001	3.6472773E+004	8.9844680E+004	9.6965609E+004	-6.7905128E+001	0.0000000E+000	0.0000000E+000	0.0000000E+000	6.7905128E+001	0.0000000E+000	0.0000000E+000	0.0000000E+000	-6.7905128E+001	0.0000000E+000	0.0000000E+000	0.0000000E+000	-2.2094870E+001	0.0000000E+000	0.0000000E+000	0.0000000E+000	2.2094870E+001	2.4633355E+000	6.7905128E+001	2.180155217918379E-007	-5.5380309E-007	5.9550164E+004
4.6441547E+001	2.5057383E+001	8.4587345E+000	2.6446600E+001	-1.8653374E+001	1.136054984622751E+001	1.8159366E-001	-3.7379183E-003	4.0514276E+002	4.1445671E+001	1.000000000000000E+000	11	4.9319225E-003	1.8648607E-004	0	-1.076087880754504E-005	3.5825808E-002	1.2093882E-002	3.7812043E-002	1.8653374E+001	4.1445672E+004	1.2277487E+005	1.2958168E+005	-7.1346626E+001	0.0000000E+000	0.0000000E+000	0.0000000E+000	7.1346626E+001	0.0000000E+000	0.0000000E+000	0.0000000E+000	-7.1346626E+001	0.0000000E+000	0.0000000E+000	0.0000000E+000	-1.8653374E+001	0.0000000E+000	0.0000000E+000	0.0000000E+000	1.8653374E+001	2.9623086E+000	7.1346626E+001	-3.192113041967689E-007	-6.7878227E-007	4.8581492E+004
3.1629555E+001	2.7434015E+001	7.3886409E+000	2.8411568E+001	-1.5073473E+001	1.180744237414910E+001	1.8158995E-001	-3.9580027E-003	6.8102411E+002	4.6057590E+001	1.000000000000000E+000	11	4.9332441E-003	1.7363505E-004	0	-1.126644889015653E-005	3.3985913E-002	9.1532255E-003	3.5196930E-002	1.5073473E+001	4.6057586E+004	1.7101178E+005	1.7710542E+005	-7.4926529E+001	0.0000000E+000	0.0000000E+000	0.0000000E+000	7.4926529E+001	0.0000000E+000	0.0000000E+000	0.0000000E+000	-7.4926529E+001	0.0000000E+000	0.0000000E+000	0.0000000E+000	-1.5073473E+001	0.0000000E+000	0.0000000E+000	0.0000000E+000	1.5073473E+001	3.7129989E+000	7.4926529E+001	-5.055700826114845E-007	-7.1873347E-007	4.5879188E+004
2.1551722E+001	2.9194572E+001	6.1283498E+000	2.9830853E+001	-1.1855061E+001	1.224635020832648E+001	1.8159816E-001	-4.1106832E-003	1.2050210E+003	5.0856956E+001	1.000000000000000E+000	11	4.9284683E-003	1.6521379E-004	0	-1.117492154533910E-005	3.2807324E-002	6.8867169E-003	3.3522341E-002	1.1855061E+001	5.0856945E+004	2.4227522E+005	2.4755547E+005	-7.8144943E+001	0.0000000E+000	0.0000000E+000	0.0000000E+000	7.8144943E+001	0.0000000E+000	0.0000000E+000	0.0000000E+000	-7.8144943E+001	0.0000000E+000	0.0000000E+000	0.0000000E+000	-1.1855061E+001	0.0000000E+000	0.0000000E+000	0.0000000E+000	1.1855061E+001	4.7638555E+000	7.8144943E+001	9.152734481742573E-008	-7.4649250E-007	4.4177121E+004
1.4685154E+001	3.0494081E+001	4.8906450E+000	3.0883772E+001	-9.1115122E+000	1.272404023102717E+001	1.8160556E-001	-2.9052531E-003	2.2160291E+003	5.5570854E+001	1.000000000000000E+000	11	4.9356194E-003	1.5981271E-004	0	-1.154450774311974E-005	3.1970900E-002	5.1274970E-003	3.2379463E-002	9.1115122E+000	5.5570848E+004	3.4649463E+005	3.5092256E+005	-8.0888489E+001	0.0000000E+000	0.0000000E+000	0.0000000E+000	8.0888489E+001	0.0000000E+000	0.0000000E+000	0.0000000E+000	-8.0888489E+001	0.0000000E+000	0.0000000E+000	0.0000000E+000	-9.1115122E+000	0.0000000E+000	0.0000000E+000	0.0000000E+000	9.1115122E+000	6.2351861E+000	8.0888489E+001	-3.695861977806387E-007	-5.2761010E-007	6.2509379E+004
