EC-Lab ASCII FILE
Nb header lines : 63                          

Potentio Electrochemical Impedance Spectroscopy

Run on channel : 8 (SN 65398)
User : 
CE vs. WE compliance from -10 V to 10 V
Electrode connection : standard
Potential control : Ewe
Ewe ctrl range : min = -10.00 V, max = 10.00 V
Safety Limits :
	Do not start on E overload
Acquisition started on : 09/10/2025 16:54:56.116
Loaded Setting File :  C:\Users\Celltest\OneDrive - store-dot.com\Documents\EC-Lab\Data\Charmaine\R279\17383_C02.mpr
Saved on :
	File : 17390_C08.mpr
	Directory : C:\Users\Celltest\OneDrive - store-dot.com\Documents\EC-Lab\Data\Charmaine\R279\
	Host : 169.254.61.224
Device : VMP-3e (SN .003165)
Address : USB
EC-LAB for windows v11.62 (software)
Internet server v27.00 (firmware)
Command interpretor v12.03 (firmware)
Electrode material : 
Initial state : 
Electrolyte : 
Comments : 
Electrode surface area : 0.001 cm²
Characteristic mass : 0.001 g
Equivalent Weight : 0.000 g/eq.
Density : 0.000 g/cm3
Volume (V) : 0.001 cm³
Cycle Definition : Charge/Discharge alternance
Mode                Single sine         
E (V)               0.0000              
vs.                 Eoc                 
tE (h:m:s)          0:00:0.0000         
record              0                   
dI                  0.000               
unit dI             mA                  
dt (s)              0.000               
fi                  100.000             
unit fi             kHz                 
ff                  10.000              
unit ff             mHz                 
Nd                  6                   
Points              per decade          
spacing             Logarithmic         
Va (mV)             5.0                 
pw                  0.10                
Na                  2                   
corr                0                   
E range min (V)     -10.000             
E range max (V)     10.000              
I Range             Auto                
Bandwidth           5                   
nc cycles           0                   
goto Ns'            0                   
nr cycles           0                   
inc. cycle          0                   

freq/Hz	Re(Z)/Ohm	-Im(Z)/Ohm	|Z|/Ohm	Phase(Z)/deg	time/s	<Ewe>/V	<I>/mA	Cs/µF	Cp/µF	cycle number	I Range	|Ewe|/V	|I|/A	Ns	(Q-Qo)/mA.h	Re(Y)/Ohm-1	Im(Y)/Ohm-1	|Y|/Ohm-1	Phase(Y)/deg	Re(C)/nF	Im(C)/nF	|C|/nF	Phase(C)/deg	Re(M)	Im(M)	|M|	Phase(M)/deg	Re(Permittivity)	Im(Permittivity)	|Permittivity|	Phase(Permittivity)/deg	Re(Resistivity)/Ohm.cm	Im(Resistivity)/Ohm.cm	|Resistivity|/Ohm.cm	Phase(Resistivity)/deg	Re(Conductivity)/mS/cm	Im(Conductivity)/mS/cm	|Conductivity|/mS/cm	Phase(Conductivity)/deg	Tan(Delta)	Loss Angle(Delta)/deg	dq/mA.h	Pwe/W	Rwe/Ohm	
1.0000371E+005	1.2111217E+000	2.2338715E-001	1.2315508E+000	-1.0450551E+001	2.226490639062831E+000	2.9014042E-001	4.6895832E-002	7.1243591E+000	2.3439994E-001	1.000000000000000E+000	9	4.4235261E-003	3.5918341E-003	0	7.228200131173556E-006	7.9851502E-001	1.4728330E-001	8.1198436E-001	1.0450551E+001	2.3440001E+002	1.2708289E+003	1.2922653E+003	-7.9549446E+001	0.0000000E+000	0.0000000E+000	0.0000000E+000	7.9549446E+001	0.0000000E+000	0.0000000E+000	0.0000000E+000	-7.9549446E+001	0.0000000E+000	0.0000000E+000	0.0000000E+000	-1.0450551E+001	0.0000000E+000	0.0000000E+000	0.0000000E+000	1.0450551E+001	5.4216266E+000	7.9549446E+001	7.228200131173556E-006	1.3606376E-005	6.1869126E+003
6.8132047E+004	1.2674277E+000	2.5352827E-001	1.2925360E+000	-1.1311790E+001	2.663482126459712E+000	2.9014489E-001	4.6840031E-002	9.2138748E+000	3.5449472E-001	1.000000000000000E+000	9	4.7354870E-003	3.6637175E-003	0	1.212717084108024E-005	7.5864369E-001	1.5175432E-001	7.7367282E-001	1.1311790E+001	3.5449472E+002	1.7721748E+003	1.8072825E+003	-7.8688210E+001	0.0000000E+000	0.0000000E+000	0.0000000E+000	7.8688210E+001	0.0000000E+000	0.0000000E+000	0.0000000E+000	-7.8688210E+001	0.0000000E+000	0.0000000E+000	0.0000000E+000	-1.1311790E+001	0.0000000E+000	0.0000000E+000	0.0000000E+000	1.1311790E+001	4.9991574E+000	7.8688210E+001	4.898970709906683E-006	1.3590396E-005	6.1943789E+003
4.6420355E+004	1.3255836E+000	2.8657749E-001	1.3562074E+000	-1.2199017E+001	3.101494387286948E+000	2.9014733E-001	4.7509674E-002	1.1963813E+001	5.3419715E-001	1.000000000000000E+000	9	5.1254411E-003	3.7792458E-003	0	1.548369531749955E-005	7.2070062E-001	1.5580805E-001	7.3735034E-001	1.2199017E+001	5.3419727E+002	2.4709646E+003	2.5280493E+003	-7.7800980E+001	0.0000000E+000	0.0000000E+000	0.0000000E+000	7.7800980E+001	0.0000000E+000	0.0000000E+000	0.0000000E+000	-7.7800980E+001	0.0000000E+000	0.0000000E+000	0.0000000E+000	-1.2199017E+001	0.0000000E+000	0.0000000E+000	0.0000000E+000	1.2199017E+001	4.6255674E+000	7.7800980E+001	3.356524476419309E-006	1.3784806E-005	6.1071211E+003
3.1621139E+004	1.3906256E+000	3.2818758E-001	1.4288270E+000	-1.3278833E+001	3.680476068140706E+000	2.9013807E-001	4.5816962E-002	1.5336296E+001	8.0910605E-001	1.000000000000000E+000	9	4.6676691E-003	3.2667839E-003	0	1.850312986382697E-005	6.8116277E-001	1.6075438E-001	6.9987476E-001	1.3278833E+001	8.0910590E+002	3.4284160E+003	3.5225969E+003	-7.6721169E+001	0.0000000E+000	0.0000000E+000	0.0000000E+000	7.6721169E+001	0.0000000E+000	0.0000000E+000	0.0000000E+000	-7.6721169E+001	0.0000000E+000	0.0000000E+000	0.0000000E+000	-1.3278833E+001	0.0000000E+000	0.0000000E+000	0.0000000E+000	1.3278833E+001	4.2372890E+000	7.6721169E+001	3.019434546327425E-006	1.3293245E-005	6.3325469E+003
2.1544684E+004	1.4658548E+000	3.6960763E-001	1.5117341E+000	-1.4151843E+001	4.118493502232013E+000	2.9014605E-001	4.6635415E-002	1.9986609E+001	1.1947310E+000	1.000000000000000E+000	9	5.0551621E-003	3.3439493E-003	0	2.792573258633881E-005	6.4141649E-001	1.6172981E-001	6.6149199E-001	1.4151843E+001	1.1947307E+003	4.7382734E+003	4.8865752E+003	-7.5848160E+001	0.0000000E+000	0.0000000E+000	0.0000000E+000	7.5848160E+001	0.0000000E+000	0.0000000E+000	0.0000000E+000	-7.5848160E+001	0.0000000E+000	0.0000000E+000	0.0000000E+000	-1.4151843E+001	0.0000000E+000	0.0000000E+000	0.0000000E+000	1.4151843E+001	3.9659755E+000	7.5848160E+001	9.422602722511832E-006	1.3531082E-005	6.2215820E+003
1.4678594E+004	1.5551037E+000	4.2011359E-001	1.6108515E+000	-1.5117666E+001	4.697482249728637E+000	2.9014561E-001	4.7472462E-002	2.5808867E+001	1.7554618E+000	1.000000000000000E+000	9	4.6822918E-003	2.9067183E-003	0	3.785968110881287E-005	5.9930557E-001	1.6190331E-001	6.2078971E-001	1.5117666E+001	1.7554620E+003	6.4980640E+003	6.7310088E+003	-7.4882332E+001	0.0000000E+000	0.0000000E+000	0.0000000E+000	7.4882332E+001	0.0000000E+000	0.0000000E+000	0.0000000E+000	-7.4882332E+001	0.0000000E+000	0.0000000E+000	0.0000000E+000	-1.5117666E+001	0.0000000E+000	0.0000000E+000	0.0000000E+000	1.5117666E+001	3.7016265E+000	7.4882332E+001	9.933948522474064E-006	1.3773926E-005	6.1118721E+003
1.0002226E+004	1.6481133E+000	4.7684759E-001	1.7157100E+000	-1.6136709E+001	5.134478323830990E+000	2.9015183E-001	4.7491062E-002	3.3369053E+001	2.5775986E+000	1.000000000000000E+000	9	4.7983346E-003	2.7967049E-003	0	4.145502178805570E-005	5.5988556E-001	1.6199134E-001	5.8284909E-001	1.6136709E+001	2.5775986E+003	8.9088721E+003	9.2742666E+003	-7.3863289E+001	0.0000000E+000	0.0000000E+000	0.0000000E+000	7.3863289E+001	0.0000000E+000	0.0000000E+000	0.0000000E+000	-7.3863289E+001	0.0000000E+000	0.0000000E+000	0.0000000E+000	-1.6136709E+001	0.0000000E+000	0.0000000E+000	0.0000000E+000	1.6136709E+001	3.4562683E+000	7.3863289E+001	3.595340679242827E-006	1.3779619E-005	6.1096094E+003
6.8110674E+003	1.7583126E+000	5.4438895E-001	1.8406582E+000	-1.7202982E+001	5.689494936872507E+000	2.9013017E-001	2.6602015E-002	4.2923550E+001	3.7546370E+000	1.000000000000000E+000	9	5.1406007E-003	2.7928057E-003	0	3.813617707428663E-005	5.1897901E-001	1.6068044E-001	5.4328394E-001	1.7202982E+001	3.7546367E+003	1.2127038E+004	1.2694974E+004	-7.2797020E+001	0.0000000E+000	0.0000000E+000	0.0000000E+000	7.2797020E+001	0.0000000E+000	0.0000000E+000	0.0000000E+000	-7.2797020E+001	0.0000000E+000	0.0000000E+000	0.0000000E+000	-1.7202982E+001	0.0000000E+000	0.0000000E+000	0.0000000E+000	1.7202982E+001	3.2298830E+000	7.2797020E+001	-3.318844713769064E-006	7.7180466E-006	1.0906323E+004
4.6414854E+003	1.8726300E+000	6.2602949E-001	1.9745015E+000	-1.8485037E+001	6.605688953779463E+000	2.9014018E-001	3.7055828E-002	5.4773228E+001	5.5060863E+000	1.000000000000000E+000	9	5.0456207E-003	2.5553897E-003	0	4.182827667897153E-005	4.8032707E-001	1.6057572E-001	5.0645697E-001	1.8485037E+001	5.5060869E+003	1.6470252E+004	1.7366236E+004	-7.1514961E+001	0.0000000E+000	0.0000000E+000	0.0000000E+000	7.1514961E+001	0.0000000E+000	0.0000000E+000	0.0000000E+000	-7.1514961E+001	0.0000000E+000	0.0000000E+000	0.0000000E+000	-1.8485037E+001	0.0000000E+000	0.0000000E+000	0.0000000E+000	1.8485037E+001	2.9912808E+000	7.1514961E+001	3.692099604684897E-006	1.0751384E-005	7.8298125E+003
3.1610117E+003	2.0011549E+000	7.2814369E-001	2.1295104E+000	-1.9994509E+001	7.295682159885473E+000	2.9014650E-001	3.5716541E-002	6.9147575E+001	8.0844707E+000	1.000000000000000E+000	9	4.9967896E-003	2.3464500E-003	0	4.996446059640342E-005	4.4128707E-001	1.6056746E-001	4.6959150E-001	1.9994509E+001	8.0844692E+003	2.2218523E+004	2.3643635E+004	-7.0005493E+001	0.0000000E+000	0.0000000E+000	0.0000000E+000	7.0005493E+001	0.0000000E+000	0.0000000E+000	0.0000000E+000	-7.0005493E+001	0.0000000E+000	0.0000000E+000	0.0000000E+000	-1.9994509E+001	0.0000000E+000	0.0000000E+000	0.0000000E+000	1.9994509E+001	2.7482967E+000	7.0005493E+001	8.136183917431887E-006	1.0363029E-005	8.1235889E+003
2.1556899E+003	2.1440005E+000	8.5841244E-001	2.3094611E+000	-2.1820118E+001	7.985672325987252E+000	2.9013267E-001	3.2628752E-002	8.6007797E+001	1.1882519E+001	1.000000000000000E+000	9	5.1389267E-003	2.2251627E-003	0	5.231641475482482E-005	4.0197924E-001	1.6094397E-001	4.3300146E-001	2.1820118E+001	1.1882518E+004	2.9678193E+004	3.1968568E+004	-6.8179886E+001	0.0000000E+000	0.0000000E+000	0.0000000E+000	6.8179886E+001	0.0000000E+000	0.0000000E+000	0.0000000E+000	-6.8179886E+001	0.0000000E+000	0.0000000E+000	0.0000000E+000	-2.1820118E+001	0.0000000E+000	0.0000000E+000	0.0000000E+000	2.1820118E+001	2.4976344E+000	6.8179886E+001	2.351954158421400E-006	9.4666675E-006	8.8919326E+003
1.4685898E+003	2.2986670E+000	1.0314901E+000	2.5194924E+000	-2.4167397E+001	8.452922908152686E+000	2.9013583E-001	3.5418920E-002	1.0506416E+002	1.7609968E+001	1.000000000000000E+000	9	5.4012486E-003	2.1437844E-003	0	5.467928376163359E-005	3.6211786E-001	1.6249460E-001	3.9690533E-001	2.4167397E+001	1.7609969E+004	3.9243668E+004	4.3013676E+004	-6.5832603E+001	0.0000000E+000	0.0000000E+000	0.0000000E+000	6.5832603E+001	0.0000000E+000	0.0000000E+000	0.0000000E+000	-6.5832603E+001	0.0000000E+000	0.0000000E+000	0.0000000E+000	-2.4167397E+001	0.0000000E+000	0.0000000E+000	0.0000000E+000	2.4167397E+001	2.2284915E+000	6.5832603E+001	2.362869006808775E-006	1.0276298E-005	8.1915493E+003
1.0003202E+003	2.4847698E+000	1.2534372E+000	2.7830174E+000	-2.6768570E+001	8.921686183777638E+000	2.9013729E-001	3.0526817E-002	1.2693417E+002	2.5748493E+001	1.000000000000000E+000	9	5.3219520E-003	1.9122957E-003	0	5.970479160058312E-005	3.2081473E-001	1.6183436E-001	3.5932222E-001	2.6768570E+001	2.5748494E+004	5.1042910E+004	5.7169605E+004	-6.3231430E+001	0.0000000E+000	0.0000000E+000	0.0000000E+000	6.3231430E+001	0.0000000E+000	0.0000000E+000	0.0000000E+000	-6.3231430E+001	0.0000000E+000	0.0000000E+000	0.0000000E+000	-2.6768570E+001	0.0000000E+000	0.0000000E+000	0.0000000E+000	2.6768570E+001	1.9823649E+000	6.3231430E+001	5.025507838949529E-006	8.8569677E-006	9.5043418E+003
6.8108978E+002	2.7040877E+000	1.5641114E+000	3.1238654E+000	-3.0046152E+001	9.642454191314755E+000	2.9013261E-001	-4.2348974E-003	1.4939914E+002	3.7454056E+001	1.000000000000000E+000	10	5.3249383E-003	1.7045992E-003	0	5.978003289475520E-005	2.7709976E-001	1.6028138E-001	3.2011622E-001	3.0046152E+001	3.7454051E+004	6.4751813E+004	7.4803766E+004	-5.9953850E+001	0.0000000E+000	0.0000000E+000	0.0000000E+000	5.9953850E+001	0.0000000E+000	0.0000000E+000	0.0000000E+000	-5.9953850E+001	0.0000000E+000	0.0000000E+000	0.0000000E+000	-3.0046152E+001	0.0000000E+000	0.0000000E+000	0.0000000E+000	3.0046152E+001	1.7288333E+000	5.9953850E+001	7.524129417207709E-008	-1.2286819E-006	6.8509953E+004
4.6396069E+002	3.0010605E+000	1.9823371E+000	3.5966685E+000	-3.3446579E+001	1.011122525358223E+001	2.9014024E-001	-4.4934489E-003	1.7304594E+002	5.2567295E+001	1.000000000000000E+000	10	5.2275313E-003	1.4534370E-003	0	5.994248775152179E-005	2.3199248E-001	1.5324160E-001	2.7803507E-001	3.3446579E+001	5.2567297E+004	7.9581641E+004	9.5375875E+004	-5.6553421E+001	0.0000000E+000	0.0000000E+000	0.0000000E+000	5.6553421E+001	0.0000000E+000	0.0000000E+000	0.0000000E+000	-5.6553421E+001	0.0000000E+000	0.0000000E+000	0.0000000E+000	-3.3446579E+001	0.0000000E+000	0.0000000E+000	0.0000000E+000	3.3446579E+001	1.5139002E+000	5.6553421E+001	1.624548567665939E-007	-1.3037303E-006	6.4569609E+004
3.1631589E+002	3.4108677E+000	2.5190773E+000	4.2402558E+000	-3.6447514E+001	1.057792370242532E+001	2.9014283E-001	-4.6180696E-003	1.9973660E+002	7.0494705E+001	1.000000000000000E+000	10	5.1289457E-003	1.2095841E-003	0	5.972828321800949E-005	1.8970586E-001	1.4010620E-001	2.3583482E-001	3.6447514E+001	7.0494711E+004	9.5450875E+004	1.1866075E+005	-5.3552486E+001	0.0000000E+000	0.0000000E+000	0.0000000E+000	5.3552486E+001	0.0000000E+000	0.0000000E+000	0.0000000E+000	-5.3552486E+001	0.0000000E+000	0.0000000E+000	0.0000000E+000	-3.6447514E+001	0.0000000E+000	0.0000000E+000	0.0000000E+000	3.6447514E+001	1.3540148E+000	5.3552490E+001	-2.142045335123006E-007	-1.3398998E-006	6.2827730E+004
2.1534457E+002	4.0098782E+000	3.1790185E+000	5.1171556E+000	-3.8407269E+001	1.104544007129152E+001	2.9013246E-001	-5.2765114E-003	2.3248404E+002	8.9726768E+001	1.000000000000000E+000	10	5.0698258E-003	9.9075073E-004	0	5.854430042648972E-005	1.5313481E-001	1.2140479E-001	1.9542107E-001	3.8407269E+001	8.9726773E+004	1.1317752E+005	1.4443006E+005	-5.1592731E+001	0.0000000E+000	0.0000000E+000	0.0000000E+000	5.1592731E+001	0.0000000E+000	0.0000000E+000	0.0000000E+000	-5.1592731E+001	0.0000000E+000	0.0000000E+000	0.0000000E+000	-3.8407269E+001	0.0000000E+000	0.0000000E+000	0.0000000E+000	3.8407269E+001	1.2613573E+000	5.1592728E+001	-1.183982791519768E-006	-1.5308873E-006	5.4985660E+004
1.4673740E+002	4.8592663E+000	3.9169259E+000	6.2413764E+000	-3.8871368E+001	1.150837305324967E+001	2.9014194E-001	-5.6317709E-003	2.7690701E+002	1.0905961E+002	1.000000000000000E+000	10	5.0314879E-003	8.0615038E-004	0	5.788915084047605E-005	1.2474121E-001	1.0055059E-001	1.6022107E-001	3.8871368E+001	1.0905962E+005	1.3529736E+005	1.7377967E+005	-5.1128632E+001	0.0000000E+000	0.0000000E+000	0.0000000E+000	5.1128632E+001	0.0000000E+000	0.0000000E+000	0.0000000E+000	-5.1128632E+001	0.0000000E+000	0.0000000E+000	0.0000000E+000	-3.8871368E+001	0.0000000E+000	0.0000000E+000	0.0000000E+000	3.8871368E+001	1.2405816E+000	5.1128632E+001	-6.551495860136736E-007	-1.6340130E-006	5.1518773E+004
1.0003201E+002	6.0208559E+000	4.6551056E+000	7.6105657E+000	-3.7709885E+001	1.197670542221749E+001	2.9013774E-001	-5.6838556E-003	3.4178391E+002	1.2787240E+002	1.000000000000000E+000	10	5.0166827E-003	6.5917341E-004	0	5.729834106531214E-005	1.0394996E-001	8.0370314E-002	1.3139628E-001	3.7709885E+001	1.2787239E+005	1.6538856E+005	2.0905675E+005	-5.2290115E+001	0.0000000E+000	0.0000000E+000	0.0000000E+000	5.2290115E+001	0.0000000E+000	0.0000000E+000	0.0000000E+000	-5.2290115E+001	0.0000000E+000	0.0000000E+000	0.0000000E+000	-3.7709885E+001	0.0000000E+000	0.0000000E+000	0.0000000E+000	3.7709885E+001	1.2933877E+000	5.2290115E+001	-5.908097751639084E-007	-1.6491010E-006	5.1045938E+004
6.8103981E+001	7.4982662E+000	5.2244139E+000	9.1388454E+000	-3.4866840E+001	1.245534133826732E+001	2.9013810E-001	-5.0254245E-003	4.4731149E+002	1.4618491E+002	1.000000000000000E+000	10	5.0076055E-003	5.4794730E-004	0	5.676230736781144E-005	8.9779705E-002	6.2553972E-002	1.0942301E-001	3.4866840E+001	1.4618491E+005	2.0980981E+005	2.5571505E+005	-5.5133160E+001	0.0000000E+000	0.0000000E+000	0.0000000E+000	5.5133160E+001	0.0000000E+000	0.0000000E+000	0.0000000E+000	-5.5133160E+001	0.0000000E+000	0.0000000E+000	0.0000000E+000	-3.4866840E+001	0.0000000E+000	0.0000000E+000	0.0000000E+000	3.4866840E+001	1.4352359E+000	5.5133163E+001	-5.360336975006983E-007	-1.4580671E-006	5.7734047E+004
4.6441547E+001	9.2026701E+000	5.5103941E+000	1.0726303E+001	-3.0912418E+001	1.291052050652797E+001	2.9013380E-001	-6.9170273E-003	6.2191467E+002	1.6413303E+002	1.000000000000000E+000	10	5.0034714E-003	4.6646746E-004	0	5.573912682652089E-005	7.9985954E-002	4.7894154E-002	9.3228765E-002	3.0912418E+001	1.6413302E+005	2.7411144E+005	3.1949450E+005	-5.9087582E+001	0.0000000E+000	0.0000000E+000	0.0000000E+000	5.9087582E+001	0.0000000E+000	0.0000000E+000	0.0000000E+000	-5.9087582E+001	0.0000000E+000	0.0000000E+000	0.0000000E+000	-3.0912418E+001	0.0000000E+000	0.0000000E+000	0.0000000E+000	3.0912418E+001	1.6700566E+000	5.9087585E+001	-1.023180541290556E-006	-2.0068635E-006	4.1944867E+004
3.1629555E+001	1.0976894E+001	5.3735127E+000	1.2221573E+001	-2.6083107E+001	1.335644314103411E+001	2.9012764E-001	-7.1420879E-003	9.3641583E+002	1.8102190E+002	1.000000000000000E+000	10	5.0044460E-003	4.0947643E-004	0	5.489709460740818E-005	7.3489495E-002	3.5975270E-002	8.1822529E-002	2.6083107E+001	1.8102189E+005	3.6978759E+005	4.1171809E+005	-6.3916893E+001	0.0000000E+000	0.0000000E+000	0.0000000E+000	6.3916893E+001	0.0000000E+000	0.0000000E+000	0.0000000E+000	-6.3916893E+001	0.0000000E+000	0.0000000E+000	0.0000000E+000	-2.6083107E+001	0.0000000E+000	0.0000000E+000	0.0000000E+000	2.6083107E+001	2.0427783E+000	6.3916893E+001	-8.420322191127026E-007	-2.0721170E-006	4.0622242E+004
2.1551722E+001	1.2544225E+001	4.9071665E+000	1.3469887E+001	-2.1364904E+001	1.379532806857605E+001	2.9012460E-001	-8.6691352E-003	1.5048989E+003	1.9972896E+002	1.000000000000000E+000	10	4.9926802E-003	3.7065495E-004	0	5.285787890192457E-005	6.9137856E-002	2.7045988E-002	7.4239671E-002	2.1364904E+001	1.9972895E+005	5.1056853E+005	5.4824438E+005	-6.8635094E+001	0.0000000E+000	0.0000000E+000	0.0000000E+000	6.8635094E+001	0.0000000E+000	0.0000000E+000	0.0000000E+000	-6.8635094E+001	0.0000000E+000	0.0000000E+000	0.0000000E+000	-2.1364904E+001	0.0000000E+000	0.0000000E+000	0.0000000E+000	2.1364904E+001	2.5563071E+000	6.8635094E+001	-2.039215705483611E-006	-2.5151294E-006	3.3466383E+004
1.4685154E+001	1.3848105E+001	4.2472110E+000	1.4484779E+001	-1.7050764E+001	1.453104986352264E+001	2.9014677E-001	-4.5609805E-003	2.5517480E+003	2.1939246E+002	1.000000000000000E+000	11	5.0011952E-003	3.4527245E-004	0	5.495109465461186E-005	6.6003449E-002	2.0243242E-002	6.9037989E-002	1.7050764E+001	2.1939245E+005	7.1533288E+005	7.4822069E+005	-7.2949234E+001	0.0000000E+000	0.0000000E+000	0.0000000E+000	7.2949234E+001	0.0000000E+000	0.0000000E+000	0.0000000E+000	-7.2949234E+001	0.0000000E+000	0.0000000E+000	0.0000000E+000	-1.7050764E+001	0.0000000E+000	0.0000000E+000	0.0000000E+000	1.7050764E+001	3.2605174E+000	7.2949234E+001	2.093215752687283E-006	-1.3233538E-006	6.3615000E+004
1.0003201E+001	1.4760092E+001	3.5580690E+000	1.5182891E+001	-1.3553149E+001	1.499971340580669E+001	2.9014248E-001	-4.7359327E-003	4.4716392E+003	2.4557635E+002	1.000000000000000E+000	11	4.9987417E-003	3.2923516E-004	0	5.586019665143653E-005	6.4029500E-002	1.5434956E-002	6.5863609E-002	1.3553149E+001	2.4557628E+005	1.0187350E+006	1.0479164E+006	-7.6446854E+001	0.0000000E+000	0.0000000E+000	0.0000000E+000	7.6446854E+001	0.0000000E+000	0.0000000E+000	0.0000000E+000	-7.6446854E+001	0.0000000E+000	0.0000000E+000	0.0000000E+000	-1.3553149E+001	0.0000000E+000	0.0000000E+000	0.0000000E+000	1.3553149E+001	4.1483436E+000	7.6446854E+001	9.091019968246767E-007	-1.3740953E-006	6.1264063E+004
