EC-Lab ASCII FILE
Nb header lines : 63                          

Potentio Electrochemical Impedance Spectroscopy

Run on channel : 1 (SN 66354)
User : 
CE vs. WE compliance from -10 V to 10 V
Electrode connection : standard
Potential control : Ewe
Ewe ctrl range : min = -10.00 V, max = 10.00 V
Safety Limits :
	Do not start on E overload
Acquisition started on : 09/11/2025 15:38:10.785
Loaded Setting File :  C:\Users\Celltest\OneDrive - store-dot.com\Documents\EC-Lab\Data\Gyutae\EIS_SOC0_C01.mpr
Saved on :
	File : 17391_C01.mpr
	Directory : C:\Users\Celltest\OneDrive - store-dot.com\Documents\EC-Lab\Data\Charmaine\R279\
	Host : 169.254.61.224
Device : VMP-3e (SN .003165)
Address : USB
EC-LAB for windows v11.62 (software)
Internet server v27.00 (firmware)
Command interpretor v12.03 (firmware)
Electrode material : 
Initial state : 
Electrolyte : 
Comments : 
Electrode surface area : 0.001 cm²
Characteristic mass : 0.001 g
Equivalent Weight : 0.000 g/eq.
Density : 0.000 g/cm3
Volume (V) : 0.001 cm³
Cycle Definition : Charge/Discharge alternance
Mode                Single sine         
E (V)               0.0000              
vs.                 Eoc                 
tE (h:m:s)          0:00:0.0000         
record              0                   
dI                  0.000               
unit dI             mA                  
dt (s)              0.000               
fi                  100.000             
unit fi             kHz                 
ff                  10.000              
unit ff             mHz                 
Nd                  6                   
Points              per decade          
spacing             Logarithmic         
Va (mV)             5.0                 
pw                  0.10                
Na                  2                   
corr                0                   
E range min (V)     -10.000             
E range max (V)     10.000              
I Range             Auto                
Bandwidth           5                   
nc cycles           0                   
goto Ns'            0                   
nr cycles           0                   
inc. cycle          0                   

freq/Hz	Re(Z)/Ohm	-Im(Z)/Ohm	|Z|/Ohm	Phase(Z)/deg	time/s	<Ewe>/V	<I>/mA	Cs/µF	Cp/µF	cycle number	I Range	|Ewe|/V	|I|/A	Ns	(Q-Qo)/mA.h	Re(Y)/Ohm-1	Im(Y)/Ohm-1	|Y|/Ohm-1	Phase(Y)/deg	Re(C)/nF	Im(C)/nF	|C|/nF	Phase(C)/deg	Re(M)	Im(M)	|M|	Phase(M)/deg	Re(Permittivity)	Im(Permittivity)	|Permittivity|	Phase(Permittivity)/deg	Re(Resistivity)/Ohm.cm	Im(Resistivity)/Ohm.cm	|Resistivity|/Ohm.cm	Phase(Resistivity)/deg	Re(Conductivity)/mS/cm	Im(Conductivity)/mS/cm	|Conductivity|/mS/cm	Phase(Conductivity)/deg	Tan(Delta)	Loss Angle(Delta)/deg	dq/mA.h	Pwe/W	Rwe/Ohm	
1.0000371E+005	1.5504342E+000	9.3266577E-002	1.5532370E+000	-3.4424865E+000	2.706475328508532E+000	2.5172246E-001	5.9732765E-002	1.7063887E+001	6.1525423E-002	1.000000000000000E+000	9	4.6405811E-003	2.9876840E-003	0	4.225955274369982E-007	6.4265507E-001	3.8658995E-002	6.4381677E-001	3.4424865E+000	6.1525475E+001	1.0227793E+003	1.0246282E+003	-8.6557510E+001	0.0000000E+000	0.0000000E+000	0.0000000E+000	8.6557510E+001	0.0000000E+000	0.0000000E+000	0.0000000E+000	-8.6557510E+001	0.0000000E+000	0.0000000E+000	0.0000000E+000	-3.4424865E+000	0.0000000E+000	0.0000000E+000	0.0000000E+000	3.4424865E+000	1.6623686E+001	8.6557510E+001	4.225955274369982E-007	1.5036078E-005	4.2141436E+003
6.8132047E+004	1.5932531E+000	4.0796664E-001	1.6446557E+000	-1.4362503E+001	3.285484529362293E+000	2.5174218E-001	5.8857292E-002	5.7259040E+000	3.5232490E-001	1.000000000000000E+000	9	5.1435102E-003	3.1274084E-003	0	1.316838119587758E-005	5.8902645E-001	1.5082547E-001	6.0803002E-001	1.4362503E+001	3.5232489E+002	1.3759526E+003	1.4203445E+003	-7.5637497E+001	0.0000000E+000	0.0000000E+000	0.0000000E+000	7.5637497E+001	0.0000000E+000	0.0000000E+000	0.0000000E+000	-7.5637497E+001	0.0000000E+000	0.0000000E+000	0.0000000E+000	-1.4362503E+001	0.0000000E+000	0.0000000E+000	0.0000000E+000	1.4362503E+001	3.9053514E+000	7.5637497E+001	1.274578566844058E-005	1.4816863E-005	4.2771621E+003
4.6420355E+004	1.6161193E+000	6.8352276E-001	1.7547207E+000	-2.2925486E+001	3.863480716798222E+000	2.5171930E-001	6.6270895E-002	5.0160136E+000	7.6111215E-001	1.000000000000000E+000	9	5.0933324E-003	2.9026456E-003	0	2.487168885785569E-005	5.2487683E-001	2.2199184E-001	5.6989127E-001	2.2925486E+001	7.6111212E+002	1.7995714E+003	1.9539061E+003	-6.7074516E+001	0.0000000E+000	0.0000000E+000	0.0000000E+000	6.7074516E+001	0.0000000E+000	0.0000000E+000	0.0000000E+000	-6.7074516E+001	0.0000000E+000	0.0000000E+000	0.0000000E+000	-2.2925486E+001	0.0000000E+000	0.0000000E+000	0.0000000E+000	2.2925486E+001	2.3643970E+000	6.7074516E+001	1.170330766197811E-005	1.6681663E-005	3.7983386E+003
3.1621139E+004	1.4850484E+000	9.7103703E-001	1.7743398E+000	-3.3179695E+001	4.441478957625804E+000	2.5173625E-001	7.0964940E-002	5.1833062E+000	1.5524043E+000	1.000000000000000E+000	9	5.0816140E-003	2.8639464E-003	0	4.113171930605636E-005	4.7170126E-001	3.0843398E-001	5.6358993E-001	3.3179695E+001	1.5524043E+003	2.3741582E+003	2.8366506E+003	-5.6820305E+001	0.0000000E+000	0.0000000E+000	0.0000000E+000	5.6820305E+001	0.0000000E+000	0.0000000E+000	0.0000000E+000	-5.6820305E+001	0.0000000E+000	0.0000000E+000	0.0000000E+000	-3.3179695E+001	0.0000000E+000	0.0000000E+000	0.0000000E+000	3.3179695E+001	1.5293428E+000	5.6820305E+001	1.626003044820068E-005	1.7864448E-005	3.5473328E+003
2.1544684E+004	1.7044789E+000	9.2348415E-001	1.9385746E+000	-2.8448769E+001	4.878498684993247E+000	2.5173703E-001	6.9847323E-002	7.9992743E+000	1.8152835E+000	1.000000000000000E+000	9	5.3940807E-003	2.7824985E-003	0	5.318819353928686E-005	4.5355150E-001	2.4573351E-001	5.1584291E-001	2.8448769E+001	1.8152833E+003	3.3504768E+003	3.8106362E+003	-6.1551231E+001	0.0000000E+000	0.0000000E+000	0.0000000E+000	6.1551231E+001	0.0000000E+000	0.0000000E+000	0.0000000E+000	-6.1551231E+001	0.0000000E+000	0.0000000E+000	0.0000000E+000	-2.8448769E+001	0.0000000E+000	0.0000000E+000	0.0000000E+000	2.8448769E+001	1.8457046E+000	6.1551231E+001	1.205647423323049E-005	1.7583157E-005	3.6041042E+003
1.4678594E+004	1.9094958E+000	8.1058562E-001	2.0744212E+000	-2.3001341E+001	5.315488839085447E+000	2.5173509E-001	6.3607208E-002	1.3376324E+001	2.0423994E+000	1.000000000000000E+000	9	4.7704903E-003	2.2996729E-003	0	6.460393609640757E-005	4.4373617E-001	1.8836708E-001	4.8206219E-001	2.3001341E+001	2.0423995E+003	4.8112783E+003	5.2268340E+003	-6.6998657E+001	0.0000000E+000	0.0000000E+000	0.0000000E+000	6.6998657E+001	0.0000000E+000	0.0000000E+000	0.0000000E+000	-6.6998657E+001	0.0000000E+000	0.0000000E+000	0.0000000E+000	-2.3001341E+001	0.0000000E+000	0.0000000E+000	0.0000000E+000	2.3001341E+001	2.3556991E+000	6.6998657E+001	1.141574255712072E-005	1.6012167E-005	3.9576504E+003
1.0002226E+004	2.0374312E+000	7.9095292E-001	2.1855738E+000	-2.1216751E+001	5.752478326525306E+000	2.5172913E-001	6.4799353E-002	2.0117447E+001	2.6347728E+000	1.000000000000000E+000	9	4.9317111E-003	2.2564835E-003	0	7.192358466931101E-005	4.2653242E-001	1.6558449E-001	4.5754576E-001	2.1216751E+001	2.6347727E+003	6.7869634E+003	7.2804463E+003	-6.8783249E+001	0.0000000E+000	0.0000000E+000	0.0000000E+000	6.8783249E+001	0.0000000E+000	0.0000000E+000	0.0000000E+000	-6.8783249E+001	0.0000000E+000	0.0000000E+000	0.0000000E+000	-2.1216751E+001	0.0000000E+000	0.0000000E+000	0.0000000E+000	2.1216751E+001	2.5759196E+000	6.8783249E+001	7.319648572903434E-006	1.6311886E-005	3.8847476E+003
6.8110674E+003	2.1977987E+000	7.6468450E-001	2.3270285E+000	-1.9184420E+001	6.130512984498637E+000	2.5151128E-001	-1.6638650E-002	3.0557842E+001	3.2997711E+000	1.000000000000000E+000	9	4.6051918E-003	1.9790011E-003	0	6.978460637930160E-005	4.0586773E-001	1.4121436E-001	4.2973259E-001	1.9184420E+001	3.2997705E+003	9.4839541E+003	1.0041607E+004	-7.0815582E+001	0.0000000E+000	0.0000000E+000	0.0000000E+000	7.0815582E+001	0.0000000E+000	0.0000000E+000	0.0000000E+000	-7.0815582E+001	0.0000000E+000	0.0000000E+000	0.0000000E+000	-1.9184420E+001	0.0000000E+000	0.0000000E+000	0.0000000E+000	1.9184420E+001	2.8741248E+000	7.0815582E+001	-2.138978290009411E-006	-4.1848079E-006	1.5116087E+004
4.6414854E+003	2.3465145E+000	7.8358740E-001	2.4738915E+000	-1.8466059E+001	6.824711017514346E+000	2.5174248E-001	1.0117820E-001	4.3759838E+001	4.3902502E+000	1.000000000000000E+000	9	4.8549138E-003	1.9624603E-003	0	8.659954951331020E-005	3.8340867E-001	1.2803425E-001	4.0422145E-001	1.8466059E+001	4.3902500E+003	1.3146952E+004	1.3860615E+004	-7.1533943E+001	0.0000000E+000	0.0000000E+000	0.0000000E+000	7.1533943E+001	0.0000000E+000	0.0000000E+000	0.0000000E+000	-7.1533943E+001	0.0000000E+000	0.0000000E+000	0.0000000E+000	-1.8466059E+001	0.0000000E+000	0.0000000E+000	0.0000000E+000	1.8466059E+001	2.9945791E+000	7.1533943E+001	1.681494313400860E-005	2.5470850E-005	2.4881099E+003
3.1610117E+003	2.4886963E+000	8.3919191E-001	2.6263764E+000	-1.8634178E+001	7.291668906356790E+000	2.5173992E-001	1.0330168E-001	5.9997440E+001	6.1254978E+000	1.000000000000000E+000	9	4.7800727E-003	1.8200258E-003	0	1.003573811641739E-004	3.6079291E-001	1.2165987E-001	3.8075274E-001	1.8634178E+001	6.1254971E+003	1.8165693E+004	1.9170658E+004	-7.1365822E+001	0.0000000E+000	0.0000000E+000	0.0000000E+000	7.1365822E+001	0.0000000E+000	0.0000000E+000	0.0000000E+000	-7.1365822E+001	0.0000000E+000	0.0000000E+000	0.0000000E+000	-1.8634178E+001	0.0000000E+000	0.0000000E+000	0.0000000E+000	1.8634178E+001	2.9655867E+000	7.1365822E+001	1.375783165086371E-005	2.6005157E-005	2.4369392E+003
2.1556899E+003	2.6428473E+000	9.4092494E-001	2.8053486E+000	-1.9597101E+001	7.758676101875608E+000	2.5173530E-001	9.5590033E-002	7.8465515E+001	8.8270407E+000	1.000000000000000E+000	9	4.7413516E-003	1.6901114E-003	0	1.115051400430449E-004	3.3581367E-001	1.1955873E-001	3.5646194E-001	1.9597101E+001	8.8270391E+003	2.4793178E+004	2.6317643E+004	-7.0402901E+001	0.0000000E+000	0.0000000E+000	0.0000000E+000	7.0402901E+001	0.0000000E+000	0.0000000E+000	0.0000000E+000	-7.0402901E+001	0.0000000E+000	0.0000000E+000	0.0000000E+000	-1.9597101E+001	0.0000000E+000	0.0000000E+000	0.0000000E+000	1.9597101E+001	2.8087759E+000	7.0402901E+001	1.114775887887098E-005	2.4063385E-005	2.6334890E+003
1.4685898E+003	2.8209047E+000	1.1214585E+000	3.0356503E+000	-2.1680433E+001	8.225960097392090E+000	2.5173026E-001	9.0877362E-002	9.6635437E+001	1.3188621E+001	1.000000000000000E+000	9	4.7225002E-003	1.5556799E-003	0	1.218627139925763E-004	3.0611524E-001	1.2169697E-001	3.2941872E-001	2.1680433E+001	1.3188622E+004	3.3174512E+004	3.5699973E+004	-6.8319565E+001	0.0000000E+000	0.0000000E+000	0.0000000E+000	6.8319565E+001	0.0000000E+000	0.0000000E+000	0.0000000E+000	-6.8319565E+001	0.0000000E+000	0.0000000E+000	0.0000000E+000	-2.1680433E+001	0.0000000E+000	0.0000000E+000	0.0000000E+000	2.1680433E+001	2.5153892E+000	6.8319565E+001	1.035757394953138E-005	2.2876582E-005	2.7699998E+003
1.0003202E+003	3.0361359E+000	1.3640352E+000	3.3284702E+000	-2.4192802E+001	8.948691118399438E+000	2.5170621E-001	-7.7431463E-003	1.1664215E+002	1.9589228E+001	1.000000000000000E+000	10	4.7979499E-003	1.4414880E-003	0	1.295408712740625E-004	2.7405131E-001	1.2312216E-001	3.0043831E-001	2.4192802E+001	1.9589229E+004	4.3602656E+004	4.7800938E+004	-6.5807198E+001	0.0000000E+000	0.0000000E+000	0.0000000E+000	6.5807198E+001	0.0000000E+000	0.0000000E+000	0.0000000E+000	-6.5807198E+001	0.0000000E+000	0.0000000E+000	0.0000000E+000	-2.4192802E+001	0.0000000E+000	0.0000000E+000	0.0000000E+000	2.4192802E+001	2.2258487E+000	6.5807198E+001	7.678157281486273E-006	-1.9489980E-006	3.2506969E+004
6.8108978E+002	3.2892785E+000	1.6970785E+000	3.7012739E+000	-2.7291130E+001	9.414427060488379E+000	2.5171053E-001	-7.7189226E-003	1.3769363E+002	2.8947781E+001	1.000000000000000E+000	10	4.7677131E-003	1.2881276E-003	0	1.293909672818101E-004	2.4010333E-001	1.2387951E-001	2.7017725E-001	2.7291130E+001	2.8947775E+004	5.6106598E+004	6.3134176E+004	-6.2708870E+001	0.0000000E+000	0.0000000E+000	0.0000000E+000	6.2708870E+001	0.0000000E+000	0.0000000E+000	0.0000000E+000	-6.2708870E+001	0.0000000E+000	0.0000000E+000	0.0000000E+000	-2.7291130E+001	0.0000000E+000	0.0000000E+000	0.0000000E+000	2.7291130E+001	1.9382006E+000	6.2708870E+001	-1.499039922524075E-007	-1.9429342E-006	3.2609543E+004
4.6396069E+002	3.6212239E+000	2.1395628E+000	4.2060661E+000	-3.0576281E+001	9.883221082767705E+000	2.5172174E-001	-7.0834807E-003	1.6032965E+002	4.1486977E+001	1.000000000000000E+000	10	4.7372449E-003	1.1262888E-003	0	1.283788627034196E-004	2.0469309E-001	1.2094081E-001	2.3775186E-001	3.0576281E+001	4.1486973E+004	7.0216977E+004	8.1557297E+004	-5.9423721E+001	0.0000000E+000	0.0000000E+000	0.0000000E+000	5.9423721E+001	0.0000000E+000	0.0000000E+000	0.0000000E+000	-5.9423721E+001	0.0000000E+000	0.0000000E+000	0.0000000E+000	-3.0576281E+001	0.0000000E+000	0.0000000E+000	0.0000000E+000	3.0576281E+001	1.6925064E+000	5.9423721E+001	-1.012104578390567E-006	-1.7830661E-006	3.5536449E+004
3.1631589E+002	4.0769787E+000	2.7025106E+000	4.8913512E+000	-3.3539242E+001	1.034993118493003E+001	2.5170869E-001	-8.2313819E-003	1.8617944E+002	5.6834080E+001	1.000000000000000E+000	10	4.7184085E-003	9.6464314E-004	0	1.278576244944836E-004	1.7040437E-001	1.1295611E-001	2.0444249E-001	3.3539242E+001	5.6834082E+004	8.5739289E+004	1.0286563E+005	-5.6460758E+001	0.0000000E+000	0.0000000E+000	0.0000000E+000	5.6460758E+001	0.0000000E+000	0.0000000E+000	0.0000000E+000	-5.6460758E+001	0.0000000E+000	0.0000000E+000	0.0000000E+000	-3.3539242E+001	0.0000000E+000	0.0000000E+000	0.0000000E+000	3.3539242E+001	1.5085894E+000	5.6460754E+001	-5.212382089359654E-007	-2.0719103E-006	3.0579152E+004
2.1534457E+002	4.7374344E+000	3.3762829E+000	5.8174367E+000	-3.5476776E+001	1.081745339379995E+001	2.5169832E-001	-8.4755030E-003	2.1890083E+002	7.3732971E+001	1.000000000000000E+000	10	4.6953941E-003	8.0712425E-004	0	1.276749274194719E-004	1.3998447E-001	9.9764369E-002	1.7189701E-001	3.5476776E+001	7.3732969E+004	1.0345848E+005	1.2704412E+005	-5.4523224E+001	0.0000000E+000	0.0000000E+000	0.0000000E+000	5.4523224E+001	0.0000000E+000	0.0000000E+000	0.0000000E+000	-5.4523224E+001	0.0000000E+000	0.0000000E+000	0.0000000E+000	-3.5476776E+001	0.0000000E+000	0.0000000E+000	0.0000000E+000	3.5476776E+001	1.4031509E+000	5.4523224E+001	-1.826970750116921E-007	-2.1332698E-006	2.9697154E+004
1.4673740E+002	5.6899161E+000	4.1106548E+000	7.0194464E+000	-3.5846062E+001	1.128036760244868E+001	2.5170267E-001	-9.2954347E-003	2.6385681E+002	9.0486671E+001	1.000000000000000E+000	10	4.6925810E-003	6.6851155E-004	0	1.262644230621776E-004	1.1547823E-001	8.3426736E-002	1.4246137E-001	3.5846062E+001	9.0486664E+004	1.2525049E+005	1.5451706E+005	-5.4153938E+001	0.0000000E+000	0.0000000E+000	0.0000000E+000	5.4153938E+001	0.0000000E+000	0.0000000E+000	0.0000000E+000	-5.4153938E+001	0.0000000E+000	0.0000000E+000	0.0000000E+000	-3.5846062E+001	0.0000000E+000	0.0000000E+000	0.0000000E+000	3.5846062E+001	1.3841872E+000	5.4153938E+001	-1.410504357294266E-006	-2.3396858E-006	2.7078096E+004
1.0003201E+002	6.9595256E+000	4.7741904E+000	8.4396620E+000	-3.4449875E+001	1.174869493138976E+001	2.5170416E-001	-8.0525028E-003	3.3325864E+002	1.0664261E+002	1.000000000000000E+000	10	4.6903398E-003	5.5574969E-004	0	1.247851531877677E-004	9.7707868E-002	6.7026973E-002	1.1848816E-001	3.4449875E+001	1.0664261E+005	1.5545714E+005	1.8851941E+005	-5.5550125E+001	0.0000000E+000	0.0000000E+000	0.0000000E+000	5.5550125E+001	0.0000000E+000	0.0000000E+000	0.0000000E+000	-5.5550125E+001	0.0000000E+000	0.0000000E+000	0.0000000E+000	-3.4449875E+001	0.0000000E+000	0.0000000E+000	0.0000000E+000	3.4449875E+001	1.4577395E+000	5.5550125E+001	-1.479269874409933E-006	-2.0268485E-006	3.1257879E+004
6.8103981E+001	8.5213375E+000	5.2047548E+000	9.9851217E+000	-3.1416203E+001	1.222734511407907E+001	2.5171390E-001	-6.0380935E-003	4.4900101E+002	1.2199476E+002	1.000000000000000E+000	10	4.6817986E-003	4.6887746E-004	0	1.238244290867604E-004	8.5467502E-002	5.2202769E-002	1.0014901E-001	3.1416203E+001	1.2199475E+005	1.9973245E+005	2.3404225E+005	-5.8583797E+001	0.0000000E+000	0.0000000E+000	0.0000000E+000	5.8583797E+001	0.0000000E+000	0.0000000E+000	0.0000000E+000	-5.8583797E+001	0.0000000E+000	0.0000000E+000	0.0000000E+000	-3.1416203E+001	0.0000000E+000	0.0000000E+000	0.0000000E+000	3.1416203E+001	1.6372217E+000	5.8583801E+001	-9.607241010073353E-007	-1.5198721E-006	4.1687645E+004
4.6441547E+001	1.0252986E+001	5.3074508E+000	1.1545248E+001	-2.7368311E+001	1.268252809569822E+001	2.5170100E-001	-1.2709318E-002	6.4569507E+002	1.3645609E+002	1.000000000000000E+000	10	4.6852417E-003	4.0581560E-004	0	1.223134171224665E-004	7.6920800E-002	3.9817996E-002	8.6615719E-002	2.7368311E+001	1.3645608E+005	2.6360722E+005	2.9683166E+005	-6.2631691E+001	0.0000000E+000	0.0000000E+000	0.0000000E+000	6.2631691E+001	0.0000000E+000	0.0000000E+000	0.0000000E+000	-6.2631691E+001	0.0000000E+000	0.0000000E+000	0.0000000E+000	-2.7368311E+001	0.0000000E+000	0.0000000E+000	0.0000000E+000	2.7368311E+001	1.9318099E+000	6.2631691E+001	-1.511011964293888E-006	-3.1989480E-006	1.9804445E+004
3.1629555E+001	1.1902024E+001	4.9560323E+000	1.2892651E+001	-2.2606966E+001	1.312844595688512E+001	2.5169083E-001	-1.6251775E-002	1.0152965E+003	1.5002953E+002	1.000000000000000E+000	10	4.6866359E-003	3.6351220E-004	0	1.208595740471388E-004	7.1603857E-002	2.9816022E-002	7.7563569E-002	2.2606966E+001	1.5002952E+005	3.6029931E+005	3.9028766E+005	-6.7393036E+001	0.0000000E+000	0.0000000E+000	0.0000000E+000	6.7393036E+001	0.0000000E+000	0.0000000E+000	0.0000000E+000	-6.7393036E+001	0.0000000E+000	0.0000000E+000	0.0000000E+000	-2.2606966E+001	0.0000000E+000	0.0000000E+000	0.0000000E+000	2.2606966E+001	2.4015226E+000	6.7393036E+001	-1.453843075327718E-006	-4.0904229E-006	1.5486976E+004
2.1551722E+001	1.3240049E+001	4.3695636E+000	1.3942453E+001	-1.8264246E+001	1.356733552439255E+001	2.5169766E-001	-1.9894859E-002	1.6900520E+003	1.6599606E+002	1.000000000000000E+000	10	4.6737809E-003	3.3521940E-004	0	1.188520692185557E-004	6.8110049E-002	2.2478104E-002	7.1723387E-002	1.8264246E+001	1.6599608E+005	5.0297847E+005	5.2966219E+005	-7.1735756E+001	0.0000000E+000	0.0000000E+000	0.0000000E+000	7.1735756E+001	0.0000000E+000	0.0000000E+000	0.0000000E+000	-7.1735756E+001	0.0000000E+000	0.0000000E+000	0.0000000E+000	-1.8264246E+001	0.0000000E+000	0.0000000E+000	0.0000000E+000	1.8264246E+001	3.0300622E+000	7.1735756E+001	-2.007504828583067E-006	-5.0074896E-006	1.2651392E+004
1.4685154E+001	1.4326395E+001	3.6626720E+000	1.4787182E+001	-1.4341000E+001	1.430402601274545E+001	2.5174418E-001	-5.9650023E-003	2.9589905E+003	1.8153853E+002	1.000000000000000E+000	11	4.6783672E-003	3.1637991E-004	0	1.145970211942782E-004	6.5518826E-002	1.6750477E-002	6.7626141E-002	1.4341000E+001	1.8153859E+005	7.1008075E+005	7.3291944E+005	-7.5658997E+001	0.0000000E+000	0.0000000E+000	0.0000000E+000	7.5658997E+001	0.0000000E+000	0.0000000E+000	0.0000000E+000	-7.5658997E+001	0.0000000E+000	0.0000000E+000	0.0000000E+000	-1.4341000E+001	0.0000000E+000	0.0000000E+000	0.0000000E+000	1.4341000E+001	3.9114599E+000	7.5658997E+001	-4.255048024277540E-006	-1.5016547E-006	4.2203535E+004
1.0003201E+001	1.5091928E+001	3.0029900E+000	1.5387795E+001	-1.1253720E+001	1.477271238168760E+001	2.5172898E-001	-6.2686880E-003	5.2981865E+003	2.0178191E+002	1.000000000000000E+000	11	4.6822750E-003	3.0428497E-004	0	1.147314392459262E-004	6.3737042E-002	1.2682389E-002	6.4986564E-002	1.1253720E+001	2.0178192E+005	1.0140819E+006	1.0339623E+006	-7.8746277E+001	0.0000000E+000	0.0000000E+000	0.0000000E+000	7.8746277E+001	0.0000000E+000	0.0000000E+000	0.0000000E+000	-7.8746277E+001	0.0000000E+000	0.0000000E+000	0.0000000E+000	-1.1253720E+001	0.0000000E+000	0.0000000E+000	0.0000000E+000	1.1253720E+001	5.0256338E+000	7.8746277E+001	1.344180516480364E-007	-1.5780105E-006	4.0156566E+004
