EC-Lab ASCII FILE
Nb header lines : 63                          

Potentio Electrochemical Impedance Spectroscopy

Run on channel : 4 (SN 66756)
User : 
CE vs. WE compliance from -10 V to 10 V
Electrode connection : standard
Potential control : Ewe
Ewe ctrl range : min = -10.00 V, max = 10.00 V
Safety Limits :
	Do not start on E overload
Acquisition started on : 09/11/2025 15:38:39.795
Loaded Setting File :  C:\Users\Celltest\OneDrive - store-dot.com\Documents\EC-Lab\Data\Charmaine\R279\17382.mps
Saved on :
	File : 17398_C04.mpr
	Directory : C:\Users\Celltest\OneDrive - store-dot.com\Documents\EC-Lab\Data\Charmaine\R279\
	Host : 169.254.61.224
Device : VMP-3e (SN .003165)
Address : USB
EC-LAB for windows v11.62 (software)
Internet server v27.00 (firmware)
Command interpretor v12.03 (firmware)
Electrode material : 
Initial state : 
Electrolyte : 
Comments : 
Electrode surface area : 0.001 cm²
Characteristic mass : 0.001 g
Equivalent Weight : 0.000 g/eq.
Density : 0.000 g/cm3
Volume (V) : 0.001 cm³
Cycle Definition : Charge/Discharge alternance
Mode                Single sine         
E (V)               0.0000              
vs.                 Eoc                 
tE (h:m:s)          0:00:0.0000         
record              0                   
dI                  0.000               
unit dI             mA                  
dt (s)              0.000               
fi                  100.000             
unit fi             kHz                 
ff                  10.000              
unit ff             mHz                 
Nd                  6                   
Points              per decade          
spacing             Logarithmic         
Va (mV)             5.0                 
pw                  0.10                
Na                  2                   
corr                0                   
E range min (V)     -10.000             
E range max (V)     10.000              
I Range             Auto                
Bandwidth           5                   
nc cycles           0                   
goto Ns'            0                   
nr cycles           0                   
inc. cycle          0                   

freq/Hz	Re(Z)/Ohm	-Im(Z)/Ohm	|Z|/Ohm	Phase(Z)/deg	time/s	<Ewe>/V	<I>/mA	Cs/µF	Cp/µF	cycle number	I Range	|Ewe|/V	|I|/A	Ns	(Q-Qo)/mA.h	Re(Y)/Ohm-1	Im(Y)/Ohm-1	|Y|/Ohm-1	Phase(Y)/deg	Re(C)/nF	Im(C)/nF	|C|/nF	Phase(C)/deg	Re(M)	Im(M)	|M|	Phase(M)/deg	Re(Permittivity)	Im(Permittivity)	|Permittivity|	Phase(Permittivity)/deg	Re(Resistivity)/Ohm.cm	Im(Resistivity)/Ohm.cm	|Resistivity|/Ohm.cm	Phase(Resistivity)/deg	Re(Conductivity)/mS/cm	Im(Conductivity)/mS/cm	|Conductivity|/mS/cm	Phase(Conductivity)/deg	Tan(Delta)	Loss Angle(Delta)/deg	dq/mA.h	Pwe/W	Rwe/Ohm	
1.0000371E+005	2.2541392E+000	7.7751899E-001	2.3844662E+000	-1.9030823E+001	1.865479315252742E+000	2.3380898E-001	-7.5754784E-002	2.0468829E+000	2.1763697E-001	1.000000000000000E+000	9	4.6300408E-003	1.9417515E-003	0	-1.888389425944640E-005	3.9645910E-001	1.3675043E-001	4.1938108E-001	1.9030823E+001	2.1763696E+002	6.3096082E+002	6.6744092E+002	-7.0969177E+001	0.0000000E+000	0.0000000E+000	0.0000000E+000	7.0969177E+001	0.0000000E+000	0.0000000E+000	0.0000000E+000	-7.0969177E+001	0.0000000E+000	0.0000000E+000	0.0000000E+000	-1.9030823E+001	0.0000000E+000	0.0000000E+000	0.0000000E+000	1.9030823E+001	2.8991437E+000	7.0969177E+001	-1.888389425944640E-005	-1.7712149E-005	3.0863923E+003
6.8132047E+004	2.4484463E+000	8.2298923E-001	2.5830603E+000	-1.8578894E+001	2.444499129400356E+000	2.3382621E-001	-6.9115862E-002	2.8384063E+000	2.8813350E-001	1.000000000000000E+000	9	5.0435010E-003	1.9525294E-003	0	-3.405829883870481E-005	3.6696234E-001	1.2334601E-001	3.8713771E-001	1.8578894E+001	2.8813354E+002	8.5721582E+002	9.0434503E+002	-7.1421104E+001	0.0000000E+000	0.0000000E+000	0.0000000E+000	7.1421104E+001	0.0000000E+000	0.0000000E+000	0.0000000E+000	-7.1421104E+001	0.0000000E+000	0.0000000E+000	0.0000000E+000	-1.8578894E+001	0.0000000E+000	0.0000000E+000	0.0000000E+000	1.8578894E+001	2.9750648E+000	7.1421104E+001	-1.517440457925841E-005	-1.6161101E-005	3.3831047E+003
4.6420355E+004	2.6365695E+000	8.8307726E-001	2.7805259E+000	-1.8517460E+001	3.022493183525512E+000	2.3380879E-001	-7.1353704E-002	3.8825135E+000	3.9161244E-001	1.000000000000000E+000	9	5.0492655E-003	1.8159390E-003	0	-4.254077897633477E-005	3.4102431E-001	1.1422071E-001	3.5964420E-001	1.8517460E+001	3.9161240E+002	1.1692222E+003	1.2330615E+003	-7.1482544E+001	0.0000000E+000	0.0000000E+000	0.0000000E+000	7.1482544E+001	0.0000000E+000	0.0000000E+000	0.0000000E+000	-7.1482544E+001	0.0000000E+000	0.0000000E+000	0.0000000E+000	-1.8517460E+001	0.0000000E+000	0.0000000E+000	0.0000000E+000	1.8517460E+001	2.9856613E+000	7.1482544E+001	-8.482480137629963E-006	-1.6683123E-005	3.2767576E+003
3.1621139E+004	2.8275869E+000	9.6991628E-001	2.9893119E+000	-1.8932947E+001	3.459492510970449E+000	2.3382176E-001	-7.1801275E-002	5.1892953E+000	5.4630405E-001	1.000000000000000E+000	9	5.3232699E-003	1.7807676E-003	0	-5.025700715076851E-005	3.1642696E-001	1.0854050E-001	3.3452514E-001	1.8932947E+001	5.4630402E+002	1.5926346E+003	1.6837260E+003	-7.1067055E+001	0.0000000E+000	0.0000000E+000	0.0000000E+000	7.1067055E+001	0.0000000E+000	0.0000000E+000	0.0000000E+000	-7.1067055E+001	0.0000000E+000	0.0000000E+000	0.0000000E+000	-1.8932947E+001	0.0000000E+000	0.0000000E+000	0.0000000E+000	1.8932947E+001	2.9152896E+000	7.1067055E+001	-7.716228174433732E-006	-1.6788701E-005	3.2565127E+003
2.1544684E+004	3.0479782E+000	1.0643200E+000	3.2284591E+000	-1.9248632E+001	3.896490478393389E+000	2.3381856E-001	-7.1894526E-002	6.9407725E+000	7.5433046E-001	1.000000000000000E+000	9	5.1841424E-003	1.6057637E-003	0	-5.825217623455036E-005	2.9242957E-001	1.0211314E-001	3.0974528E-001	1.9248632E+001	7.5433051E+002	2.1602363E+003	2.2881511E+003	-7.0751366E+001	0.0000000E+000	0.0000000E+000	0.0000000E+000	7.0751366E+001	0.0000000E+000	0.0000000E+000	0.0000000E+000	-7.0751366E+001	0.0000000E+000	0.0000000E+000	0.0000000E+000	-1.9248632E+001	0.0000000E+000	0.0000000E+000	0.0000000E+000	1.9248632E+001	2.8637800E+000	7.0751366E+001	-7.995169083781855E-006	-1.6810274E-005	3.2522441E+003
1.4678594E+004	3.2947400E+000	1.1680094E+000	3.4956484E+000	-1.9519787E+001	4.333481485809898E+000	2.3381193E-001	-7.6295614E-002	9.2830210E+000	1.0363979E+000	1.000000000000000E+000	9	5.0194254E-003	1.4359069E-003	0	-6.641225468112518E-005	2.6962841E-001	9.5585234E-002	2.8606996E-001	1.9519787E+001	1.0363981E+003	2.9234883E+003	3.1017583E+003	-7.0480209E+001	0.0000000E+000	0.0000000E+000	0.0000000E+000	7.0480209E+001	0.0000000E+000	0.0000000E+000	0.0000000E+000	-7.0480209E+001	0.0000000E+000	0.0000000E+000	0.0000000E+000	-1.9519787E+001	0.0000000E+000	0.0000000E+000	0.0000000E+000	1.9519787E+001	2.8208163E+000	7.0480209E+001	-8.160078446574814E-006	-1.7838825E-005	3.0645527E+003
1.0002226E+004	3.5542359E+000	1.3131580E+000	3.7890601E+000	-2.0277397E+001	4.629494193213759E+000	2.3383018E-001	-7.5605623E-002	1.2117318E+001	1.4553837E+000	1.000000000000000E+000	9	5.0297682E-003	1.3274448E-003	0	-7.112894723922686E-005	2.4756157E-001	9.1464803E-002	2.6391768E-001	2.0277397E+001	1.4553835E+003	3.9391882E+003	4.1994458E+003	-6.9722603E+001	0.0000000E+000	0.0000000E+000	0.0000000E+000	6.9722603E+001	0.0000000E+000	0.0000000E+000	0.0000000E+000	-6.9722603E+001	0.0000000E+000	0.0000000E+000	0.0000000E+000	-2.0277397E+001	0.0000000E+000	0.0000000E+000	0.0000000E+000	2.0277397E+001	2.7066324E+000	6.9722603E+001	-4.716692558101688E-006	-1.7678876E-005	3.0927617E+003
6.8110674E+003	3.8640666E+000	1.4954146E+000	4.1433411E+000	-2.1156706E+001	5.217493367817951E+000	2.3384742E-001	-3.8469676E-002	1.5625838E+001	2.0354724E+000	1.000000000000000E+000	10	4.8763123E-003	1.1769035E-003	0	-7.638365253924146E-005	2.2508328E-001	8.7108441E-002	2.4135111E-001	2.1156706E+001	2.0354725E+003	5.2595454E+003	5.6396777E+003	-6.8843292E+001	0.0000000E+000	0.0000000E+000	0.0000000E+000	6.8843292E+001	0.0000000E+000	0.0000000E+000	0.0000000E+000	-6.8843292E+001	0.0000000E+000	0.0000000E+000	0.0000000E+000	-2.1156706E+001	0.0000000E+000	0.0000000E+000	0.0000000E+000	2.1156706E+001	2.5839434E+000	6.8843292E+001	-5.254705300014600E-006	-8.9960349E-006	6.0787471E+003
4.6414854E+003	4.2020202E+000	1.7116899E+000	4.5372739E+000	-2.2163490E+001	5.688712003553519E+000	2.3387828E-001	-2.9644076E-002	2.0032635E+001	2.8510067E+000	1.000000000000000E+000	10	5.0172792E-003	1.1057915E-003	0	-7.946882753577018E-005	2.0411180E-001	8.3144799E-002	2.2039665E-001	2.2163490E+001	2.8510066E+003	6.9989238E+003	7.5573257E+003	-6.7836510E+001	0.0000000E+000	0.0000000E+000	0.0000000E+000	6.7836510E+001	0.0000000E+000	0.0000000E+000	0.0000000E+000	-6.7836510E+001	0.0000000E+000	0.0000000E+000	0.0000000E+000	-2.2163490E+001	0.0000000E+000	0.0000000E+000	0.0000000E+000	2.2163490E+001	2.4548957E+000	6.7836510E+001	-3.085174996528717E-006	-6.9331054E-006	7.8895454E+003
3.1610117E+003	4.5702157E+000	1.9697440E+000	4.9766216E+000	-2.3315842E+001	6.155674532405101E+000	2.3388207E-001	-2.9640349E-002	2.5561377E+001	4.0043731E+000	1.000000000000000E+000	10	4.9824463E-003	1.0011704E-003	0	-8.275264887790804E-005	1.8453020E-001	7.9531744E-002	2.0093952E-001	2.3315842E+001	4.0043730E+003	9.2909785E+003	1.0117178E+004	-6.6684158E+001	0.0000000E+000	0.0000000E+000	0.0000000E+000	6.6684158E+001	0.0000000E+000	0.0000000E+000	0.0000000E+000	-6.6684158E+001	0.0000000E+000	0.0000000E+000	0.0000000E+000	-2.3315842E+001	0.0000000E+000	0.0000000E+000	0.0000000E+000	2.3315842E+001	2.3202081E+000	6.6684158E+001	-3.283821342137859E-006	-6.9323460E-006	7.8906650E+003
2.1556899E+003	5.0105238E+000	2.2769001E+000	5.5036011E+000	-2.4438166E+001	6.622686101247382E+000	2.3387539E-001	-2.9304633E-002	3.2425735E+001	5.5498838E+000	1.000000000000000E+000	10	4.9248831E-003	8.9484738E-004	0	-8.683383756227946E-005	1.6542047E-001	7.5170957E-002	1.8169922E-001	2.4438166E+001	5.5498838E+003	1.2213021E+004	1.3414883E+004	-6.5561836E+001	0.0000000E+000	0.0000000E+000	0.0000000E+000	6.5561836E+001	0.0000000E+000	0.0000000E+000	0.0000000E+000	-6.5561836E+001	0.0000000E+000	0.0000000E+000	0.0000000E+000	-2.4438166E+001	0.0000000E+000	0.0000000E+000	0.0000000E+000	2.4438166E+001	2.2005901E+000	6.5561836E+001	-4.081188684371421E-006	-6.8536324E-006	7.9808335E+003
1.4685898E+003	5.5078874E+000	2.6572509E+000	6.1153746E+000	-2.5754736E+001	7.089922070095781E+000	2.3387182E-001	-2.9162902E-002	4.0783741E+001	7.7002721E+000	1.000000000000000E+000	10	4.8682089E-003	7.9606060E-004	0	-8.988924056228199E-005	1.4727837E-001	7.1053654E-002	1.6352229E-001	2.5754736E+001	7.7002710E+003	1.5960941E+004	1.7721338E+004	-6.4245262E+001	0.0000000E+000	0.0000000E+000	0.0000000E+000	6.4245262E+001	0.0000000E+000	0.0000000E+000	0.0000000E+000	-6.4245262E+001	0.0000000E+000	0.0000000E+000	0.0000000E+000	-2.5754736E+001	0.0000000E+000	0.0000000E+000	0.0000000E+000	2.5754736E+001	2.0727766E+000	6.4245262E+001	-3.055403000002527E-006	-6.8203808E-006	8.0194976E+003
1.0003202E+003	6.1040063E+000	3.1164429E+000	6.8535471E+000	-2.7046902E+001	7.558688012373750E+000	2.3391727E-001	-2.8144564E-002	5.1053074E+001	1.0556245E+001	1.000000000000000E+000	10	4.8269597E-003	7.0430094E-004	0	-9.402108043574521E-005	1.2995236E-001	6.6348083E-002	1.4590985E-001	2.7046902E+001	1.0556245E+004	2.0675939E+004	2.3214840E+004	-6.2953098E+001	0.0000000E+000	0.0000000E+000	0.0000000E+000	6.2953098E+001	0.0000000E+000	0.0000000E+000	0.0000000E+000	-6.2953098E+001	0.0000000E+000	0.0000000E+000	0.0000000E+000	-2.7046902E+001	0.0000000E+000	0.0000000E+000	0.0000000E+000	2.7046902E+001	1.9586453E+000	6.2953094E+001	-4.131839873463221E-006	-6.5834997E-006	8.3112764E+003
6.8108978E+002	6.8159261E+000	3.6812196E+000	7.7464976E+000	-2.8373079E+001	8.024411261110799E+000	2.3386779E-001	-2.8713416E-002	6.3478123E+001	1.4334968E+001	1.000000000000000E+000	10	4.7913711E-003	6.1852095E-004	0	-9.762721753675982E-005	1.1358319E-001	6.1345249E-002	1.2909059E-001	2.8373079E+001	1.4334967E+004	2.6541768E+004	3.0165488E+004	-6.1626923E+001	0.0000000E+000	0.0000000E+000	0.0000000E+000	6.1626923E+001	0.0000000E+000	0.0000000E+000	0.0000000E+000	-6.1626923E+001	0.0000000E+000	0.0000000E+000	0.0000000E+000	-2.8373079E+001	0.0000000E+000	0.0000000E+000	0.0000000E+000	2.8373079E+001	1.8515402E+000	6.1626923E+001	-3.606137101014615E-006	-6.7151432E-006	8.1448960E+003
4.6396069E+002	7.6837382E+000	4.3287697E+000	8.8191881E+000	-2.9395506E+001	8.493207683408400E+000	2.3388141E-001	-2.7706275E-002	7.9245468E+001	1.9091770E+001	1.000000000000000E+000	10	4.7690389E-003	5.4075714E-004	0	-1.012582562919650E-004	9.8790534E-002	5.5655397E-002	1.1338912E-001	2.9395506E+001	1.9091773E+004	3.3888652E+004	3.8896484E+004	-6.0604492E+001	0.0000000E+000	0.0000000E+000	0.0000000E+000	6.0604492E+001	0.0000000E+000	0.0000000E+000	0.0000000E+000	-6.0604492E+001	0.0000000E+000	0.0000000E+000	0.0000000E+000	-2.9395506E+001	0.0000000E+000	0.0000000E+000	0.0000000E+000	2.9395506E+001	1.7750398E+000	6.0604492E+001	-3.631038755205133E-006	-6.4799829E-006	8.4414600E+003
3.1631589E+002	8.7574949E+000	5.0762901E+000	1.0122374E+001	-3.0098764E+001	8.959906558913644E+000	2.3390077E-001	-2.7913298E-002	9.9118034E+001	2.4927622E+001	1.000000000000000E+000	10	4.7506429E-003	4.6932104E-004	0	-1.051362000187316E-004	8.5470289E-002	4.9542934E-002	9.8791055E-002	3.0098764E+001	2.4927621E+004	4.3004543E+004	4.9706910E+004	-5.9901237E+001	0.0000000E+000	0.0000000E+000	0.0000000E+000	5.9901237E+001	0.0000000E+000	0.0000000E+000	0.0000000E+000	-5.9901237E+001	0.0000000E+000	0.0000000E+000	0.0000000E+000	-3.0098764E+001	0.0000000E+000	0.0000000E+000	0.0000000E+000	3.0098764E+001	1.7251762E+000	5.9901237E+001	-3.877943726766605E-006	-6.5289419E-006	8.3795459E+003
2.1534457E+002	1.0154113E+001	5.8915968E+000	1.1739545E+001	-3.0123070E+001	9.427426794398343E+000	2.3390625E-001	-2.7885325E-002	1.2544495E+002	3.1594881E+001	1.000000000000000E+000	10	4.7528641E-003	4.0485931E-004	0	-1.088930448652763E-004	7.3678270E-002	4.2749446E-002	8.5182175E-002	3.0123070E+001	3.1594879E+004	5.4453480E+004	6.2955684E+004	-5.9876930E+001	0.0000000E+000	0.0000000E+000	0.0000000E+000	5.9876930E+001	0.0000000E+000	0.0000000E+000	0.0000000E+000	-5.9876930E+001	0.0000000E+000	0.0000000E+000	0.0000000E+000	-3.0123070E+001	0.0000000E+000	0.0000000E+000	0.0000000E+000	3.0123070E+001	1.7234908E+000	5.9876930E+001	-3.756844846544688E-006	-6.5225518E-006	8.3881484E+003
1.4673740E+002	1.1849002E+001	6.6024957E+000	1.3564358E+001	-2.9127407E+001	9.890399189753225E+000	2.3386270E-001	-2.8989458E-002	1.6427489E+002	3.8921448E+001	1.000000000000000E+000	10	4.7428138E-003	3.4965266E-004	0	-1.122902263985775E-004	6.4399622E-002	3.5884731E-002	7.3722623E-002	2.9127407E+001	3.8921445E+004	6.9849391E+004	7.9961344E+004	-6.0872593E+001	0.0000000E+000	0.0000000E+000	0.0000000E+000	6.0872593E+001	0.0000000E+000	0.0000000E+000	0.0000000E+000	-6.0872593E+001	0.0000000E+000	0.0000000E+000	0.0000000E+000	-2.9127407E+001	0.0000000E+000	0.0000000E+000	0.0000000E+000	2.9127407E+001	1.7946247E+000	6.0872589E+001	-3.397181533301285E-006	-6.7795531E-006	8.0671636E+003
1.0003201E+002	1.3834064E+001	7.1658154E+000	1.5579803E+001	-2.7383406E+001	1.035867443869938E+001	2.3388276E-001	-2.7433977E-002	2.2203197E+002	4.6970249E+001	1.000000000000000E+000	10	4.7386107E-003	3.0415089E-004	0	-1.155099077457125E-004	5.6993574E-002	2.9521722E-002	6.4185664E-002	2.7383406E+001	4.6970250E+004	9.0679063E+004	1.0212197E+005	-6.2616592E+001	0.0000000E+000	0.0000000E+000	0.0000000E+000	6.2616592E+001	0.0000000E+000	0.0000000E+000	0.0000000E+000	-6.2616592E+001	0.0000000E+000	0.0000000E+000	0.0000000E+000	-2.7383406E+001	0.0000000E+000	0.0000000E+000	0.0000000E+000	2.7383406E+001	1.9305639E+000	6.2616592E+001	-3.219681347135014E-006	-6.4163341E-006	8.5252959E+003
6.8103981E+001	1.6076305E+001	7.3645439E+000	1.7682877E+001	-2.4612480E+001	1.083633384798304E+001	2.3386802E-001	-2.5807623E-002	3.1732315E+002	5.5041168E+001	1.000000000000000E+000	10	4.7427416E-003	2.6821098E-004	0	-1.187074834339663E-004	5.1413886E-002	2.3552664E-002	5.6551885E-002	2.4612480E+001	5.5041172E+004	1.2015120E+005	1.3215839E+005	-6.5387520E+001	0.0000000E+000	0.0000000E+000	0.0000000E+000	6.5387520E+001	0.0000000E+000	0.0000000E+000	0.0000000E+000	-6.5387520E+001	0.0000000E+000	0.0000000E+000	0.0000000E+000	-2.4612480E+001	0.0000000E+000	0.0000000E+000	0.0000000E+000	2.4612480E+001	2.1829329E+000	6.5387520E+001	-3.197575688253799E-006	-6.0355774E-006	9.0619746E+003
4.6441547E+001	1.8460506E+001	7.2339435E+000	1.9827259E+001	-2.1398252E+001	1.153955060141743E+001	2.3388946E-001	-2.3922930E-002	4.7373813E+002	6.3061340E+001	1.000000000000000E+000	11	4.7504306E-003	2.3959088E-004	0	-1.235445320622069E-004	4.6958935E-002	1.8401353E-002	5.0435614E-002	2.1398252E+001	6.3061348E+004	1.6092803E+005	1.7284259E+005	-6.8601746E+001	0.0000000E+000	0.0000000E+000	0.0000000E+000	6.8601746E+001	0.0000000E+000	0.0000000E+000	0.0000000E+000	-6.8601746E+001	0.0000000E+000	0.0000000E+000	0.0000000E+000	-2.1398252E+001	0.0000000E+000	0.0000000E+000	0.0000000E+000	2.1398252E+001	2.5519285E+000	6.8601746E+001	-4.837048628240562E-006	-5.5953210E-006	9.7767900E+003
3.1629555E+001	2.0604023E+001	6.6890469E+000	2.1662621E+001	-1.7985897E+001	1.198642840932007E+001	2.3393844E-001	-2.3978703E-002	7.5225104E+002	7.1724792E+001	1.000000000000000E+000	11	4.7584497E-003	2.1966179E-004	0	-1.263587068418880E-004	4.3906625E-002	1.4254180E-002	4.6162467E-002	1.7985897E+001	7.1724805E+004	2.2093122E+005	2.3228227E+005	-7.2014099E+001	0.0000000E+000	0.0000000E+000	0.0000000E+000	7.2014099E+001	0.0000000E+000	0.0000000E+000	0.0000000E+000	-7.2014099E+001	0.0000000E+000	0.0000000E+000	0.0000000E+000	-1.7985897E+001	0.0000000E+000	0.0000000E+000	0.0000000E+000	1.7985897E+001	3.0802629E+000	7.2014099E+001	-2.814174779681088E-006	-5.6095405E-006	9.7560928E+003
2.1551722E+001	2.2198881E+001	5.5322628E+000	2.2877855E+001	-1.3993828E+001	1.242535616349778E+001	2.3389509E-001	-2.3771085E-002	1.3348588E+003	7.8056725E+001	1.000000000000000E+000	11	4.7240197E-003	2.0648875E-004	0	-1.297170494274445E-004	4.2413145E-002	1.0569932E-002	4.3710392E-002	1.3993828E+001	7.8056727E+004	3.1321216E+005	3.2279206E+005	-7.6006172E+001	0.0000000E+000	0.0000000E+000	0.0000000E+000	7.6006172E+001	0.0000000E+000	0.0000000E+000	0.0000000E+000	-7.6006172E+001	0.0000000E+000	0.0000000E+000	0.0000000E+000	-1.3993828E+001	0.0000000E+000	0.0000000E+000	0.0000000E+000	1.3993828E+001	4.0126224E+000	7.6006172E+001	-3.358342585556485E-006	-5.5599403E-006	9.8394795E+003
1.4685154E+001	2.3451881E+001	4.7803240E+000	2.3934122E+001	-1.1521077E+001	1.290303911952651E+001	2.3394421E-001	-2.2842867E-002	2.2671709E+003	9.0440704E+001	1.000000000000000E+000	11	4.7319662E-003	1.9770795E-004	0	-1.328832046526853E-004	4.0939514E-002	8.3449231E-003	4.1781355E-002	1.1521077E+001	9.0440727E+004	4.4369472E+005	4.5281844E+005	-7.8478920E+001	0.0000000E+000	0.0000000E+000	0.0000000E+000	7.8478920E+001	0.0000000E+000	0.0000000E+000	0.0000000E+000	-7.8478920E+001	0.0000000E+000	0.0000000E+000	0.0000000E+000	-1.1521077E+001	0.0000000E+000	0.0000000E+000	0.0000000E+000	1.1521077E+001	4.9059186E+000	7.8478920E+001	-3.166155225240813E-006	-5.3439567E-006	1.0241455E+004
