
EC-Lab ASCII FILE
Nb header lines : 63                          

Potentio Electrochemical Impedance Spectroscopy

Run on channel : 5 (SN 65912)
User : 
CE vs. WE compliance from -10 V to 10 V
Electrode connection : standard
Potential control : Ewe
Ewe ctrl range : min = -10.00 V, max = 10.00 V
Safety Limits :
	Do not start on E overload
Acquisition started on : 09/11/2025 15:38:49.585
Loaded Setting File :  C:\Users\Celltest\OneDrive - store-dot.com\Documents\EC-Lab\Data\Charmaine\R279\17382_C01.mpr
Saved on :
	File : 17399_C05.mpr
	Directory : C:\Users\Celltest\OneDrive - store-dot.com\Documents\EC-Lab\Data\Charmaine\R279\
	Host : 169.254.61.224
Device : VMP-3e (SN .003165)
Address : USB
EC-LAB for windows v11.62 (software)
Internet server v27.00 (firmware)
Command interpretor v12.03 (firmware)
Electrode material : 
Initial state : 
Electrolyte : 
Comments : 
Electrode surface area : 0.001 cm²
Characteristic mass : 0.001 g
Equivalent Weight : 0.000 g/eq.
Density : 0.000 g/cm3
Volume (V) : 0.001 cm³
Cycle Definition : Charge/Discharge alternance
Mode                Single sine         
E (V)               0.0000              
vs.                 Eoc                 
tE (h:m:s)          0:00:0.0000         
record              0                   
dI                  0.000               
unit dI             mA                  
dt (s)              0.000               
fi                  100.000             
unit fi             kHz                 
ff                  10.000              
unit ff             mHz                 
Nd                  6                   
Points              per decade          
spacing             Logarithmic         
Va (mV)             5.0                 
pw                  0.10                
Na                  2                   
corr                0                   
E range min (V)     -10.000             
E range max (V)     10.000              
I Range             Auto                
Bandwidth           5                   
nc cycles           0                   
goto Ns'            0                   
nr cycles           0                   
inc. cycle          0                   

freq/Hz	Re(Z)/Ohm	-Im(Z)/Ohm	|Z|/Ohm	Phase(Z)/deg	time/s	<Ewe>/V	<I>/mA	Cs/µF	Cp/µF	cycle number	I Range	|Ewe|/V	|I|/A	Ns	(Q-Qo)/mA.h	Re(Y)/Ohm-1	Im(Y)/Ohm-1	|Y|/Ohm-1	Phase(Y)/deg	Re(C)/nF	Im(C)/nF	|C|/nF	Phase(C)/deg	Re(M)	Im(M)	|M|	Phase(M)/deg	Re(Permittivity)	Im(Permittivity)	|Permittivity|	Phase(Permittivity)/deg	Re(Resistivity)/Ohm.cm	Im(Resistivity)/Ohm.cm	|Resistivity|/Ohm.cm	Phase(Resistivity)/deg	Re(Conductivity)/mS/cm	Im(Conductivity)/mS/cm	|Conductivity|/mS/cm	Phase(Conductivity)/deg	Tan(Delta)	Loss Angle(Delta)/deg	dq/mA.h	Pwe/W	Rwe/Ohm	
1.0000371E+005	3.2765465E+000	1.1768730E+000	3.4814920E+000	-1.9757318E+001	2.025496309535811E+000	2.3483145E-001	-3.5296343E-002	1.3523042E+000	1.5452643E-001	1.000000000000000E+000	10	4.9662362E-003	1.4264678E-003	0	-4.561552867432409E-006	2.7032459E-001	9.7095422E-002	2.8723317E-001	1.9757318E+001	1.5452641E+002	4.3021893E+002	4.5712881E+002	-7.0242683E+001	0.0000000E+000	0.0000000E+000	0.0000000E+000	7.0242683E+001	0.0000000E+000	0.0000000E+000	0.0000000E+000	-7.0242683E+001	0.0000000E+000	0.0000000E+000	0.0000000E+000	-1.9757318E+001	0.0000000E+000	0.0000000E+000	0.0000000E+000	1.9757318E+001	2.7841122E+000	7.0242683E+001	-4.561552867432409E-006	-8.2886918E-006	6.6531382E+003
6.8132047E+004	3.5659952E+000	1.2363920E+000	3.7742531E+000	-1.9122313E+001	2.462490650272230E+000	2.3482159E-001	-3.4285437E-002	1.8893504E+000	2.0275092E-001	1.000000000000000E+000	10	5.3981282E-003	1.4302507E-003	0	-1.057652211687269E-005	2.5033334E-001	8.6794883E-002	2.6495308E-001	1.9122313E+001	2.0275093E+002	5.8477313E+002	6.1892450E+002	-7.0877686E+001	0.0000000E+000	0.0000000E+000	0.0000000E+000	7.0877686E+001	0.0000000E+000	0.0000000E+000	0.0000000E+000	-7.0877686E+001	0.0000000E+000	0.0000000E+000	0.0000000E+000	-1.9122313E+001	0.0000000E+000	0.0000000E+000	0.0000000E+000	1.9122313E+001	2.8841946E+000	7.0877686E+001	-6.014969249440280E-006	-8.0509608E-006	6.8490181E+003
4.6420355E+004	3.8723781E+000	1.2884654E+000	4.0811095E+000	-1.8403952E+001	2.899479204352247E+000	2.3481561E-001	-3.6653522E-002	2.6609635E+000	2.6523322E-001	1.000000000000000E+000	10	5.3632259E-003	1.3141588E-003	0	-1.442515162745905E-005	2.3249908E-001	7.7359959E-002	2.4503140E-001	1.8403952E+001	2.6523325E+002	7.9713690E+002	8.4010474E+002	-7.1596046E+001	0.0000000E+000	0.0000000E+000	0.0000000E+000	7.1596046E+001	0.0000000E+000	0.0000000E+000	0.0000000E+000	-7.1596046E+001	0.0000000E+000	0.0000000E+000	0.0000000E+000	-1.8403952E+001	0.0000000E+000	0.0000000E+000	0.0000000E+000	1.8403952E+001	3.0054188E+000	7.1596046E+001	-3.848629510586356E-006	-8.6068194E-006	6.4063589E+003
3.1621139E+004	4.1837740E+000	1.3565452E+000	4.3982019E+000	-1.7964746E+001	3.336498718446819E+000	2.3481601E-001	-3.5813887E-002	3.7102942E+000	3.5296088E-001	1.000000000000000E+000	10	5.3394344E-003	1.2140039E-003	0	-1.633644680077365E-005	2.1628076E-001	7.0126787E-002	2.2736564E-001	1.7964746E+001	3.5296082E+002	1.0885803E+003	1.1443726E+003	-7.2035255E+001	0.0000000E+000	0.0000000E+000	0.0000000E+000	7.2035255E+001	0.0000000E+000	0.0000000E+000	0.0000000E+000	-7.2035255E+001	0.0000000E+000	0.0000000E+000	0.0000000E+000	-1.7964746E+001	0.0000000E+000	0.0000000E+000	0.0000000E+000	1.7964746E+001	3.0841391E+000	7.2035255E+001	-1.911295173314608E-006	-8.4096746E-006	6.5565635E+003
2.1544684E+004	4.5006499E+000	1.4177356E+000	4.7186675E+000	-1.7484785E+001	3.773492525884649E+000	2.3481947E-001	-3.3877715E-002	5.2105646E+000	4.7036663E-001	1.000000000000000E+000	10	5.2167773E-003	1.1055615E-003	0	-2.046884634853470E-005	2.0213266E-001	6.3673176E-002	2.1192424E-001	1.7484785E+001	4.7036667E+002	1.4931948E+003	1.5655272E+003	-7.2515213E+001	0.0000000E+000	0.0000000E+000	0.0000000E+000	7.2515213E+001	0.0000000E+000	0.0000000E+000	0.0000000E+000	-7.2515213E+001	0.0000000E+000	0.0000000E+000	0.0000000E+000	-1.7484785E+001	0.0000000E+000	0.0000000E+000	0.0000000E+000	1.7484785E+001	3.1745341E+000	7.2515213E+001	-4.132399547761047E-006	-7.9551473E-006	6.9313843E+003
1.4678594E+004	4.8256927E+000	1.5049822E+000	5.0549264E+000	-1.7321062E+001	4.210482466645772E+000	2.3481849E-001	-3.3927985E-002	7.2045074E+000	6.3861245E-001	1.000000000000000E+000	10	5.1398207E-003	1.0167944E-003	0	-2.530458595259633E-005	1.8885565E-001	5.8898155E-002	1.9782682E-001	1.7321062E+001	6.3861230E+002	2.0476968E+003	2.1449680E+003	-7.2678940E+001	0.0000000E+000	0.0000000E+000	0.0000000E+000	7.2678940E+001	0.0000000E+000	0.0000000E+000	0.0000000E+000	-7.2678940E+001	0.0000000E+000	0.0000000E+000	0.0000000E+000	-1.7321062E+001	0.0000000E+000	0.0000000E+000	0.0000000E+000	1.7321062E+001	3.2064781E+000	7.2678940E+001	-4.835739604061626E-006	-7.9669180E-006	6.9210854E+003
1.0002226E+004	5.1653762E+000	1.6086608E+000	5.4100742E+000	-1.7298233E+001	4.647485660709208E+000	2.3481856E-001	-3.4559105E-002	9.8914280E+000	8.7454373E-001	1.000000000000000E+000	10	5.0764978E-003	9.3834160E-004	0	-2.984980497033879E-005	1.7648001E-001	5.4961435E-002	1.8484035E-001	1.7298233E+001	8.7454370E+002	2.8081416E+003	2.9411709E+003	-7.2701767E+001	0.0000000E+000	0.0000000E+000	0.0000000E+000	7.2701767E+001	0.0000000E+000	0.0000000E+000	0.0000000E+000	-7.2701767E+001	0.0000000E+000	0.0000000E+000	0.0000000E+000	-1.7298233E+001	0.0000000E+000	0.0000000E+000	0.0000000E+000	1.7298233E+001	3.2109790E+000	7.2701767E+001	-4.545219017742461E-006	-8.1151193E-006	6.7946948E+003
6.8110674E+003	5.5307245E+000	1.7467281E+000	5.7999978E+000	-1.7527296E+001	5.026491918746615E+000	2.3481920E-001	-2.1301901E-002	1.3377644E+001	1.2133179E+000	1.000000000000000E+000	10	5.2521271E-003	9.0553949E-004	0	-3.131666842699309E-005	1.6440929E-001	5.1924177E-002	1.7241386E-001	1.7527296E+001	1.2133180E+003	3.8417698E+003	4.0288132E+003	-7.2472702E+001	0.0000000E+000	0.0000000E+000	0.0000000E+000	7.2472702E+001	0.0000000E+000	0.0000000E+000	0.0000000E+000	-7.2472702E+001	0.0000000E+000	0.0000000E+000	0.0000000E+000	-1.7527296E+001	0.0000000E+000	0.0000000E+000	0.0000000E+000	1.7527296E+001	3.1663342E+000	7.2472702E+001	-1.466863456654307E-006	-5.0020953E-006	1.1023392E+004
4.6414854E+003	5.9304295E+000	1.9171062E+000	6.2325988E+000	-1.7914255E+001	5.496687861101236E+000	2.3490462E-001	-3.6547964E-003	1.7886156E+001	1.6922752E+000	1.000000000000000E+000	10	5.2778176E-003	8.4680849E-004	0	-3.140545676417080E-005	1.5266792E-001	4.9352344E-002	1.6044672E-001	1.7914255E+001	1.6922749E+003	5.2349312E+003	5.5016631E+003	-7.2085747E+001	0.0000000E+000	0.0000000E+000	0.0000000E+000	7.2085747E+001	0.0000000E+000	0.0000000E+000	0.0000000E+000	-7.2085747E+001	0.0000000E+000	0.0000000E+000	0.0000000E+000	-1.7914255E+001	0.0000000E+000	0.0000000E+000	0.0000000E+000	1.7914255E+001	3.0934279E+000	7.2085747E+001	-8.878833717770608E-008	-8.5852855E-007	6.4272969E+004
3.1610117E+003	6.3577456E+000	2.1415052E+000	6.7087235E+000	-1.8615278E+001	5.963680896617007E+000	2.3490758E-001	-3.2415066E-003	2.3511204E+001	2.3957052E+000	1.000000000000000E+000	10	5.2516391E-003	7.8280747E-004	0	-3.184687290338075E-005	1.4126135E-001	4.7581635E-002	1.4905965E-001	1.8615278E+001	2.3957056E+003	7.1124199E+003	7.5050596E+003	-7.1384720E+001	0.0000000E+000	0.0000000E+000	0.0000000E+000	7.1384720E+001	0.0000000E+000	0.0000000E+000	0.0000000E+000	-7.1384720E+001	0.0000000E+000	0.0000000E+000	0.0000000E+000	-1.8615278E+001	0.0000000E+000	0.0000000E+000	0.0000000E+000	1.8615278E+001	2.9688210E+000	7.1384720E+001	-4.414161392099489E-007	-7.6145449E-007	7.2468641E+004
2.1556899E+003	6.8554907E+000	2.4038081E+000	7.2647123E+000	-1.9322699E+001	6.429664998751832E+000	2.3490795E-001	-3.5095958E-003	3.0713833E+001	3.3627670E+000	1.000000000000000E+000	10	5.2243266E-003	7.1913743E-004	0	-3.245006042153950E-005	1.2989777E-001	4.5547333E-002	1.3765170E-001	1.9322699E+001	3.3627673E+003	9.5903740E+003	1.0162848E+004	-7.0677299E+001	0.0000000E+000	0.0000000E+000	0.0000000E+000	7.0677299E+001	0.0000000E+000	0.0000000E+000	0.0000000E+000	-7.0677299E+001	0.0000000E+000	0.0000000E+000	0.0000000E+000	-1.9322699E+001	0.0000000E+000	0.0000000E+000	0.0000000E+000	1.9322699E+001	2.8519292E+000	7.0677299E+001	-6.031875181587503E-007	-8.2443194E-007	6.6933055E+004
1.4685898E+003	7.3744636E+000	2.7296095E+000	7.8634267E+000	-2.0311703E+001	6.896961740916595E+000	2.3490785E-001	-2.8784792E-003	3.9702614E+001	4.7840581E+000	1.000000000000000E+000	10	5.1878570E-003	6.5974507E-004	0	-3.261367699326042E-005	1.1926328E-001	4.4144522E-002	1.2717102E-001	2.0311703E+001	4.7840586E+003	1.2924874E+004	1.3781857E+004	-6.9688293E+001	0.0000000E+000	0.0000000E+000	0.0000000E+000	6.9688293E+001	0.0000000E+000	0.0000000E+000	0.0000000E+000	-6.9688293E+001	0.0000000E+000	0.0000000E+000	0.0000000E+000	-2.0311703E+001	0.0000000E+000	0.0000000E+000	0.0000000E+000	2.0311703E+001	2.7016551E+000	6.9688293E+001	-1.636165717209170E-007	-6.7617736E-007	8.1608320E+004
1.0003202E+003	8.0123425E+000	3.1100626E+000	8.5947733E+000	-2.1214169E+001	7.365675496541371E+000	2.3490538E-001	-3.5095983E-003	5.1157814E+001	6.6985588E+000	1.000000000000000E+000	10	5.1661762E-003	6.0108351E-004	0	-3.311147655453169E-005	1.0846526E-001	4.2101763E-002	1.1634978E-001	2.1214169E+001	6.6985596E+003	1.7257256E+004	1.8511715E+004	-6.8785828E+001	0.0000000E+000	0.0000000E+000	0.0000000E+000	6.8785828E+001	0.0000000E+000	0.0000000E+000	0.0000000E+000	-6.8785828E+001	0.0000000E+000	0.0000000E+000	0.0000000E+000	-2.1214169E+001	0.0000000E+000	0.0000000E+000	0.0000000E+000	2.1214169E+001	2.5762641E+000	6.8785828E+001	-4.977995612712760E-007	-8.2442352E-007	6.6932266E+004
6.8108978E+002	8.7539968E+000	3.5871987E+000	9.4604683E+000	-2.2282759E+001	7.831410931918072E+000	2.3489797E-001	-3.2135884E-003	6.5141891E+001	9.3658228E+000	1.000000000000000E+000	10	5.1564281E-003	5.4504996E-004	0	-3.319221537538235E-005	9.7809516E-002	4.0080227E-002	1.0570301E-001	2.2282759E+001	9.3658242E+003	2.2855824E+004	2.4700352E+004	-6.7717239E+001	0.0000000E+000	0.0000000E+000	0.0000000E+000	6.7717239E+001	0.0000000E+000	0.0000000E+000	0.0000000E+000	-6.7717239E+001	0.0000000E+000	0.0000000E+000	0.0000000E+000	-2.2282759E+001	0.0000000E+000	0.0000000E+000	0.0000000E+000	2.2282759E+001	2.4403434E+000	6.7717239E+001	-8.073882085065542E-008	-7.5486537E-007	7.3095227E+004
4.6396069E+002	9.6269169E+000	4.1169157E+000	1.0470268E+001	-2.3153799E+001	8.300179034209577E+000	2.3490928E-001	-3.0478977E-003	8.3323395E+001	1.2882356E+001	1.000000000000000E+000	10	5.1398170E-003	4.9089640E-004	0	-3.386561141474522E-005	8.7815583E-002	3.7554018E-002	9.5508538E-002	2.3153799E+001	1.2882358E+004	3.0123854E+004	3.2762811E+004	-6.6846199E+001	0.0000000E+000	0.0000000E+000	0.0000000E+000	6.6846199E+001	0.0000000E+000	0.0000000E+000	0.0000000E+000	-6.6846199E+001	0.0000000E+000	0.0000000E+000	0.0000000E+000	-2.3153799E+001	0.0000000E+000	0.0000000E+000	0.0000000E+000	2.3153799E+001	2.3383808E+000	6.6846199E+001	-6.733960393628697E-007	-7.1597947E-007	7.7072563E+004
3.1631589E+002	1.0710926E+001	4.7137690E+000	1.1702289E+001	-2.3753803E+001	8.766917936416576E+000	2.3490755E-001	-3.5933775E-003	1.0674090E+002	1.7319120E+001	1.000000000000000E+000	10	5.1310631E-003	4.3846664E-004	0	-3.451038710481913E-005	7.8214161E-002	3.4421254E-002	8.5453369E-002	2.3753803E+001	1.7319117E+004	3.9353609E+004	4.2996027E+004	-6.6246201E+001	0.0000000E+000	0.0000000E+000	0.0000000E+000	6.6246201E+001	0.0000000E+000	0.0000000E+000	0.0000000E+000	-6.6246201E+001	0.0000000E+000	0.0000000E+000	0.0000000E+000	-2.3753803E+001	0.0000000E+000	0.0000000E+000	0.0000000E+000	2.3753803E+001	2.2722638E+000	6.6246201E+001	-6.447756900739094E-007	-8.4411153E-007	6.5372355E+004
2.1534457E+002	1.2012938E+001	5.2731538E+000	1.3119330E+001	-2.3699369E+001	9.234433878591517E+000	2.3490272E-001	-2.6941758E-003	1.4015732E+002	2.2642965E+001	1.000000000000000E+000	10	5.1284274E-003	3.9090618E-004	0	-3.468148073711846E-005	6.9795258E-002	3.0637059E-002	7.6223403E-002	2.3699369E+001	2.2642965E+004	5.1583652E+004	5.6334512E+004	-6.6300629E+001	0.0000000E+000	0.0000000E+000	0.0000000E+000	6.6300629E+001	0.0000000E+000	0.0000000E+000	0.0000000E+000	-6.6300629E+001	0.0000000E+000	0.0000000E+000	0.0000000E+000	-2.3699369E+001	0.0000000E+000	0.0000000E+000	0.0000000E+000	2.3699369E+001	2.2781317E+000	6.6300629E+001	-1.710936322993378E-007	-6.3286922E-007	8.7189086E+004
1.4673740E+002	1.3551777E+001	5.7619195E+000	1.4725841E+001	-2.3034138E+001	9.697369180590613E+000	2.3490156E-001	-3.3383276E-003	1.8824010E+002	2.8819490E+001	1.000000000000000E+000	10	5.1246788E-003	3.4800585E-004	0	-3.503962120773698E-005	6.2493674E-002	2.6570946E-002	6.7907840E-002	2.3034138E+001	2.8819488E+004	6.7782164E+004	7.3654492E+004	-6.6965866E+001	0.0000000E+000	0.0000000E+000	0.0000000E+000	6.6965866E+001	0.0000000E+000	0.0000000E+000	0.0000000E+000	-6.6965866E+001	0.0000000E+000	0.0000000E+000	0.0000000E+000	-2.3034138E+001	0.0000000E+000	0.0000000E+000	0.0000000E+000	2.3034138E+001	2.3519552E+000	6.6965866E+001	-3.581404706185141E-007	-7.8417838E-007	7.0365039E+004
1.0003201E+002	1.5271803E+001	6.1047482E+000	1.6446760E+001	-2.1788559E+001	1.016570368286921E+001	2.3490413E-001	-3.3494979E-003	2.6062338E+002	3.5907749E+001	1.000000000000000E+000	10	5.1259878E-003	3.1167158E-004	0	-3.543770736630863E-005	5.6458533E-002	2.2568725E-002	6.0802247E-002	2.1788559E+001	3.5907750E+004	8.9827797E+004	9.6738820E+004	-6.8211441E+001	0.0000000E+000	0.0000000E+000	0.0000000E+000	6.8211441E+001	0.0000000E+000	0.0000000E+000	0.0000000E+000	-6.8211441E+001	0.0000000E+000	0.0000000E+000	0.0000000E+000	-2.1788559E+001	0.0000000E+000	0.0000000E+000	0.0000000E+000	2.1788559E+001	2.5016270E+000	6.8211441E+001	-3.980861585716562E-007	-7.8681086E-007	7.0131148E+004
6.8103981E+001	1.7125292E+001	6.1704912E+000	1.8203037E+001	-1.9814827E+001	1.064434919887572E+001	2.3490059E-001	-2.3627935E-003	3.7872842E+002	4.3519073E+001	1.000000000000000E+000	10	5.1204828E-003	2.8129827E-004	0	-3.574141055733425E-005	5.1683303E-002	1.8622244E-002	5.4935887E-002	1.9814827E+001	4.3519074E+004	1.2078080E+005	1.2838190E+005	-7.0185173E+001	0.0000000E+000	0.0000000E+000	0.0000000E+000	7.0185173E+001	0.0000000E+000	0.0000000E+000	0.0000000E+000	-7.0185173E+001	0.0000000E+000	0.0000000E+000	0.0000000E+000	-1.9814827E+001	0.0000000E+000	0.0000000E+000	0.0000000E+000	1.9814827E+001	2.7753532E+000	7.0185173E+001	-3.037031910256113E-007	-5.5502159E-007	9.9416469E+004
4.6441547E+001	1.8970139E+001	5.8795400E+000	1.9860392E+001	-1.7220121E+001	1.134752643227694E+001	2.3490052E-001	-6.9767442E-003	5.8286786E+002	5.1083565E+001	1.000000000000000E+000	11	5.1237983E-003	2.5799079E-004	0	-3.690775068799364E-005	4.8094444E-002	1.4906228E-002	5.0351474E-002	1.7220121E+001	5.1083566E+004	1.6481939E+005	1.7255423E+005	-7.2779877E+001	0.0000000E+000	0.0000000E+000	0.0000000E+000	7.2779877E+001	0.0000000E+000	0.0000000E+000	0.0000000E+000	-7.2779877E+001	0.0000000E+000	0.0000000E+000	0.0000000E+000	-1.7220121E+001	0.0000000E+000	0.0000000E+000	0.0000000E+000	1.7220121E+001	3.2264664E+000	7.2779877E+001	-1.166340130659391E-006	-1.6388408E-006	3.3669074E+004
3.1629555E+001	2.0615986E+001	5.2869449E+000	2.1283108E+001	-1.4383467E+001	1.179344749348820E+001	2.3490125E-001	-6.9653885E-003	9.5174860E+002	5.8730236E+001	1.000000000000000E+000	11	5.1168227E-003	2.4041708E-004	0	-3.769057341604235E-005	4.5512848E-002	1.1671715E-002	4.6985619E-002	1.4383467E+001	5.8730246E+004	2.2901350E+005	2.3642425E+005	-7.5616531E+001	0.0000000E+000	0.0000000E+000	0.0000000E+000	7.5616531E+001	0.0000000E+000	0.0000000E+000	0.0000000E+000	-7.5616531E+001	0.0000000E+000	0.0000000E+000	0.0000000E+000	-1.4383467E+001	0.0000000E+000	0.0000000E+000	0.0000000E+000	1.4383467E+001	3.8994138E+000	7.5616531E+001	-7.828227280487135E-007	-1.6361785E-006	3.3724070E+004
2.1551722E+001	2.1961699E+001	4.4924760E+000	2.2416479E+001	-1.1560908E+001	1.223233250100748E+001	2.3490332E-001	-7.0279371E-003	1.6438129E+003	6.6022064E+001	1.000000000000000E+000	11	5.1181423E-003	2.2832052E-004	0	-3.927136945345410E-005	4.3704998E-002	8.9402767E-003	4.4610038E-002	1.1560908E+001	6.6022055E+004	3.2275225E+005	3.2943578E+005	-7.8439095E+001	0.0000000E+000	0.0000000E+000	0.0000000E+000	7.8439095E+001	0.0000000E+000	0.0000000E+000	0.0000000E+000	-7.8439095E+001	0.0000000E+000	0.0000000E+000	0.0000000E+000	-1.1560908E+001	0.0000000E+000	0.0000000E+000	0.0000000E+000	1.1560908E+001	4.8885512E+000	7.8439095E+001	-1.580796037411750E-006	-1.6508858E-006	3.3424219E+004
1.4685154E+001	2.2924372E+001	3.7403748E+000	2.3227510E+001	-9.2668076E+000	1.271006713702809E+001	2.3490372E-001	-6.5092952E-003	2.8975203E+003	7.5136574E+001	1.000000000000000E+000	11	5.1202914E-003	2.2044081E-004	0	-4.009444738668592E-005	4.2490527E-002	6.9328174E-003	4.3052398E-002	9.2668076E+000	7.5136570E+004	4.6050434E+005	4.6659378E+005	-8.0733192E+001	0.0000000E+000	0.0000000E+000	0.0000000E+000	8.0733192E+001	0.0000000E+000	0.0000000E+000	0.0000000E+000	-8.0733192E+001	0.0000000E+000	0.0000000E+000	0.0000000E+000	-9.2668076E+000	0.0000000E+000	0.0000000E+000	0.0000000E+000	9.2668076E+000	6.1288967E+000	8.0733192E+001	-8.230779332318169E-007	-1.5290577E-006	3.6087430E+004
