EC-Lab ASCII FILE
Nb header lines : 63                          

Potentio Electrochemical Impedance Spectroscopy

Run on channel : 3 (SN 65921)
User : 
CE vs. WE compliance from -10 V to 10 V
Electrode connection : standard
Potential control : Ewe
Ewe ctrl range : min = -10.00 V, max = 10.00 V
Safety Limits :
	Do not start on E overload
Acquisition started on : 09/11/2025 15:38:34.165
Loaded Setting File :  C:\Users\Celltest\OneDrive - store-dot.com\Documents\EC-Lab\Data\Charmaine\R279\17382_C01.mpr
Saved on :
	File : 17397_C03.mpr
	Directory : C:\Users\Celltest\OneDrive - store-dot.com\Documents\EC-Lab\Data\Charmaine\R279\
	Host : 169.254.61.224
Device : VMP-3e (SN .003165)
Address : USB
EC-LAB for windows v11.62 (software)
Internet server v27.00 (firmware)
Command interpretor v12.03 (firmware)
Electrode material : 
Initial state : 
Electrolyte : 
Comments : 
Electrode surface area : 0.001 cm²
Characteristic mass : 0.001 g
Equivalent Weight : 0.000 g/eq.
Density : 0.000 g/cm3
Volume (V) : 0.001 cm³
Cycle Definition : Charge/Discharge alternance
Mode                Single sine         
E (V)               0.0000              
vs.                 Eoc                 
tE (h:m:s)          0:00:0.0000         
record              0                   
dI                  0.000               
unit dI             mA                  
dt (s)              0.000               
fi                  100.000             
unit fi             kHz                 
ff                  10.000              
unit ff             mHz                 
Nd                  6                   
Points              per decade          
spacing             Logarithmic         
Va (mV)             5.0                 
pw                  0.10                
Na                  2                   
corr                0                   
E range min (V)     -10.000             
E range max (V)     10.000              
I Range             Auto                
Bandwidth           5                   
nc cycles           0                   
goto Ns'            0                   
nr cycles           0                   
inc. cycle          0                   

freq/Hz	Re(Z)/Ohm	-Im(Z)/Ohm	|Z|/Ohm	Phase(Z)/deg	time/s	<Ewe>/V	<I>/mA	Cs/µF	Cp/µF	cycle number	I Range	|Ewe|/V	|I|/A	Ns	(Q-Qo)/mA.h	Re(Y)/Ohm-1	Im(Y)/Ohm-1	|Y|/Ohm-1	Phase(Y)/deg	Re(C)/nF	Im(C)/nF	|C|/nF	Phase(C)/deg	Re(M)	Im(M)	|M|	Phase(M)/deg	Re(Permittivity)	Im(Permittivity)	|Permittivity|	Phase(Permittivity)/deg	Re(Resistivity)/Ohm.cm	Im(Resistivity)/Ohm.cm	|Resistivity|/Ohm.cm	Phase(Resistivity)/deg	Re(Conductivity)/mS/cm	Im(Conductivity)/mS/cm	|Conductivity|/mS/cm	Phase(Conductivity)/deg	Tan(Delta)	Loss Angle(Delta)/deg	dq/mA.h	Pwe/W	Rwe/Ohm	
1.0000371E+005	2.6323738E+000	8.5374892E-001	2.7673595E+000	-1.7969259E+001	2.025474976195255E+000	2.4640419E-001	9.9882446E-003	1.8641198E+000	1.7742017E-001	1.000000000000000E+000	9	4.9413629E-003	1.7855876E-003	0	-5.059630483776952E-006	3.4372917E-001	1.1148053E-001	3.6135530E-001	1.7969259E+001	1.7742020E+002	5.4704163E+002	5.7509344E+002	-7.2030739E+001	0.0000000E+000	0.0000000E+000	0.0000000E+000	7.2030739E+001	0.0000000E+000	0.0000000E+000	0.0000000E+000	-7.2030739E+001	0.0000000E+000	0.0000000E+000	0.0000000E+000	-1.7969259E+001	0.0000000E+000	0.0000000E+000	0.0000000E+000	1.7969259E+001	3.0833116E+000	7.2030739E+001	-5.059630483776952E-006	2.4611452E-006	2.4669418E+004
6.8132047E+004	2.8512430E+000	9.0413225E-001	2.9911606E+000	-1.7593878E+001	2.462489236932015E+000	2.4640653E-001	1.7782604E-002	2.5836682E+000	2.3605934E-001	1.000000000000000E+000	9	5.4778657E-003	1.8313512E-003	0	-3.770609147109402E-006	3.1867999E-001	1.0105377E-001	3.3431840E-001	1.7593878E+001	2.3605936E+002	7.4442926E+002	7.8096027E+002	-7.2406120E+001	0.0000000E+000	0.0000000E+000	0.0000000E+000	7.2406120E+001	0.0000000E+000	0.0000000E+000	0.0000000E+000	-7.2406120E+001	0.0000000E+000	0.0000000E+000	0.0000000E+000	-1.7593878E+001	0.0000000E+000	0.0000000E+000	0.0000000E+000	1.7593878E+001	3.1535685E+000	7.2406120E+001	1.289021336667550E-006	4.3817499E-006	1.3856605E+004
4.6420355E+004	3.0522013E+000	9.5449758E-001	3.1979678E+000	-1.7365734E+001	2.899482724344125E+000	2.4640264E-001	1.4780465E-002	3.5920043E+000	3.1999144E-001	1.000000000000000E+000	9	5.4257875E-003	1.6966361E-003	0	-1.467249482824829E-006	2.9844546E-001	9.3331158E-002	3.1269857E-001	1.7365734E+001	3.1999149E+002	1.0232379E+003	1.0721056E+003	-7.2634262E+001	0.0000000E+000	0.0000000E+000	0.0000000E+000	7.2634262E+001	0.0000000E+000	0.0000000E+000	0.0000000E+000	-7.2634262E+001	0.0000000E+000	0.0000000E+000	0.0000000E+000	-1.7365734E+001	0.0000000E+000	0.0000000E+000	0.0000000E+000	1.7365734E+001	3.1977046E+000	7.2634262E+001	2.303359664284573E-006	3.6419453E-006	1.6670832E+004
3.1621139E+004	3.2839129E+000	1.0191988E+000	3.4384372E+000	-1.7242310E+001	3.336474771756912E+000	2.4640633E-001	1.5116101E-002	4.9383717E+000	4.3388969E-001	1.000000000000000E+000	9	5.3300946E-003	1.5501503E-003	0	3.917014433981321E-006	2.7775985E-001	8.6205848E-002	2.9082981E-001	1.7242310E+001	4.3388971E+002	1.3980157E+003	1.4637993E+003	-7.2757690E+001	0.0000000E+000	0.0000000E+000	0.0000000E+000	7.2757690E+001	0.0000000E+000	0.0000000E+000	0.0000000E+000	-7.2757690E+001	0.0000000E+000	0.0000000E+000	0.0000000E+000	-1.7242310E+001	0.0000000E+000	0.0000000E+000	0.0000000E+000	1.7242310E+001	3.2220535E+000	7.2757690E+001	5.384263916806150E-006	3.7247030E-006	1.6300918E+004
2.1544684E+004	3.5099695E+000	1.0924610E+000	3.6760519E+000	-1.7288500E+001	3.773477939219447E+000	2.4640681E-001	2.0337196E-002	6.7619834E+000	5.9720397E-001	1.000000000000000E+000	9	5.3210570E-003	1.4474924E-003	0	6.758681096020559E-006	2.5974074E-001	8.0843046E-002	2.7203098E-001	1.7288500E+001	5.9720392E+002	1.9187577E+003	2.0095481E+003	-7.2711502E+001	0.0000000E+000	0.0000000E+000	0.0000000E+000	7.2711502E+001	0.0000000E+000	0.0000000E+000	0.0000000E+000	-7.2711502E+001	0.0000000E+000	0.0000000E+000	0.0000000E+000	-1.7288500E+001	0.0000000E+000	0.0000000E+000	0.0000000E+000	1.7288500E+001	3.2129014E+000	7.2711502E+001	2.841666662039238E-006	5.0112235E-006	1.2116066E+004
1.4678594E+004	3.7692490E+000	1.1999955E+000	3.9556575E+000	-1.7659636E+001	4.210496439976851E+000	2.4639718E-001	1.5750084E-002	9.0355797E+000	8.3153003E-001	1.000000000000000E+000	9	5.1276102E-003	1.2962725E-003	0	1.061061566185607E-005	2.4088925E-001	7.6690622E-002	2.5280246E-001	1.7659636E+001	8.3153015E+002	2.6118794E+003	2.7410503E+003	-7.2340363E+001	0.0000000E+000	0.0000000E+000	0.0000000E+000	7.2340363E+001	0.0000000E+000	0.0000000E+000	0.0000000E+000	-7.2340363E+001	0.0000000E+000	0.0000000E+000	0.0000000E+000	-1.7659636E+001	0.0000000E+000	0.0000000E+000	0.0000000E+000	1.7659636E+001	3.1410525E+000	7.2340363E+001	3.851934565835514E-006	3.8807761E-006	1.5644182E+004
1.0002226E+004	4.0323849E+000	1.2967477E+000	4.2357621E+000	-1.7826925E+001	4.648479287425289E+000	2.4640444E-001	1.8230105E-002	1.2270662E+001	1.1500477E+000	1.000000000000000E+000	9	5.0190710E-003	1.1849275E-003	0	1.163746889930270E-005	2.2474955E-001	7.2275713E-002	2.3608503E-001	1.7826925E+001	1.1500479E+003	3.5762043E+003	3.7565740E+003	-7.2173073E+001	0.0000000E+000	0.0000000E+000	0.0000000E+000	7.2173073E+001	0.0000000E+000	0.0000000E+000	0.0000000E+000	-7.2173073E+001	0.0000000E+000	0.0000000E+000	0.0000000E+000	-1.7826925E+001	0.0000000E+000	0.0000000E+000	0.0000000E+000	1.7826925E+001	3.1096141E+000	7.2173073E+001	1.026853237446630E-006	4.4919789E-006	1.3516348E+004
6.8110674E+003	4.2892351E+000	1.4375623E+000	4.5237288E+000	-1.8528879E+001	5.235507875302574E+000	2.4643089E-001	-2.4531066E-002	1.6254673E+001	1.6414911E+000	1.000000000000000E+000	10	4.8953211E-003	1.0821429E-003	0	1.153137254550691E-005	2.0959780E-001	7.0247933E-002	2.2105658E-001	1.8528879E+001	1.6414908E+003	4.8976943E+003	5.1654526E+003	-7.1471123E+001	0.0000000E+000	0.0000000E+000	0.0000000E+000	7.1471123E+001	0.0000000E+000	0.0000000E+000	0.0000000E+000	-7.1471123E+001	0.0000000E+000	0.0000000E+000	0.0000000E+000	-1.8528879E+001	0.0000000E+000	0.0000000E+000	0.0000000E+000	1.8528879E+001	2.9836862E+000	7.1471123E+001	-1.060963537957937E-007	-6.0452126E-006	1.0045666E+004
4.6414854E+003	4.6185746E+000	1.6183087E+000	4.8938894E+000	-1.9310020E+001	5.706704671072657E+000	2.4647211E-001	-1.3456287E-002	2.1188578E+001	2.3169475E+000	1.000000000000000E+000	10	5.1716422E-003	1.0567550E-003	0	9.244728852302715E-006	1.9284113E-001	6.7569867E-002	2.0433645E-001	1.9310020E+001	2.3169473E+003	6.6124556E+003	7.0066265E+003	-7.0689980E+001	0.0000000E+000	0.0000000E+000	0.0000000E+000	7.0689980E+001	0.0000000E+000	0.0000000E+000	0.0000000E+000	-7.0689980E+001	0.0000000E+000	0.0000000E+000	0.0000000E+000	-1.9310020E+001	0.0000000E+000	0.0000000E+000	0.0000000E+000	1.9310020E+001	2.8539517E+000	7.0689980E+001	-2.286643693204194E-006	-3.3165993E-006	1.8316502E+004
3.1610117E+003	4.9699364E+000	1.8383152E+000	5.2990255E+000	-2.0298782E+001	6.173677759921702E+000	2.4646607E-001	-1.3085268E-002	2.7388863E+001	3.2962639E+000	1.000000000000000E+000	10	5.2001360E-003	9.8133821E-004	0	7.208529468253902E-006	1.7699410E-001	6.5467834E-002	1.8871394E-001	2.0298782E+001	3.2962642E+003	8.9115420E+003	9.5016279E+003	-6.9701218E+001	0.0000000E+000	0.0000000E+000	0.0000000E+000	6.9701218E+001	0.0000000E+000	0.0000000E+000	0.0000000E+000	-6.9701218E+001	0.0000000E+000	0.0000000E+000	0.0000000E+000	-2.0298782E+001	0.0000000E+000	0.0000000E+000	0.0000000E+000	2.0298782E+001	2.7035277E+000	6.9701218E+001	-2.036199384048813E-006	-3.2250746E-006	1.8835385E+004
2.1556899E+003	5.3747454E+000	2.1092038E+000	5.7737880E+000	-2.1426464E+001	6.640683088771766E+000	2.4646662E-001	-1.3135606E-002	3.5003807E+001	4.6712241E+000	1.000000000000000E+000	10	5.1611601E-003	8.9389499E-004	0	6.204968224302219E-006	1.6122642E-001	6.3269868E-002	1.7319652E-001	2.1426464E+001	4.6712251E+003	1.1903372E+004	1.2787127E+004	-6.8573532E+001	0.0000000E+000	0.0000000E+000	0.0000000E+000	6.8573532E+001	0.0000000E+000	0.0000000E+000	0.0000000E+000	-6.8573532E+001	0.0000000E+000	0.0000000E+000	0.0000000E+000	-2.1426464E+001	0.0000000E+000	0.0000000E+000	0.0000000E+000	2.1426464E+001	2.5482342E+000	6.8573532E+001	-1.003561243951683E-006	-3.2374885E-006	1.8763246E+004
1.4685898E+003	5.8279920E+000	2.4351828E+000	6.3162971E+000	-2.2677246E+001	7.107935857609846E+000	2.4646924E-001	-1.2883913E-002	4.4502872E+001	6.6149430E+000	1.000000000000000E+000	10	5.0980845E-003	8.0713182E-004	0	4.136922475914212E-006	1.4608105E-001	6.1038870E-002	1.5832061E-001	2.2677246E+001	6.6149434E+003	1.5831188E+004	1.7157621E+004	-6.7322754E+001	0.0000000E+000	0.0000000E+000	0.0000000E+000	6.7322754E+001	0.0000000E+000	0.0000000E+000	0.0000000E+000	-6.7322754E+001	0.0000000E+000	0.0000000E+000	0.0000000E+000	-2.2677246E+001	0.0000000E+000	0.0000000E+000	0.0000000E+000	2.2677246E+001	2.3932462E+000	6.7322754E+001	-2.068045748388006E-006	-3.1754882E-006	1.9130000E+004
1.0003202E+003	6.3889461E+000	2.8452232E+000	6.9938493E+000	-2.4005098E+001	7.576673479896272E+000	2.4646288E-001	-1.3118840E-002	5.5919689E+001	9.2547541E+000	1.000000000000000E+000	10	5.0659198E-003	7.2433928E-004	0	2.829206970164604E-006	1.3061610E-001	5.8167960E-002	1.4298278E-001	2.4005098E+001	9.2547539E+003	2.0781543E+004	2.2749131E+004	-6.5994904E+001	0.0000000E+000	0.0000000E+000	0.0000000E+000	6.5994904E+001	0.0000000E+000	0.0000000E+000	0.0000000E+000	-6.5994904E+001	0.0000000E+000	0.0000000E+000	0.0000000E+000	-2.4005098E+001	0.0000000E+000	0.0000000E+000	0.0000000E+000	2.4005098E+001	2.2454991E+000	6.5994904E+001	-1.307715505749609E-006	-3.2333071E-006	1.8786941E+004
6.8108978E+002	7.0464482E+000	3.3278031E+000	7.7927341E+000	-2.5279808E+001	8.042455395305296E+000	2.4646357E-001	-1.2238823E-002	7.0219566E+001	1.2805416E+001	1.000000000000000E+000	10	5.0341515E-003	6.4600579E-004	0	9.968897853331226E-007	1.1603542E-001	5.4799668E-002	1.2832467E-001	2.5279808E+001	1.2805415E+004	2.7114793E+004	2.9986508E+004	-6.4720192E+001	0.0000000E+000	0.0000000E+000	0.0000000E+000	6.4720192E+001	0.0000000E+000	0.0000000E+000	0.0000000E+000	-6.4720192E+001	0.0000000E+000	0.0000000E+000	0.0000000E+000	-2.5279808E+001	0.0000000E+000	0.0000000E+000	0.0000000E+000	2.5279808E+001	2.1174474E+000	6.4720192E+001	-1.832317184831481E-006	-3.0164240E-006	2.0137850E+004
4.6396069E+002	7.8279042E+000	3.9058905E+000	8.7482605E+000	-2.6517826E+001	8.511190217599506E+000	2.4645436E-001	-1.2149331E-002	8.7825142E+001	1.7507154E+001	1.000000000000000E+000	10	5.0020199E-003	5.7177310E-004	0	-3.297606808579682E-007	1.0228267E-001	5.1036000E-002	1.1430844E-001	2.6517826E+001	1.7507154E+004	3.5086578E+004	3.9211840E+004	-6.3482174E+001	0.0000000E+000	0.0000000E+000	0.0000000E+000	6.3482174E+001	0.0000000E+000	0.0000000E+000	0.0000000E+000	-6.3482174E+001	0.0000000E+000	0.0000000E+000	0.0000000E+000	-2.6517826E+001	0.0000000E+000	0.0000000E+000	0.0000000E+000	2.6517826E+001	2.0041280E+000	6.3482178E+001	-1.326650466191091E-006	-2.9942555E-006	2.0285426E+004
3.1631589E+002	8.8168812E+000	4.5464034E+000	9.9200392E+000	-2.7277784E+001	8.977914373099338E+000	2.4646588E-001	-1.1974078E-002	1.1067032E+002	2.3245577E+001	1.000000000000000E+000	10	4.9933880E-003	5.0336373E-004	0	-1.520988352527234E-006	8.9595914E-002	4.6199914E-002	1.0080605E-001	2.7277784E+001	2.3245576E+004	4.5080355E+004	5.0720758E+004	-6.2722214E+001	0.0000000E+000	0.0000000E+000	0.0000000E+000	6.2722214E+001	0.0000000E+000	0.0000000E+000	0.0000000E+000	-6.2722214E+001	0.0000000E+000	0.0000000E+000	0.0000000E+000	-2.7277784E+001	0.0000000E+000	0.0000000E+000	0.0000000E+000	2.7277784E+001	1.9393090E+000	6.2722214E+001	-1.191227671669266E-006	-2.9512016E-006	2.0583287E+004
2.1534457E+002	1.0033465E+001	5.2351332E+000	1.1317113E+001	-2.7554075E+001	9.445429515297292E+000	2.4645668E-001	-1.2199675E-002	1.4117522E+002	3.0209438E+001	1.000000000000000E+000	10	4.9829842E-003	4.4030524E-004	0	-3.133693311690068E-006	7.8339294E-002	4.0874872E-002	8.8361755E-002	2.7554075E+001	3.0209439E+004	5.7898309E+004	6.5305621E+004	-6.2445923E+001	0.0000000E+000	0.0000000E+000	0.0000000E+000	6.2445923E+001	0.0000000E+000	0.0000000E+000	0.0000000E+000	-6.2445923E+001	0.0000000E+000	0.0000000E+000	0.0000000E+000	-2.7554075E+001	0.0000000E+000	0.0000000E+000	0.0000000E+000	2.7554075E+001	1.9165635E+000	6.2445923E+001	-1.612704959162834E-006	-3.0066913E-006	2.0201906E+004
1.4673740E+002	1.1506410E+001	5.8510098E+000	1.2908593E+001	-2.6953339E+001	9.908362923917593E+000	2.4646117E-001	-1.2281711E-002	1.8537386E+002	3.8084854E+001	1.000000000000000E+000	10	4.9710777E-003	3.8509833E-004	0	-4.764207864273986E-006	6.9052912E-002	3.5113409E-002	7.7467777E-002	2.6953339E+001	3.8084855E+004	7.4896469E+004	8.4023430E+004	-6.3046661E+001	0.0000000E+000	0.0000000E+000	0.0000000E+000	6.3046661E+001	0.0000000E+000	0.0000000E+000	0.0000000E+000	-6.3046661E+001	0.0000000E+000	0.0000000E+000	0.0000000E+000	-2.6953339E+001	0.0000000E+000	0.0000000E+000	0.0000000E+000	2.6953339E+001	1.9665681E+000	6.3046661E+001	-1.630514552583918E-006	-3.0269648E-006	2.0067332E+004
1.0003201E+002	1.3246888E+001	6.3613944E+000	1.4695148E+001	-2.5651157E+001	1.037671182622580E+001	2.4645808E-001	-1.2132558E-002	2.5010870E+002	4.6868980E+001	1.000000000000000E+000	10	4.9734111E-003	3.3843899E-004	0	-6.423825224620587E-006	6.1343126E-002	2.9458076E-002	6.8049669E-002	2.5651157E+001	4.6868973E+004	9.7599383E+004	1.0826976E+005	-6.4348846E+001	0.0000000E+000	0.0000000E+000	0.0000000E+000	6.4348846E+001	0.0000000E+000	0.0000000E+000	0.0000000E+000	-6.4348846E+001	0.0000000E+000	0.0000000E+000	0.0000000E+000	-2.5651157E+001	0.0000000E+000	0.0000000E+000	0.0000000E+000	2.5651157E+001	2.0823874E+000	6.4348846E+001	-1.659617360346601E-006	-2.9901671E-006	2.0313777E+004
6.8103981E+001	1.5208487E+001	6.5884266E+000	1.6574240E+001	-2.3422611E+001	1.085432502217009E+001	2.4646565E-001	-1.0862874E-002	3.5470386E+002	5.6048256E+001	1.000000000000000E+000	10	4.9703480E-003	2.9988392E-004	0	-7.911829390365812E-006	5.5362891E-002	2.3983607E-002	6.0334593E-002	2.3422611E+001	5.6048254E+004	1.2937979E+005	1.4099836E+005	-6.6577393E+001	0.0000000E+000	0.0000000E+000	0.0000000E+000	6.6577393E+001	0.0000000E+000	0.0000000E+000	0.0000000E+000	-6.6577393E+001	0.0000000E+000	0.0000000E+000	0.0000000E+000	-2.3422611E+001	0.0000000E+000	0.0000000E+000	0.0000000E+000	2.3422611E+001	2.3083639E+000	6.6577393E+001	-1.488004165745224E-006	-2.6773253E-006	2.2688807E+004
4.6441547E+001	1.7255768E+001	6.5078540E+000	1.8442171E+001	-2.0663506E+001	1.130954512380413E+001	2.4644555E-001	-1.2676975E-002	5.2659369E+002	6.5573318E+001	1.000000000000000E+000	10	4.9711517E-003	2.6955351E-004	0	-9.606283620176631E-006	5.0735295E-002	1.9134350E-002	5.4223552E-002	2.0663506E+001	6.5573313E+004	1.7386959E+005	1.8582383E+005	-6.9336494E+001	0.0000000E+000	0.0000000E+000	0.0000000E+000	6.9336494E+001	0.0000000E+000	0.0000000E+000	0.0000000E+000	-6.9336494E+001	0.0000000E+000	0.0000000E+000	0.0000000E+000	-2.0663506E+001	0.0000000E+000	0.0000000E+000	0.0000000E+000	2.0663506E+001	2.6515296E+000	6.9336494E+001	-1.694454229810819E-006	-3.1241841E-006	1.9440406E+004
3.1629555E+001	1.9187510E+001	6.0487709E+000	2.0118353E+001	-1.7497210E+001	1.200045976994443E+001	2.4647810E-001	-1.6165359E-002	8.3187854E+002	7.5198524E+001	1.000000000000000E+000	11	4.9679792E-003	2.4693768E-004	0	-1.275913455637581E-005	4.7406048E-002	1.4944531E-002	4.9705859E-002	1.7497210E+001	7.5198523E+004	2.3853978E+005	2.5011206E+005	-7.2502792E+001	0.0000000E+000	0.0000000E+000	0.0000000E+000	7.2502792E+001	0.0000000E+000	0.0000000E+000	0.0000000E+000	-7.2502792E+001	0.0000000E+000	0.0000000E+000	0.0000000E+000	-1.7497210E+001	0.0000000E+000	0.0000000E+000	0.0000000E+000	1.7497210E+001	3.1721337E+000	7.2502792E+001	-3.152850936199179E-006	-3.9844067E-006	1.5247301E+004
2.1551722E+001	2.0802383E+001	5.2676868E+000	2.1458977E+001	-1.4210030E+001	1.243934245748096E+001	2.4645886E-001	-1.6525025E-002	1.4019037E+003	8.4477310E+001	1.000000000000000E+000	11	4.9671326E-003	2.3147109E-004	0	-1.452041239069755E-005	4.5174677E-002	1.1439365E-002	4.6600543E-002	1.4210030E+001	8.4477320E+004	3.3360553E+005	3.4413525E+005	-7.5789970E+001	0.0000000E+000	0.0000000E+000	0.0000000E+000	7.5789970E+001	0.0000000E+000	0.0000000E+000	0.0000000E+000	-7.5789970E+001	0.0000000E+000	0.0000000E+000	0.0000000E+000	-1.4210030E+001	0.0000000E+000	0.0000000E+000	0.0000000E+000	1.4210030E+001	3.9490547E+000	7.5789970E+001	-1.761277834321744E-006	-4.0727386E-006	1.4914281E+004
1.4685154E+001	2.2000265E+001	4.3958330E+000	2.2435129E+001	-1.1299365E+001	1.291702224020264E+001	2.4647559E-001	-1.5282702E-002	2.4654741E+003	9.4651100E+001	1.000000000000000E+000	11	4.9602296E-003	2.2109209E-004	0	-1.616451181693830E-005	4.3708988E-002	8.7334141E-003	4.4572953E-002	1.1299365E+001	9.4651078E+004	4.7370981E+005	4.8307331E+005	-7.8700638E+001	0.0000000E+000	0.0000000E+000	0.0000000E+000	7.8700638E+001	0.0000000E+000	0.0000000E+000	0.0000000E+000	-7.8700638E+001	0.0000000E+000	0.0000000E+000	0.0000000E+000	-1.1299365E+001	0.0000000E+000	0.0000000E+000	0.0000000E+000	1.1299365E+001	5.0047998E+000	7.8700638E+001	-1.644099426240751E-006	-3.7668131E-006	1.6127750E+004
