
EC-Lab ASCII FILE
Nb header lines : 63                          

Potentio Electrochemical Impedance Spectroscopy

Run on channel : 7 (SN 66126)
User : 
CE vs. WE compliance from -10 V to 10 V
Electrode connection : standard
Potential control : Ewe
Ewe ctrl range : min = -10.00 V, max = 10.00 V
Safety Limits :
	Do not start on E overload
Acquisition started on : 09/11/2025 15:39:00.035
Loaded Setting File :  C:\Users\Celltest\OneDrive - store-dot.com\Documents\EC-Lab\Data\Charmaine\R279\17382_C01.mpr
Saved on :
	File : 17401_C07.mpr
	Directory : C:\Users\Celltest\OneDrive - store-dot.com\Documents\EC-Lab\Data\Charmaine\R279\
	Host : 169.254.61.224
Device : VMP-3e (SN .003165)
Address : USB
EC-LAB for windows v11.62 (software)
Internet server v27.00 (firmware)
Command interpretor v12.03 (firmware)
Electrode material : 
Initial state : 
Electrolyte : 
Comments : 
Electrode surface area : 0.001 cm²
Characteristic mass : 0.001 g
Equivalent Weight : 0.000 g/eq.
Density : 0.000 g/cm3
Volume (V) : 0.001 cm³
Cycle Definition : Charge/Discharge alternance
Mode                Single sine         
E (V)               0.0000              
vs.                 Eoc                 
tE (h:m:s)          0:00:0.0000         
record              0                   
dI                  0.000               
unit dI             mA                  
dt (s)              0.000               
fi                  100.000             
unit fi             kHz                 
ff                  10.000              
unit ff             mHz                 
Nd                  6                   
Points              per decade          
spacing             Logarithmic         
Va (mV)             5.0                 
pw                  0.10                
Na                  2                   
corr                0                   
E range min (V)     -10.000             
E range max (V)     10.000              
I Range             Auto                
Bandwidth           5                   
nc cycles           0                   
goto Ns'            0                   
nr cycles           0                   
inc. cycle          0                   

freq/Hz	Re(Z)/Ohm	-Im(Z)/Ohm	|Z|/Ohm	Phase(Z)/deg	time/s	<Ewe>/V	<I>/mA	Cs/µF	Cp/µF	cycle number	I Range	|Ewe|/V	|I|/A	Ns	(Q-Qo)/mA.h	Re(Y)/Ohm-1	Im(Y)/Ohm-1	|Y|/Ohm-1	Phase(Y)/deg	Re(C)/nF	Im(C)/nF	|C|/nF	Phase(C)/deg	Re(M)	Im(M)	|M|	Phase(M)/deg	Re(Permittivity)	Im(Permittivity)	|Permittivity|	Phase(Permittivity)/deg	Re(Resistivity)/Ohm.cm	Im(Resistivity)/Ohm.cm	|Resistivity|/Ohm.cm	Phase(Resistivity)/deg	Re(Conductivity)/mS/cm	Im(Conductivity)/mS/cm	|Conductivity|/mS/cm	Phase(Conductivity)/deg	Tan(Delta)	Loss Angle(Delta)/deg	dq/mA.h	Pwe/W	Rwe/Ohm	
1.0000371E+005	2.4825919E+000	5.0845677E-001	2.5341253E+000	-1.1574615E+001	2.078492338681826E+000	2.2341935E-001	7.7328004E-002	3.1300406E+000	1.2600908E-001	1.000000000000000E+000	9	4.5470186E-003	1.7943147E-003	0	1.464284990167814E-005	3.8658872E-001	7.9176784E-002	3.9461347E-001	1.1574615E+001	1.2600910E+002	6.1525220E+002	6.2802356E+002	-7.8425385E+001	0.0000000E+000	0.0000000E+000	0.0000000E+000	7.8425385E+001	0.0000000E+000	0.0000000E+000	0.0000000E+000	-7.8425385E+001	0.0000000E+000	0.0000000E+000	0.0000000E+000	-1.1574615E+001	0.0000000E+000	0.0000000E+000	0.0000000E+000	1.1574615E+001	4.8826017E+000	7.8425385E+001	1.464284990167814E-005	1.7276572E-005	2.8892424E+003
6.8132047E+004	2.5640457E+000	6.4387935E-001	2.6436548E+000	-1.4096544E+001	2.656490579509409E+000	2.2345841E-001	6.7795575E-002	3.6279740E+000	2.1521062E-001	1.000000000000000E+000	9	5.1863720E-003	1.9618189E-003	0	2.188149817899911E-005	3.6687344E-001	9.2128716E-002	3.7826422E-001	1.4096544E+001	2.1521059E+002	8.5700818E+002	8.8361676E+002	-7.5903458E+001	0.0000000E+000	0.0000000E+000	0.0000000E+000	7.5903458E+001	0.0000000E+000	0.0000000E+000	0.0000000E+000	-7.5903458E+001	0.0000000E+000	0.0000000E+000	0.0000000E+000	-1.4096544E+001	0.0000000E+000	0.0000000E+000	0.0000000E+000	1.4096544E+001	3.9821835E+000	7.5903458E+001	7.238648277320964E-006	1.5149491E-005	3.2960618E+003
4.6420355E+004	2.7031040E+000	7.3042232E-001	2.8000515E+000	-1.5121117E+001	3.234481246938230E+000	2.2348140E-001	7.3250659E-002	4.6939411E+000	3.1941381E-001	1.000000000000000E+000	9	5.1374389E-003	1.8347659E-003	0	3.284993823123578E-005	3.4477103E-001	9.3162693E-002	3.5713631E-001	1.5121117E+001	3.1941379E+002	1.1820677E+003	1.2244629E+003	-7.4878883E+001	0.0000000E+000	0.0000000E+000	0.0000000E+000	7.4878883E+001	0.0000000E+000	0.0000000E+000	0.0000000E+000	-7.4878883E+001	0.0000000E+000	0.0000000E+000	0.0000000E+000	-1.5121117E+001	0.0000000E+000	0.0000000E+000	0.0000000E+000	1.5121117E+001	3.7007413E+000	7.4878883E+001	1.096844005223668E-005	1.6370161E-005	3.0509131E+003
3.1621139E+004	2.8635852E+000	8.2294685E-001	2.9794903E+000	-1.6033772E+001	3.812491247750586E+000	2.2350873E-001	6.4704970E-002	6.1160474E+000	4.6658468E-001	1.000000000000000E+000	9	5.1225079E-003	1.7192564E-003	0	4.207013625821047E-005	3.2257164E-001	9.2701733E-002	3.3562788E-001	1.6033772E+001	4.6658456E+002	1.6235619E+003	1.6892762E+003	-7.3966232E+001	0.0000000E+000	0.0000000E+000	0.0000000E+000	7.3966232E+001	0.0000000E+000	0.0000000E+000	0.0000000E+000	-7.3966232E+001	0.0000000E+000	0.0000000E+000	0.0000000E+000	-1.6033772E+001	0.0000000E+000	0.0000000E+000	0.0000000E+000	1.6033772E+001	3.4796722E+000	7.3966232E+001	9.220198026974684E-006	1.4462125E-005	3.4542747E+003
2.1544684E+004	3.0473895E+000	9.3230522E-001	3.1868129E+000	-1.7010742E+001	4.390480181813473E+000	2.2350888E-001	6.6287503E-002	7.9235883E+000	6.7814881E-001	1.000000000000000E+000	9	5.1102652E-003	1.6035661E-003	0	5.335015166025712E-005	3.0006465E-001	9.1800489E-002	3.1379312E-001	1.7010742E+001	6.7814886E+002	2.2166384E+003	2.3180535E+003	-7.2989258E+001	0.0000000E+000	0.0000000E+000	0.0000000E+000	7.2989258E+001	0.0000000E+000	0.0000000E+000	0.0000000E+000	-7.2989258E+001	0.0000000E+000	0.0000000E+000	0.0000000E+000	-1.7010742E+001	0.0000000E+000	0.0000000E+000	0.0000000E+000	1.7010742E+001	3.2686608E+000	7.2989258E+001	1.128001540204666E-005	1.4815845E-005	3.3718103E+003
1.4678594E+004	3.2645464E+000	1.0535208E+000	3.4303308E+000	-1.7885712E+001	4.968488955957582E+000	2.2351553E-001	6.5635867E-002	1.0291829E+001	9.7074860E-001	1.000000000000000E+000	9	5.0985427E-003	1.4863122E-003	0	6.123637778535743E-005	2.7742836E-001	8.9530520E-002	2.9151708E-001	1.7885712E+001	9.7074872E+002	3.0080603E+003	3.1608196E+003	-7.2114288E+001	0.0000000E+000	0.0000000E+000	0.0000000E+000	7.2114288E+001	0.0000000E+000	0.0000000E+000	0.0000000E+000	-7.2114288E+001	0.0000000E+000	0.0000000E+000	0.0000000E+000	-1.7885712E+001	0.0000000E+000	0.0000000E+000	0.0000000E+000	1.7885712E+001	3.0987015E+000	7.2114288E+001	7.886226125100312E-006	1.4670635E-005	3.4053870E+003
1.0002226E+004	3.4954259E+000	1.1971691E+000	3.6947553E+000	-1.8906120E+001	5.546484903403325E+000	2.2351903E-001	6.1037205E-002	1.3291317E+001	1.3954285E+000	1.000000000000000E+000	9	5.0909878E-003	1.3778958E-003	0	7.001759181230106E-005	2.5605232E-001	8.7696865E-002	2.7065390E-001	1.8906120E+001	1.3954285E+003	4.0742927E+003	4.3066323E+003	-7.1093880E+001	0.0000000E+000	0.0000000E+000	0.0000000E+000	7.1093880E+001	0.0000000E+000	0.0000000E+000	0.0000000E+000	-7.1093880E+001	0.0000000E+000	0.0000000E+000	0.0000000E+000	-1.8906120E+001	0.0000000E+000	0.0000000E+000	0.0000000E+000	1.8906120E+001	2.9197431E+000	7.1093880E+001	8.781214026943625E-006	1.3642977E-005	3.6620127E+003
6.8110674E+003	3.7530835E+000	1.3800128E+000	3.9987586E+000	-2.0188528E+001	6.102522209839663E+000	2.2352022E-001	5.6066189E-002	1.6932529E+001	2.0166831E+000	1.000000000000000E+000	9	5.4966859E-003	1.3745981E-003	0	7.928198776678993E-005	2.3471338E-001	8.6304352E-002	2.5007761E-001	2.0188528E+001	2.0166833E+003	5.4845728E+003	5.8435903E+003	-6.9811470E+001	0.0000000E+000	0.0000000E+000	0.0000000E+000	6.9811470E+001	0.0000000E+000	0.0000000E+000	0.0000000E+000	-6.9811470E+001	0.0000000E+000	0.0000000E+000	0.0000000E+000	-2.0188528E+001	0.0000000E+000	0.0000000E+000	0.0000000E+000	2.0188528E+001	2.7196007E+000	6.9811470E+001	9.264395954488867E-006	1.2531927E-005	3.9867205E+003
4.6414854E+003	4.0973244E+000	1.5982678E+000	4.3980141E+000	-2.1309563E+001	7.273678585501330E+000	2.2353318E-001	1.8435172E-003	2.1454262E+001	2.8333452E+000	1.000000000000000E+000	10	4.7110110E-003	1.0711678E-003	0	8.610970461559353E-005	2.1182984E-001	8.2629733E-002	2.2737536E-001	2.1309563E+001	2.8333455E+003	7.2635728E+003	7.7966235E+003	-6.8690437E+001	0.0000000E+000	0.0000000E+000	0.0000000E+000	6.8690437E+001	0.0000000E+000	0.0000000E+000	0.0000000E+000	-6.8690437E+001	0.0000000E+000	0.0000000E+000	0.0000000E+000	-2.1309563E+001	0.0000000E+000	0.0000000E+000	0.0000000E+000	2.1309563E+001	2.5636032E+000	6.8690437E+001	6.827716848803605E-006	4.1208727E-007	1.2125365E+005
3.1610117E+003	4.4558954E+000	1.8387442E+000	4.8203716E+000	-2.2423700E+001	7.963666378280323E+000	2.2352874E-001	2.2679165E-003	2.7382477E+001	3.9843206E+000	1.000000000000000E+000	10	5.3000497E-003	1.0995106E-003	0	8.748316697470404E-005	1.9176702E-001	7.9133481E-002	2.0745288E-001	2.2423700E+001	3.9843201E+003	9.6553477E+003	1.0445121E+004	-6.7576302E+001	0.0000000E+000	0.0000000E+000	0.0000000E+000	6.7576302E+001	0.0000000E+000	0.0000000E+000	0.0000000E+000	-6.7576302E+001	0.0000000E+000	0.0000000E+000	0.0000000E+000	-2.2423700E+001	0.0000000E+000	0.0000000E+000	0.0000000E+000	2.2423700E+001	2.4233363E+000	6.7576302E+001	1.373462359110513E-006	5.0694450E-007	9.8561281E+004
2.1556899E+003	4.8562355E+000	2.1404338E+000	5.3070216E+000	-2.3785961E+001	8.653706117715046E+000	2.2353275E-001	1.9328656E-003	3.4493084E+001	5.6109180E+000	1.000000000000000E+000	10	5.1807915E-003	9.7621453E-004	0	8.697787758309601E-005	1.7242412E-001	7.5997636E-002	1.8842961E-001	2.3785961E+001	5.6109185E+003	1.2730100E+004	1.3911788E+004	-6.6214035E+001	0.0000000E+000	0.0000000E+000	0.0000000E+000	6.6214035E+001	0.0000000E+000	0.0000000E+000	0.0000000E+000	-6.6214035E+001	0.0000000E+000	0.0000000E+000	0.0000000E+000	-2.3785961E+001	0.0000000E+000	0.0000000E+000	0.0000000E+000	2.3785961E+001	2.2688091E+000	6.6214035E+001	-5.052893916080310E-007	4.3205875E-007	1.1564837E+005
1.4685898E+003	5.3263936E+000	2.5012021E+000	5.8844271E+000	-2.5154112E+001	9.343965697160456E+000	2.2353210E-001	2.4838292E-003	4.3328220E+001	7.8281660E+000	1.000000000000000E+000	10	5.0969739E-003	8.6618017E-004	0	8.627372034722308E-005	1.5382428E-001	7.2233796E-002	1.6994008E-001	2.5154112E+001	7.8281665E+003	1.6670342E+004	1.8416854E+004	-6.4845886E+001	0.0000000E+000	0.0000000E+000	0.0000000E+000	6.4845886E+001	0.0000000E+000	0.0000000E+000	0.0000000E+000	-6.4845886E+001	0.0000000E+000	0.0000000E+000	0.0000000E+000	-2.5154112E+001	0.0000000E+000	0.0000000E+000	0.0000000E+000	2.5154112E+001	2.1295335E+000	6.4845886E+001	-7.041572358729343E-007	5.5521554E-007	8.9994953E+004
1.0003202E+003	5.8922911E+000	2.9389870E+000	6.5845833E+000	-2.6509336E+001	9.812707532764762E+000	2.2352506E-001	2.0203423E-003	5.4135658E+001	1.0785050E+001	1.000000000000000E+000	10	5.1861522E-003	7.8762043E-004	0	8.590112478394036E-005	1.3590254E-001	6.7786157E-002	1.5186989E-001	2.6509336E+001	1.0785051E+004	2.1622639E+004	2.4163109E+004	-6.3490662E+001	0.0000000E+000	0.0000000E+000	0.0000000E+000	6.3490662E+001	0.0000000E+000	0.0000000E+000	0.0000000E+000	-6.3490662E+001	0.0000000E+000	0.0000000E+000	0.0000000E+000	-2.6509336E+001	0.0000000E+000	0.0000000E+000	0.0000000E+000	2.6509336E+001	2.0048714E+000	6.3490662E+001	-3.725955632827207E-007	4.5159715E-007	1.1063723E+005
6.8108978E+002	6.5665073E+000	3.4634569E+000	7.4239178E+000	-2.7809080E+001	1.027843971483526E+001	2.2353259E-001	1.8732880E-003	6.7469269E+001	1.4684504E+001	1.000000000000000E+000	10	5.0729248E-003	6.8332179E-004	0	8.584936890657021E-005	1.1914289E-001	6.2841050E-002	1.3469976E-001	2.7809080E+001	1.4684504E+004	2.7840941E+004	3.1476225E+004	-6.2190918E+001	0.0000000E+000	0.0000000E+000	0.0000000E+000	6.2190918E+001	0.0000000E+000	0.0000000E+000	0.0000000E+000	-6.2190918E+001	0.0000000E+000	0.0000000E+000	0.0000000E+000	-2.7809080E+001	0.0000000E+000	0.0000000E+000	0.0000000E+000	2.7809080E+001	1.8959403E+000	6.2190918E+001	-5.175587737015256E-008	4.1874091E-007	1.1932634E+005
4.6396069E+002	7.4133420E+000	4.0797048E+000	8.4617748E+000	-2.8824837E+001	1.074718904375914E+001	2.2353038E-001	1.9961388E-003	8.4083389E+001	1.9545408E+001	1.000000000000000E+000	10	4.9545499E-003	5.8552140E-004	0	8.615439566812388E-005	1.0353594E-001	5.6977820E-002	1.1817852E-001	2.8824837E+001	1.9545412E+004	3.5516492E+004	4.0539418E+004	-6.1175163E+001	0.0000000E+000	0.0000000E+000	0.0000000E+000	6.1175163E+001	0.0000000E+000	0.0000000E+000	0.0000000E+000	-6.1175163E+001	0.0000000E+000	0.0000000E+000	0.0000000E+000	-2.8824837E+001	0.0000000E+000	0.0000000E+000	0.0000000E+000	2.8824837E+001	1.8171271E+000	6.1175163E+001	3.050267615536712E-007	4.4619767E-007	1.1198138E+005
3.1631589E+002	8.4570560E+000	4.7567654E+000	9.7030210E+000	-2.9356060E+001	1.121392919929349E+001	2.2352460E-001	1.9589099E-003	1.0577606E+002	2.5421251E+001	1.000000000000000E+000	10	4.8626638E-003	5.0114945E-004	0	8.612348470265472E-005	8.9826666E-002	5.0524004E-002	1.0306069E-001	2.9356060E+001	2.5421248E+004	4.5196457E+004	5.1855180E+004	-6.0643940E+001	0.0000000E+000	0.0000000E+000	0.0000000E+000	6.0643940E+001	0.0000000E+000	0.0000000E+000	0.0000000E+000	-6.0643940E+001	0.0000000E+000	0.0000000E+000	0.0000000E+000	-2.9356060E+001	0.0000000E+000	0.0000000E+000	0.0000000E+000	2.9356060E+001	1.7779006E+000	6.0643936E+001	-3.091096546915361E-008	4.3786454E-007	1.1410663E+005
2.1534457E+002	9.7804890E+000	5.4504943E+000	1.1196690E+001	-2.9130152E+001	1.168142786147655E+001	2.2352640E-001	2.1804124E-003	1.3559708E+002	3.2132374E+001	1.000000000000000E+000	10	4.8017153E-003	4.2885132E-004	0	8.595029487527810E-005	7.8015573E-002	4.3476701E-002	8.9312114E-002	2.9130152E+001	3.2132371E+004	5.7659055E+004	6.6008000E+004	-6.0869850E+001	0.0000000E+000	0.0000000E+000	0.0000000E+000	6.0869850E+001	0.0000000E+000	0.0000000E+000	0.0000000E+000	-6.0869850E+001	0.0000000E+000	0.0000000E+000	0.0000000E+000	-2.9130152E+001	0.0000000E+000	0.0000000E+000	0.0000000E+000	2.9130152E+001	1.7944224E+000	6.0869850E+001	-1.731898273766230E-007	4.8737974E-007	1.0251566E+005
1.4673740E+002	1.1389115E+001	6.0668526E+000	1.2904210E+001	-2.8043722E+001	1.214440721677965E+001	2.2352067E-001	2.0985075E-003	1.7877875E+002	3.9516632E+001	1.000000000000000E+000	10	4.7614314E-003	3.6898279E-004	0	8.638038012447132E-005	6.8395443E-002	3.6433477E-002	7.7494092E-002	2.8043722E+001	3.9516633E+004	7.4183352E+004	8.4051969E+004	-6.1956276E+001	0.0000000E+000	0.0000000E+000	0.0000000E+000	6.1956276E+001	0.0000000E+000	0.0000000E+000	0.0000000E+000	-6.1956276E+001	0.0000000E+000	0.0000000E+000	0.0000000E+000	-2.8043722E+001	0.0000000E+000	0.0000000E+000	0.0000000E+000	2.8043722E+001	1.8772691E+000	6.1956276E+001	4.300852491932240E-007	4.6905978E-007	1.0651412E+005
1.0003201E+002	1.3227527E+001	6.4540181E+000	1.4718078E+001	-2.6008825E+001	1.261269345242908E+001	2.2352432E-001	1.8472201E-003	2.4651930E+002	4.7403362E+001	1.000000000000000E+000	10	4.7347574E-003	3.2169672E-004	0	8.693011915728373E-005	6.1062764E-002	2.9793944E-002	6.7943655E-002	2.6008825E+001	4.7403363E+004	9.7153305E+004	1.0810108E+005	-6.3991173E+001	0.0000000E+000	0.0000000E+000	0.0000000E+000	6.3991173E+001	0.0000000E+000	0.0000000E+000	0.0000000E+000	-6.3991173E+001	0.0000000E+000	0.0000000E+000	0.0000000E+000	-2.6008825E+001	0.0000000E+000	0.0000000E+000	0.0000000E+000	2.6008825E+001	2.0495026E+000	6.3991173E+001	5.497390328124021E-007	4.1289863E-007	1.2100578E+005
6.8103981E+001	1.5269326E+001	6.5413995E+000	1.6611509E+001	-2.3190355E+001	1.309134531512973E+001	2.2352673E-001	1.8695563E-003	3.5725388E+002	5.5398769E+001	1.000000000000000E+000	10	4.7269473E-003	2.8455857E-004	0	8.743234022694297E-005	5.5335227E-002	2.3705684E-002	6.0199227E-002	2.3190355E+001	5.5398766E+004	1.2931513E+005	1.4068200E+005	-6.6809647E+001	0.0000000E+000	0.0000000E+000	0.0000000E+000	6.6809647E+001	0.0000000E+000	0.0000000E+000	0.0000000E+000	-6.6809647E+001	0.0000000E+000	0.0000000E+000	0.0000000E+000	-2.3190355E+001	0.0000000E+000	0.0000000E+000	0.0000000E+000	2.3190355E+001	2.3342597E+000	6.6809647E+001	5.022210696592450E-007	4.1789579E-007	1.1956138E+005
4.6441547E+001	1.7252329E+001	6.2371173E+000	1.8345148E+001	-1.9876101E+001	1.354656387006980E+001	2.2351943E-001	1.0933613E-003	5.4945172E+002	6.3511875E+001	1.000000000000000E+000	10	4.7155353E-003	2.5704538E-004	0	8.768907738372056E-005	5.1263146E-002	1.8532818E-002	5.4510325E-002	1.9876101E+001	6.3511871E+004	1.7567855E+005	1.8680661E+005	-7.0123901E+001	0.0000000E+000	0.0000000E+000	0.0000000E+000	7.0123901E+001	0.0000000E+000	0.0000000E+000	0.0000000E+000	-7.0123901E+001	0.0000000E+000	0.0000000E+000	0.0000000E+000	-1.9876101E+001	0.0000000E+000	0.0000000E+000	0.0000000E+000	1.9876101E+001	2.7660742E+000	7.0123901E+001	2.567371567775874E-007	2.4438748E-007	2.0443328E+005
3.1629555E+001	1.9066767E+001	5.5572538E+000	1.9860128E+001	-1.6249439E+001	1.423842483627959E+001	2.2351836E-001	-3.4533276E-003	9.0545490E+002	7.0896233E+001	1.000000000000000E+000	11	4.7124587E-003	2.3728239E-004	0	8.737086184145947E-005	4.8340704E-002	1.4089517E-002	5.0352141E-002	1.6249439E+001	7.0896211E+004	2.4324280E+005	2.5336403E+005	-7.3750565E+001	0.0000000E+000	0.0000000E+000	0.0000000E+000	7.3750565E+001	0.0000000E+000	0.0000000E+000	0.0000000E+000	-7.3750565E+001	0.0000000E+000	0.0000000E+000	0.0000000E+000	-1.6249439E+001	0.0000000E+000	0.0000000E+000	0.0000000E+000	1.6249439E+001	3.4309692E+000	7.3750565E+001	-3.182155422610882E-007	-7.7188213E-007	6.4725500E+004
2.1551722E+001	2.0453669E+001	4.7149014E+000	2.0990067E+001	-1.2980849E+001	1.467735104376334E+001	2.2352350E-001	-3.6762238E-003	1.5662660E+003	7.9028389E+001	1.000000000000000E+000	11	4.7115698E-003	2.2446664E-004	0	8.769533246592699E-005	4.6424113E-002	1.0701508E-002	4.7641583E-002	1.2980849E+001	7.9028398E+004	3.4283231E+005	3.5182309E+005	-7.7019150E+001	0.0000000E+000	0.0000000E+000	0.0000000E+000	7.7019150E+001	0.0000000E+000	0.0000000E+000	0.0000000E+000	-7.7019150E+001	0.0000000E+000	0.0000000E+000	0.0000000E+000	-1.2980849E+001	0.0000000E+000	0.0000000E+000	0.0000000E+000	1.2980849E+001	4.3380904E+000	7.7019150E+001	3.244706244675166E-007	-8.2172238E-007	6.0802473E+004
1.4685154E+001	2.1461988E+001	3.8490026E+000	2.1804398E+001	-1.0167366E+001	1.515503386649652E+001	2.2353305E-001	-2.8606763E-003	2.8157456E+003	8.7740807E+001	1.000000000000000E+000	11	4.7123544E-003	2.1611946E-004	0	8.729469288223280E-005	4.5142103E-002	8.0958046E-003	4.5862310E-002	1.0167366E+001	8.7740813E+004	4.8924163E+005	4.9704709E+005	-7.9832634E+001	0.0000000E+000	0.0000000E+000	0.0000000E+000	7.9832634E+001	0.0000000E+000	0.0000000E+000	0.0000000E+000	-7.9832634E+001	0.0000000E+000	0.0000000E+000	0.0000000E+000	-1.0167366E+001	0.0000000E+000	0.0000000E+000	0.0000000E+000	1.0167366E+001	5.5759869E+000	7.9832634E+001	-4.006395836941894E-007	-6.3945566E-007	7.8139930E+004
1.0003201E+001	2.2122150E+001	3.0969684E+000	2.2337877E+001	-7.9692736E+000	1.562367228877702E+001	2.2353086E-001	-2.9861026E-003	5.1374116E+003	9.8749321E+001	1.000000000000000E+000	11	4.7078594E-003	2.1075680E-004	0	8.571217241777211E-005	4.4334676E-002	6.2065888E-003	4.4767011E-002	7.9692736E+000	9.8749352E+004	7.0538244E+005	7.1226106E+005	-8.2030724E+001	0.0000000E+000	0.0000000E+000	0.0000000E+000	8.2030724E+001	0.0000000E+000	0.0000000E+000	0.0000000E+000	-8.2030724E+001	0.0000000E+000	0.0000000E+000	0.0000000E+000	-7.9692736E+000	0.0000000E+000	0.0000000E+000	0.0000000E+000	7.9692736E+000	7.1431632E+000	8.2030724E+001	-1.582520464460686E-006	-6.6748606E-007	7.4857063E+004
