EC-Lab ASCII FILE
Nb header lines : 63                          

Potentio Electrochemical Impedance Spectroscopy

Run on channel : 6 (SN 65795)
User : 
CE vs. WE compliance from -10 V to 10 V
Electrode connection : standard
Potential control : Ewe
Ewe ctrl range : min = -10.00 V, max = 10.00 V
Safety Limits :
	Do not start on E overload
Acquisition started on : 09/11/2025 15:38:54.924
Loaded Setting File :  C:\Users\Celltest\OneDrive - store-dot.com\Documents\EC-Lab\Data\Charmaine\R279\17383.mps
Saved on :
	File : 17400_C06.mpr
	Directory : C:\Users\Celltest\OneDrive - store-dot.com\Documents\EC-Lab\Data\Charmaine\R279\
	Host : 169.254.61.224
Device : VMP-3e (SN .003165)
Address : USB
EC-LAB for windows v11.62 (software)
Internet server v27.00 (firmware)
Command interpretor v12.03 (firmware)
Electrode material : 
Initial state : 
Electrolyte : 
Comments : 
Electrode surface area : 0.001 cm²
Characteristic mass : 0.001 g
Equivalent Weight : 0.000 g/eq.
Density : 0.000 g/cm3
Volume (V) : 0.001 cm³
Cycle Definition : Charge/Discharge alternance
Mode                Single sine         
E (V)               0.0000              
vs.                 Eoc                 
tE (h:m:s)          0:00:0.0000         
record              0                   
dI                  0.000               
unit dI             mA                  
dt (s)              0.000               
fi                  100.000             
unit fi             kHz                 
ff                  10.000              
unit ff             mHz                 
Nd                  6                   
Points              per decade          
spacing             Logarithmic         
Va (mV)             5.0                 
pw                  0.10                
Na                  2                   
corr                0                   
E range min (V)     -10.000             
E range max (V)     10.000              
I Range             Auto                
Bandwidth           5                   
nc cycles           0                   
goto Ns'            0                   
nr cycles           0                   
inc. cycle          0                   

freq/Hz	Re(Z)/Ohm	-Im(Z)/Ohm	|Z|/Ohm	Phase(Z)/deg	time/s	<Ewe>/V	<I>/mA	Cs/µF	Cp/µF	cycle number	I Range	|Ewe|/V	|I|/A	Ns	(Q-Qo)/mA.h	Re(Y)/Ohm-1	Im(Y)/Ohm-1	|Y|/Ohm-1	Phase(Y)/deg	Re(C)/nF	Im(C)/nF	|C|/nF	Phase(C)/deg	Re(M)	Im(M)	|M|	Phase(M)/deg	Re(Permittivity)	Im(Permittivity)	|Permittivity|	Phase(Permittivity)/deg	Re(Resistivity)/Ohm.cm	Im(Resistivity)/Ohm.cm	|Resistivity|/Ohm.cm	Phase(Resistivity)/deg	Re(Conductivity)/mS/cm	Im(Conductivity)/mS/cm	|Conductivity|/mS/cm	Phase(Conductivity)/deg	Tan(Delta)	Loss Angle(Delta)/deg	dq/mA.h	Pwe/W	Rwe/Ohm	
1.0000371E+005	2.5852895E+000	8.0035901E-001	2.7063437E+000	-1.7201582E+001	2.375487819459522E+000	2.4371286E-001	-3.6530439E-002	1.9884704E+000	1.7390935E-001	1.000000000000000E+000	9	4.5437859E-003	1.6789390E-003	0	-8.645294448153840E-006	3.5297444E-001	1.0927453E-001	3.6950222E-001	1.7201582E+001	1.7390936E+002	5.6175543E+002	5.8805920E+002	-7.2798416E+001	0.0000000E+000	0.0000000E+000	0.0000000E+000	7.2798416E+001	0.0000000E+000	0.0000000E+000	0.0000000E+000	-7.2798416E+001	0.0000000E+000	0.0000000E+000	0.0000000E+000	-1.7201582E+001	0.0000000E+000	0.0000000E+000	0.0000000E+000	1.7201582E+001	3.2301624E+000	7.2798416E+001	-8.645294448153840E-006	-8.9029372E-006	6.6715010E+003
6.8132047E+004	2.7835159E+000	8.4371555E-001	2.9085765E+000	-1.6862656E+001	2.953499820228899E+000	2.4371390E-001	-3.3941567E-002	2.7686791E+000	2.3297203E-001	1.000000000000000E+000	9	5.0383275E-003	1.7322315E-003	0	-1.095775579648196E-005	3.2902792E-001	9.9732116E-002	3.4381080E-001	1.6862656E+001	2.3297202E+002	7.6860193E+002	8.0313440E+002	-7.3137344E+001	0.0000000E+000	0.0000000E+000	0.0000000E+000	7.3137344E+001	0.0000000E+000	0.0000000E+000	0.0000000E+000	-7.3137344E+001	0.0000000E+000	0.0000000E+000	0.0000000E+000	-1.6862656E+001	0.0000000E+000	0.0000000E+000	0.0000000E+000	1.6862656E+001	3.2991166E+000	7.3137344E+001	-2.312461348328119E-006	-8.2720317E-006	7.1803965E+003
4.6420355E+004	2.9926062E+000	9.0012121E-001	3.1250455E+000	-1.6740326E+001	3.531474434392294E+000	2.4370137E-001	-4.3030556E-002	3.8089976E+000	3.1600937E-001	1.000000000000000E+000	9	5.1649348E-003	1.6527551E-003	0	-1.503086270543928E-005	3.0643395E-001	9.2169724E-002	3.1999534E-001	1.6740326E+001	3.1600937E+002	1.0506270E+003	1.0971230E+003	-7.3259674E+001	0.0000000E+000	0.0000000E+000	0.0000000E+000	7.3259674E+001	0.0000000E+000	0.0000000E+000	0.0000000E+000	-7.3259674E+001	0.0000000E+000	0.0000000E+000	0.0000000E+000	-1.6740326E+001	0.0000000E+000	0.0000000E+000	0.0000000E+000	1.6740326E+001	3.3246701E+000	7.3259674E+001	-4.073106908957318E-006	-1.0486606E-005	5.6634492E+003
3.1621139E+004	3.1882517E+000	9.8201829E-001	3.3360620E+000	-1.7119436E+001	3.968494775152067E+000	2.4371363E-001	-3.6791194E-002	5.1253448E+000	4.4411352E-001	1.000000000000000E+000	9	5.1632761E-003	1.5477159E-003	0	-1.988205187789087E-005	2.8647345E-001	8.8237129E-002	2.9975462E-001	1.7119436E+001	4.4411359E+002	1.4418730E+003	1.5087196E+003	-7.2880562E+001	0.0000000E+000	0.0000000E+000	0.0000000E+000	7.2880562E+001	0.0000000E+000	0.0000000E+000	0.0000000E+000	-7.2880562E+001	0.0000000E+000	0.0000000E+000	0.0000000E+000	-1.7119436E+001	0.0000000E+000	0.0000000E+000	0.0000000E+000	1.7119436E+001	3.2466316E+000	7.2880562E+001	-4.851189172451592E-006	-8.9665155E-006	6.6242383E+003
2.1544684E+004	3.4182820E+000	1.0721253E+000	3.5824718E+000	-1.7413744E+001	4.406477649259614E+000	2.4370976E-001	-3.9361440E-002	6.8902421E+000	6.1710632E-001	1.000000000000000E+000	9	5.0322926E-003	1.4046985E-003	0	-2.262680932142151E-005	2.6634362E-001	8.3537199E-002	2.7913687E-001	1.7413744E+001	6.1710620E+002	1.9675345E+003	2.0620408E+003	-7.2586258E+001	0.0000000E+000	0.0000000E+000	0.0000000E+000	7.2586258E+001	0.0000000E+000	0.0000000E+000	0.0000000E+000	-7.2586258E+001	0.0000000E+000	0.0000000E+000	0.0000000E+000	-1.7413744E+001	0.0000000E+000	0.0000000E+000	0.0000000E+000	1.7413744E+001	3.1883233E+000	7.2586258E+001	-2.744757443530639E-006	-9.5927671E-006	6.1915864E+003
1.4678594E+004	3.6681514E+000	1.1915735E+000	3.8568358E+000	-1.7996027E+001	4.702500063314801E+000	2.4371359E-001	-4.3905940E-002	9.0994434E+000	8.6854875E-001	1.000000000000000E+000	9	4.5127771E-003	1.1700724E-003	0	-2.605397987192393E-005	2.4659540E-001	8.0104798E-002	2.5927991E-001	1.7996027E+001	8.6854871E+002	2.6737493E+003	2.8112830E+003	-7.2003975E+001	0.0000000E+000	0.0000000E+000	0.0000000E+000	7.2003975E+001	0.0000000E+000	0.0000000E+000	0.0000000E+000	-7.2003975E+001	0.0000000E+000	0.0000000E+000	0.0000000E+000	-1.7996027E+001	0.0000000E+000	0.0000000E+000	0.0000000E+000	1.7996027E+001	3.0784097E+000	7.2003975E+001	-3.427170550502424E-006	-1.0700474E-005	5.5508115E+003
1.0002226E+004	3.9320059E+000	1.3361530E+000	4.1528273E+000	-1.8768511E+001	5.140478324115975E+000	2.4370788E-001	-4.2956065E-002	1.1908780E+001	1.2327981E+000	1.000000000000000E+000	9	4.8233438E-003	1.1614603E-003	0	-2.960890250851258E-005	2.2799556E-001	7.7476226E-002	2.4079980E-001	1.8768511E+001	1.2327980E+003	3.6278550E+003	3.8315952E+003	-7.1231491E+001	0.0000000E+000	0.0000000E+000	0.0000000E+000	7.1231491E+001	0.0000000E+000	0.0000000E+000	0.0000000E+000	-7.1231491E+001	0.0000000E+000	0.0000000E+000	0.0000000E+000	-1.8768511E+001	0.0000000E+000	0.0000000E+000	0.0000000E+000	1.8768511E+001	2.9427812E+000	7.1231491E+001	-3.554922636588647E-006	-1.0468731E-005	5.6734219E+003
6.8110674E+003	4.2361550E+000	1.4974591E+000	4.4930382E+000	-1.9468241E+001	5.727505312039284E+000	2.4380684E-001	-2.1463769E-002	1.5604505E+001	1.7333237E+000	1.000000000000000E+000	10	4.7526690E-003	1.0577851E-003	0	-3.000655050469666E-005	2.0984161E-001	7.4177936E-002	2.2256655E-001	1.9468241E+001	1.7333237E+003	4.9033921E+003	5.2007368E+003	-7.0531761E+001	0.0000000E+000	0.0000000E+000	0.0000000E+000	7.0531761E+001	0.0000000E+000	0.0000000E+000	0.0000000E+000	-7.0531761E+001	0.0000000E+000	0.0000000E+000	0.0000000E+000	-1.9468241E+001	0.0000000E+000	0.0000000E+000	0.0000000E+000	1.9468241E+001	2.8288953E+000	7.0531761E+001	-3.976479961840783E-007	-5.2330138E-006	1.1358995E+004
4.6414854E+003	4.5659242E+000	1.6963754E+000	4.8708677E+000	-2.0381516E+001	6.197704694393906E+000	2.4388209E-001	-1.0683239E-003	2.0213484E+001	2.4517288E+000	1.000000000000000E+000	10	4.7745765E-003	9.8023121E-004	0	-2.946413790450566E-005	1.9244915E-001	7.1500532E-002	2.0530222E-001	2.0381516E+001	2.4517288E+003	6.5990156E+003	7.0397432E+003	-6.9618484E+001	0.0000000E+000	0.0000000E+000	0.0000000E+000	6.9618484E+001	0.0000000E+000	0.0000000E+000	0.0000000E+000	-6.9618484E+001	0.0000000E+000	0.0000000E+000	0.0000000E+000	-2.0381516E+001	0.0000000E+000	0.0000000E+000	0.0000000E+000	2.0381516E+001	2.6915765E+000	6.9618484E+001	5.424126001910018E-007	-2.6054505E-007	2.2828480E+005
3.1610117E+003	4.9382076E+000	1.9418375E+000	5.3062820E+000	-2.1466101E+001	6.664667649914918E+000	2.4388079E-001	-1.2658286E-003	2.5928722E+001	3.4723721E+000	1.000000000000000E+000	10	4.7315708E-003	8.9169230E-004	0	-2.953491190926676E-005	1.7538348E-001	6.8965554E-002	1.8845586E-001	2.1466101E+001	3.4723723E+003	8.8304473E+003	9.4886338E+003	-6.8533897E+001	0.0000000E+000	0.0000000E+000	0.0000000E+000	6.8533897E+001	0.0000000E+000	0.0000000E+000	0.0000000E+000	-6.8533897E+001	0.0000000E+000	0.0000000E+000	0.0000000E+000	-2.1466101E+001	0.0000000E+000	0.0000000E+000	0.0000000E+000	2.1466101E+001	2.5430591E+000	6.8533897E+001	-7.077400476110607E-008	-3.0871129E-007	1.9266494E+005
2.1556899E+003	5.3662543E+000	2.2392404E+000	5.8147125E+000	-2.2649891E+001	7.130707565382181E+000	2.4387938E-001	-1.1558998E-003	3.2971073E+001	4.8896532E+000	1.000000000000000E+000	10	4.6854732E-003	8.0579618E-004	0	-2.916939282061746E-005	1.5871382E-001	6.6228397E-002	1.7197755E-001	2.2649891E+001	4.8896523E+003	1.1717868E+004	1.2697131E+004	-6.7350113E+001	0.0000000E+000	0.0000000E+000	0.0000000E+000	6.7350113E+001	0.0000000E+000	0.0000000E+000	0.0000000E+000	-6.7350113E+001	0.0000000E+000	0.0000000E+000	0.0000000E+000	-2.2649891E+001	0.0000000E+000	0.0000000E+000	0.0000000E+000	2.2649891E+001	2.3964620E+000	6.7350113E+001	3.655190886493066E-007	-2.8190013E-007	2.1098659E+005
1.4685898E+003	5.8713698E+000	2.6047537E+000	6.4232178E+000	-2.3923820E+001	7.597943960892735E+000	2.4388050E-001	-1.0739218E-003	4.1605713E+001	6.8419676E+000	1.000000000000000E+000	10	4.6511553E-003	7.2411611E-004	0	-2.955514693207806E-005	1.4230959E-001	6.3133724E-002	1.5568522E-001	2.3923820E+001	6.8419678E+003	1.5422464E+004	1.6872016E+004	-6.6076180E+001	0.0000000E+000	0.0000000E+000	0.0000000E+000	6.6076180E+001	0.0000000E+000	0.0000000E+000	0.0000000E+000	-6.6076180E+001	0.0000000E+000	0.0000000E+000	0.0000000E+000	-2.3923820E+001	0.0000000E+000	0.0000000E+000	0.0000000E+000	2.3923820E+001	2.2540979E+000	6.6076180E+001	-3.857541114606045E-007	-2.6190858E-007	2.2709334E+005
1.0003202E+003	6.4416132E+000	3.0526121E+000	7.1283112E+000	-2.5355776E+001	8.066712409839965E+000	2.4388275E-001	-9.6957968E-004	5.2120605E+001	9.5582724E+000	1.000000000000000E+000	10	4.6170955E-003	6.4771238E-004	0	-2.982394446404113E-005	1.2677142E-001	6.0075630E-002	1.4028569E-001	2.5355776E+001	9.5582725E+003	2.0169840E+004	2.2320014E+004	-6.4644226E+001	0.0000000E+000	0.0000000E+000	0.0000000E+000	6.4644226E+001	0.0000000E+000	0.0000000E+000	0.0000000E+000	-6.4644226E+001	0.0000000E+000	0.0000000E+000	0.0000000E+000	-2.5355776E+001	0.0000000E+000	0.0000000E+000	0.0000000E+000	2.5355776E+001	2.1101971E+000	6.4644226E+001	-2.687975319630726E-007	-2.3646375E-007	2.5153450E+005
6.8108978E+002	7.1401024E+000	3.5868146E+000	7.9903879E+000	-2.6672565E+001	8.532453765248647E+000	2.4388209E-001	-1.3590066E-003	6.5148865E+001	1.3127710E+001	1.000000000000000E+000	10	4.5990320E-003	5.7557056E-004	0	-3.041415816256712E-005	1.1183267E-001	5.6178898E-002	1.2515037E-001	2.6672565E+001	1.3127710E+004	2.6132711E+004	2.9244750E+004	-6.3327435E+001	0.0000000E+000	0.0000000E+000	0.0000000E+000	6.3327435E+001	0.0000000E+000	0.0000000E+000	0.0000000E+000	-6.3327435E+001	0.0000000E+000	0.0000000E+000	0.0000000E+000	-2.6672565E+001	0.0000000E+000	0.0000000E+000	0.0000000E+000	2.6672565E+001	1.9906527E+000	6.3327438E+001	-5.902136985259831E-007	-3.3143738E-007	1.7945614E+005
4.6396069E+002	7.9815092E+000	4.2179599E+000	9.0274954E+000	-2.7854950E+001	9.001201120874612E+000	2.4388467E-001	-5.4848153E-004	8.1327324E+001	1.7754433E+001	1.000000000000000E+000	10	4.5869034E-003	5.0810364E-004	0	-3.024385478012523E-005	9.7937830E-002	5.1756859E-002	1.1077270E-001	2.7854950E+001	1.7754436E+004	3.3596141E+004	3.7998957E+004	-6.2145050E+001	0.0000000E+000	0.0000000E+000	0.0000000E+000	6.2145050E+001	0.0000000E+000	0.0000000E+000	0.0000000E+000	-6.2145050E+001	0.0000000E+000	0.0000000E+000	0.0000000E+000	-2.7854950E+001	0.0000000E+000	0.0000000E+000	0.0000000E+000	2.7854950E+001	1.8922677E+000	6.2145050E+001	1.703033824418900E-007	-1.3376624E-007	4.4465428E+005
3.1631589E+002	9.0278263E+000	4.9520907E+000	1.0296837E+001	-2.8746367E+001	9.467914209701121E+000	2.4388257E-001	-1.3981354E-003	1.0160394E+002	2.3500660E+001	1.000000000000000E+000	10	4.5786384E-003	4.4466453E-004	0	-3.029974555093981E-005	8.5148208E-002	4.6706881E-002	9.7117200E-002	2.8746367E+001	2.3500660E+004	4.2842484E+004	4.8864707E+004	-6.1253632E+001	0.0000000E+000	0.0000000E+000	0.0000000E+000	6.1253632E+001	0.0000000E+000	0.0000000E+000	0.0000000E+000	-6.1253632E+001	0.0000000E+000	0.0000000E+000	0.0000000E+000	-2.8746367E+001	0.0000000E+000	0.0000000E+000	0.0000000E+000	2.8746367E+001	1.8230333E+000	6.1253632E+001	-5.589077081458475E-008	-3.4098085E-007	1.7443416E+005
2.1534457E+002	1.0348351E+001	5.7183380E+000	1.1823188E+001	-2.8924355E+001	9.935431111865910E+000	2.4388209E-001	-1.1056036E-003	1.2924579E+002	3.0233391E+001	1.000000000000000E+000	10	4.5720027E-003	3.8669797E-004	0	-3.069695472574676E-005	7.4029021E-002	4.0907282E-002	8.4579557E-002	2.8924355E+001	3.0233389E+004	5.4712707E+004	6.2510305E+004	-6.1075645E+001	0.0000000E+000	0.0000000E+000	0.0000000E+000	6.1075645E+001	0.0000000E+000	0.0000000E+000	0.0000000E+000	-6.1075645E+001	0.0000000E+000	0.0000000E+000	0.0000000E+000	-2.8924355E+001	0.0000000E+000	0.0000000E+000	0.0000000E+000	2.8924355E+001	1.8096782E+000	6.1075645E+001	-3.972091748069512E-007	-2.6963693E-007	2.2058727E+005
1.4673740E+002	1.1957562E+001	6.4750848E+000	1.3598163E+001	-2.8435785E+001	1.039840750719304E+001	2.4387798E-001	-1.4093214E-003	1.6750734E+002	3.7980816E+001	1.000000000000000E+000	10	4.5731836E-003	3.3630893E-004	0	-3.087153008611737E-005	6.4666919E-002	3.5017490E-002	7.3539346E-002	2.8435785E+001	3.7980816E+004	7.0139320E+004	7.9762563E+004	-6.1564217E+001	0.0000000E+000	0.0000000E+000	0.0000000E+000	6.1564217E+001	0.0000000E+000	0.0000000E+000	0.0000000E+000	-6.1564217E+001	0.0000000E+000	0.0000000E+000	0.0000000E+000	-2.8435785E+001	0.0000000E+000	0.0000000E+000	0.0000000E+000	2.8435785E+001	1.8467036E+000	6.1564217E+001	-1.745753603706095E-007	-3.4370245E-007	1.7304638E+005
1.0003201E+002	1.3877275E+001	7.0751028E+000	1.5576772E+001	-2.7014021E+001	1.086667712949566E+001	2.4389125E-001	-9.0623630E-004	2.2487872E+002	4.6393696E+001	1.000000000000000E+000	10	4.5659337E-003	2.9312453E-004	0	-3.096050792172738E-005	5.7193838E-002	2.9159348E-002	6.4198151E-002	2.7014021E+001	4.6393695E+004	9.0997688E+004	1.0214184E+005	-6.2985977E+001	0.0000000E+000	0.0000000E+000	0.0000000E+000	6.2985977E+001	0.0000000E+000	0.0000000E+000	0.0000000E+000	-6.2985977E+001	0.0000000E+000	0.0000000E+000	0.0000000E+000	-2.7014021E+001	0.0000000E+000	0.0000000E+000	0.0000000E+000	2.7014021E+001	1.9614238E+000	6.2985977E+001	-8.897783561001246E-008	-2.2102310E-007	2.6912547E+005
6.8103981E+001	1.6072966E+001	7.3942075E+000	1.7692217E+001	-2.4704323E+001	1.134532315217075E+001	2.4389854E-001	6.6636939E-004	3.1605014E+002	5.5204533E+001	1.000000000000000E+000	10	4.5652916E-003	2.5803954E-004	0	-3.087381134641651E-005	5.1348943E-002	2.3622571E-002	5.6522030E-002	2.4704323E+001	5.5204535E+004	1.1999941E+005	1.3208861E+005	-6.5295677E+001	0.0000000E+000	0.0000000E+000	0.0000000E+000	6.5295677E+001	0.0000000E+000	0.0000000E+000	0.0000000E+000	-6.5295677E+001	0.0000000E+000	0.0000000E+000	0.0000000E+000	-2.4704323E+001	0.0000000E+000	0.0000000E+000	0.0000000E+000	2.4704323E+001	2.1737239E+000	6.5295677E+001	8.669657531087244E-008	1.6252652E-007	3.6601103E+005
4.6441547E+001	1.8482731E+001	7.3212829E+000	1.9879953E+001	-2.1609249E+001	1.204855377224158E+001	2.4391772E-001	-7.0395325E-003	4.6808670E+002	6.3484825E+001	1.000000000000000E+000	11	4.5730341E-003	2.3003243E-004	0	-3.177950262829998E-005	4.6766561E-002	1.8524924E-002	5.0301928E-002	2.1609249E+001	6.3484832E+004	1.6026877E+005	1.7238445E+005	-6.8390747E+001	0.0000000E+000	0.0000000E+000	0.0000000E+000	6.8390747E+001	0.0000000E+000	0.0000000E+000	0.0000000E+000	-6.8390747E+001	0.0000000E+000	0.0000000E+000	0.0000000E+000	-2.1609249E+001	0.0000000E+000	0.0000000E+000	0.0000000E+000	2.1609249E+001	2.5245209E+000	6.8390747E+001	-9.056912818834669E-007	-1.7170668E-006	3.4649703E+004
3.1629555E+001	2.0622486E+001	6.7872396E+000	2.1710678E+001	-1.8217327E+001	1.249544622012763E+001	2.4390347E-001	-7.5297346E-003	7.4136810E+002	7.2455849E+001	1.000000000000000E+000	11	4.5622303E-003	2.1013763E-004	0	-3.271660283060752E-005	4.3751627E-002	1.4399466E-002	4.6060283E-002	1.8217327E+001	7.2455867E+004	2.2015131E+005	2.3176809E+005	-7.1782669E+001	0.0000000E+000	0.0000000E+000	0.0000000E+000	7.1782669E+001	0.0000000E+000	0.0000000E+000	0.0000000E+000	-7.1782669E+001	0.0000000E+000	0.0000000E+000	0.0000000E+000	-1.8217327E+001	0.0000000E+000	0.0000000E+000	0.0000000E+000	1.8217327E+001	3.0384202E+000	7.1782669E+001	-9.371002023075462E-007	-1.8365284E-006	3.2392041E+004
2.1551722E+001	2.2473478E+001	5.9176202E+000	2.3239523E+001	-1.4752020E+001	1.293433394763269E+001	2.4390103E-001	-7.9309624E-003	1.2479324E+003	8.0915329E+001	1.000000000000000E+000	11	4.5660674E-003	1.9647853E-004	0	-3.297466473990062E-005	4.1611739E-002	1.0957025E-002	4.3030143E-002	1.4752020E+001	8.0915336E+004	3.0729394E+005	3.1776856E+005	-7.5247978E+001	0.0000000E+000	0.0000000E+000	0.0000000E+000	7.5247978E+001	0.0000000E+000	0.0000000E+000	0.0000000E+000	-7.5247978E+001	0.0000000E+000	0.0000000E+000	0.0000000E+000	-1.4752020E+001	0.0000000E+000	0.0000000E+000	0.0000000E+000	1.4752020E+001	3.7977223E+000	7.5247978E+001	-2.580619092930911E-007	-1.9343699E-006	3.0753018E+004
1.4685154E+001	2.3831137E+001	4.9349341E+000	2.4336735E+001	-1.1699408E+001	1.341206295703887E+001	2.4390027E-001	-7.0984773E-003	2.1961411E+003	9.0302208E+001	1.000000000000000E+000	11	4.5640748E-003	1.8753851E-004	0	-3.390033714409583E-005	4.0236495E-002	8.3321435E-003	4.1090146E-002	1.1699408E+001	9.0302227E+004	4.3607559E+005	4.4532731E+005	-7.8300591E+001	0.0000000E+000	0.0000000E+000	0.0000000E+000	7.8300591E+001	0.0000000E+000	0.0000000E+000	0.0000000E+000	-7.8300591E+001	0.0000000E+000	0.0000000E+000	0.0000000E+000	-1.1699408E+001	0.0000000E+000	0.0000000E+000	0.0000000E+000	1.1699408E+001	4.8290687E+000	7.8300591E+001	-9.256724041952120E-007	-1.7313205E-006	3.4359520E+004
