EC-Lab ASCII FILE
Nb header lines : 63                          

Potentio Electrochemical Impedance Spectroscopy

Run on channel : 4 (SN 66756)
User : 
CE vs. WE compliance from -10 V to 10 V
Electrode connection : standard
Potential control : Ewe
Ewe ctrl range : min = -10.00 V, max = 10.00 V
Safety Limits :
	Do not start on E overload
Acquisition started on : 09/08/2025 17:24:12.772
Loaded Setting File :  C:\Users\Celltest\OneDrive - store-dot.com\Documents\EC-Lab\Data\Gyutae\R270\17155_C03.mpr
Saved on :
	File : 17419_C04.mpr
	Directory : C:\Users\Celltest\OneDrive - store-dot.com\Documents\EC-Lab\Data\Gyutae\R282\
	Host : 169.254.61.224
Device : VMP-3e (SN .003165)
Address : USB
EC-LAB for windows v11.62 (software)
Internet server v27.00 (firmware)
Command interpretor v12.03 (firmware)
Electrode material : 
Initial state : 
Electrolyte : 
Comments : 
Electrode surface area : 0.001 cm²
Characteristic mass : 0.001 g
Equivalent Weight : 0.000 g/eq.
Density : 0.000 g/cm3
Volume (V) : 0.001 cm³
Cycle Definition : Charge/Discharge alternance
Mode                Single sine         
E (V)               0.0000              
vs.                 Eoc                 
tE (h:m:s)          0:00:0.0000         
record              0                   
dI                  0.000               
unit dI             mA                  
dt (s)              0.000               
fi                  100.000             
unit fi             kHz                 
ff                  10.000              
unit ff             mHz                 
Nd                  6                   
Points              per decade          
spacing             Logarithmic         
Va (mV)             5.0                 
pw                  0.10                
Na                  2                   
corr                0                   
E range min (V)     -10.000             
E range max (V)     10.000              
I Range             Auto                
Bandwidth           5                   
nc cycles           0                   
goto Ns'            0                   
nr cycles           0                   
inc. cycle          0                   

freq/Hz	Re(Z)/Ohm	-Im(Z)/Ohm	|Z|/Ohm	Phase(Z)/deg	time/s	<Ewe>/V	<I>/mA	Cs/µF	Cp/µF	cycle number	I Range	|Ewe|/V	|I|/A	Ns	(Q-Qo)/mA.h	Re(Y)/Ohm-1	Im(Y)/Ohm-1	|Y|/Ohm-1	Phase(Y)/deg	Re(C)/nF	Im(C)/nF	|C|/nF	Phase(C)/deg	Re(M)	Im(M)	|M|	Phase(M)/deg	Re(Permittivity)	Im(Permittivity)	|Permittivity|	Phase(Permittivity)/deg	Re(Resistivity)/Ohm.cm	Im(Resistivity)/Ohm.cm	|Resistivity|/Ohm.cm	Phase(Resistivity)/deg	Re(Conductivity)/mS/cm	Im(Conductivity)/mS/cm	|Conductivity|/mS/cm	Phase(Conductivity)/deg	Tan(Delta)	Loss Angle(Delta)/deg	dq/mA.h	Pwe/W	Rwe/Ohm	
1.0000371E+005	1.8004507E+000	3.5509342E-001	1.8351332E+000	-1.1156957E+001	1.865498008584837E+000	2.8248179E-001	-9.1885857E-002	4.4818921E+000	1.6780753E-001	1.000000000000000E+000	9	4.5971479E-003	2.5050759E-003	0	-2.893192468771142E-005	5.3462100E-001	1.0544049E-001	5.4491955E-001	1.1156957E+001	1.6780757E+002	8.5084424E+002	8.6723425E+002	-7.8843040E+001	0.0000000E+000	0.0000000E+000	0.0000000E+000	7.8843040E+001	0.0000000E+000	0.0000000E+000	0.0000000E+000	-7.8843040E+001	0.0000000E+000	0.0000000E+000	0.0000000E+000	-1.1156957E+001	0.0000000E+000	0.0000000E+000	0.0000000E+000	1.1156957E+001	5.0703578E+000	7.8843040E+001	-2.893192468771142E-005	-2.5956082E-005	3.0742683E+003
6.8132047E+004	1.8843657E+000	4.0240574E-001	1.9268535E+000	-1.2054432E+001	2.443497022701195E+000	2.8251278E-001	-9.4683155E-002	5.8050303E+000	2.5318351E-001	1.000000000000000E+000	9	5.0744591E-003	2.6335469E-003	0	-4.108909150625631E-005	5.0753707E-001	1.0838439E-001	5.1898080E-001	1.2054432E+001	2.5318343E+002	1.1855952E+003	1.2123275E+003	-7.7945572E+001	0.0000000E+000	0.0000000E+000	0.0000000E+000	7.7945572E+001	0.0000000E+000	0.0000000E+000	0.0000000E+000	-7.7945572E+001	0.0000000E+000	0.0000000E+000	0.0000000E+000	-1.2054432E+001	0.0000000E+000	0.0000000E+000	0.0000000E+000	1.2054432E+001	4.6827507E+000	7.7945572E+001	-1.215716681854489E-005	-2.6749201E-005	2.9837703E+003
4.6420355E+004	1.9863021E+000	4.4172794E-001	2.0348268E+000	-1.2537808E+001	3.021498010173673E+000	2.8249034E-001	-9.2669092E-002	7.7616992E+000	3.6577302E-001	1.000000000000000E+000	9	5.1377695E-003	2.5249175E-003	0	-5.416622581563166E-005	4.7972289E-001	1.0668417E-001	4.9144232E-001	1.2537808E+001	3.6577307E+002	1.6447583E+003	1.6849391E+003	-7.7462189E+001	0.0000000E+000	0.0000000E+000	0.0000000E+000	7.7462189E+001	0.0000000E+000	0.0000000E+000	0.0000000E+000	-7.7462189E+001	0.0000000E+000	0.0000000E+000	0.0000000E+000	-1.2537808E+001	0.0000000E+000	0.0000000E+000	0.0000000E+000	1.2537808E+001	4.4966640E+000	7.7462189E+001	-1.307713430937535E-005	-2.6178124E-005	3.0483772E+003
3.1621139E+004	2.0930293E+000	5.1999253E-001	2.1566558E+000	-1.3952097E+001	3.599494757625507E+000	2.8249145E-001	-8.9349635E-002	9.6793356E+000	5.6270152E-001	1.000000000000000E+000	9	5.0596581E-003	2.3460665E-003	0	-7.103658391460259E-005	4.5000118E-001	1.1179836E-001	4.6368086E-001	1.3952097E+001	5.6270142E+002	2.2649377E+003	2.3337900E+003	-7.6047905E+001	0.0000000E+000	0.0000000E+000	0.0000000E+000	7.6047905E+001	0.0000000E+000	0.0000000E+000	0.0000000E+000	-7.6047905E+001	0.0000000E+000	0.0000000E+000	0.0000000E+000	-1.3952097E+001	0.0000000E+000	0.0000000E+000	0.0000000E+000	1.3952097E+001	4.0251141E+000	7.6047905E+001	-1.687035809897093E-005	-2.5240508E-005	3.1616406E+003
2.1544684E+004	2.2100811E+000	5.8835399E-001	2.2870545E+000	-1.4907188E+001	3.895487464993494E+000	2.8273782E-001	-8.6216666E-002	1.2555711E+001	8.3093238E-001	1.000000000000000E+000	9	4.9623274E-003	2.1697460E-003	0	-7.628377765790922E-005	4.2252767E-001	1.1248268E-001	4.3724361E-001	1.4907188E+001	8.3093237E+002	3.1212974E+003	3.2300071E+003	-7.5092812E+001	0.0000000E+000	0.0000000E+000	0.0000000E+000	7.5092812E+001	0.0000000E+000	0.0000000E+000	0.0000000E+000	-7.5092812E+001	0.0000000E+000	0.0000000E+000	0.0000000E+000	-1.4907188E+001	0.0000000E+000	0.0000000E+000	0.0000000E+000	1.4907188E+001	3.7563798E+000	7.5092812E+001	-5.247193743306635E-006	-2.4376712E-005	3.2793872E+003
1.4678594E+004	2.3475633E+000	6.6178763E-001	2.4390604E+000	-1.5743361E+001	4.332481219113106E+000	2.8249836E-001	-8.0976404E-002	1.6383890E+001	1.2061719E+000	1.000000000000000E+000	9	4.8532891E-003	1.9898191E-003	0	-8.625070060732671E-005	3.9461371E-001	1.1124321E-001	4.0999395E-001	1.5743361E+001	1.2061720E+003	4.2786606E+003	4.4454233E+003	-7.4256638E+001	0.0000000E+000	0.0000000E+000	0.0000000E+000	7.4256638E+001	0.0000000E+000	0.0000000E+000	0.0000000E+000	-7.4256638E+001	0.0000000E+000	0.0000000E+000	0.0000000E+000	-1.5743361E+001	0.0000000E+000	0.0000000E+000	0.0000000E+000	1.5743361E+001	3.5473061E+000	7.4256638E+001	-9.966922949417487E-006	-2.2875702E-005	3.4886504E+003
1.0002226E+004	2.4936945E+000	7.4816227E-001	2.6035089E+000	-1.6700380E+001	4.769498573179590E+000	2.8253895E-001	-8.5508026E-002	2.1268051E+001	1.7563099E+000	1.000000000000000E+000	9	5.0306842E-003	1.9322708E-003	0	-9.584478937623660E-005	3.6789602E-001	1.1037676E-001	3.8409701E-001	1.6700380E+001	1.7563096E+003	5.8539443E+003	6.1117334E+003	-7.3299622E+001	0.0000000E+000	0.0000000E+000	0.0000000E+000	7.3299622E+001	0.0000000E+000	0.0000000E+000	0.0000000E+000	-7.3299622E+001	0.0000000E+000	0.0000000E+000	0.0000000E+000	-1.6700380E+001	0.0000000E+000	0.0000000E+000	0.0000000E+000	1.6700380E+001	3.3330932E+000	7.3299622E+001	-9.594088768909896E-006	-2.4159348E-005	3.3042390E+003
6.8110674E+003	2.6617982E+000	8.7045997E-001	2.8005126E+000	-1.8108755E+001	5.147497257770738E+000	2.8239149E-001	-1.1333182E-001	2.6844549E+001	2.5934548E+000	1.000000000000000E+000	9	4.8246281E-003	1.7227661E-003	0	-1.059699376043088E-004	3.3939081E-001	1.1098742E-001	3.5707748E-001	1.8108755E+001	2.5934553E+003	7.9305815E+003	8.3438682E+003	-7.1891243E+001	0.0000000E+000	0.0000000E+000	0.0000000E+000	7.1891243E+001	0.0000000E+000	0.0000000E+000	0.0000000E+000	-7.1891243E+001	0.0000000E+000	0.0000000E+000	0.0000000E+000	-1.8108755E+001	0.0000000E+000	0.0000000E+000	0.0000000E+000	1.8108755E+001	3.0579214E+000	7.1891243E+001	-1.012514822807215E-005	-3.2003940E-005	2.4917229E+003
4.6414854E+003	2.8605099E+000	9.9054515E-001	3.0271597E+000	-1.9100086E+001	5.618712720228359E+000	2.8257716E-001	-3.4466691E-002	3.4616955E+001	3.7065234E+000	1.000000000000000E+000	9	4.7389078E-003	1.5654634E-003	0	-1.097364243141621E-004	3.1215677E-001	1.0809450E-001	3.3034265E-001	1.9100086E+001	3.7065225E+003	1.0703748E+004	1.1327336E+004	-7.0899918E+001	0.0000000E+000	0.0000000E+000	0.0000000E+000	7.0899918E+001	0.0000000E+000	0.0000000E+000	0.0000000E+000	-7.0899918E+001	0.0000000E+000	0.0000000E+000	0.0000000E+000	-1.9100086E+001	0.0000000E+000	0.0000000E+000	0.0000000E+000	1.9100086E+001	2.8878138E+000	7.0899918E+001	-3.766486709853373E-006	-9.7394995E-006	8.1985576E+003
3.1610117E+003	3.0925817E+000	1.1436925E+000	3.2972860E+000	-2.0295303E+001	6.085669995743956E+000	2.8258935E-001	-3.0233450E-002	4.4023518E+001	5.2965131E+000	1.000000000000000E+000	9	4.6905363E-003	1.4225446E-003	0	-1.148452112106703E-004	2.8445134E-001	1.0519523E-001	3.0327973E-001	2.0295303E+001	5.2965132E+003	1.4321943E+004	1.5269941E+004	-6.9704697E+001	0.0000000E+000	0.0000000E+000	0.0000000E+000	6.9704697E+001	0.0000000E+000	0.0000000E+000	0.0000000E+000	-6.9704697E+001	0.0000000E+000	0.0000000E+000	0.0000000E+000	-2.0295303E+001	0.0000000E+000	0.0000000E+000	0.0000000E+000	2.0295303E+001	2.7040327E+000	6.9704697E+001	-5.108786896508205E-006	-8.5436513E-006	9.3469102E+003
2.1556899E+003	3.3785241E+000	1.3118269E+000	3.6242676E+000	-2.1220396E+001	6.806684269991820E+000	2.8248829E-001	-5.5988446E-002	5.6280415E+001	7.3734350E+000	1.000000000000000E+000	10	4.7980598E-003	1.3238702E-003	0	-1.244167240707644E-004	2.5720921E-001	9.9870235E-002	2.7591783E-001	2.1220396E+001	7.3734355E+003	1.8989797E+004	2.0371057E+004	-6.8779602E+001	0.0000000E+000	0.0000000E+000	0.0000000E+000	6.8779602E+001	0.0000000E+000	0.0000000E+000	0.0000000E+000	-6.8779602E+001	0.0000000E+000	0.0000000E+000	0.0000000E+000	-2.1220396E+001	0.0000000E+000	0.0000000E+000	0.0000000E+000	2.1220396E+001	2.5754342E+000	6.8779602E+001	-9.571512860094027E-006	-1.5816080E-005	5.0454746E+003
1.4685898E+003	3.6943820E+000	1.4966499E+000	3.9860280E+000	-2.2053612E+001	7.273933758842759E+000	2.8251410E-001	-5.5852298E-002	7.2410149E+001	1.0208435E+001	1.000000000000000E+000	10	4.7495151E-003	1.1915409E-003	0	-1.324414320696144E-004	2.3252042E-001	9.4197527E-002	2.5087631E-001	2.2053612E+001	1.0208435E+004	2.5198852E+004	2.7188127E+004	-6.7946388E+001	0.0000000E+000	0.0000000E+000	0.0000000E+000	6.7946388E+001	0.0000000E+000	0.0000000E+000	0.0000000E+000	-6.7946388E+001	0.0000000E+000	0.0000000E+000	0.0000000E+000	-2.2053612E+001	0.0000000E+000	0.0000000E+000	0.0000000E+000	2.2053612E+001	2.4684343E+000	6.7946388E+001	-8.024707998850007E-006	-1.5779062E-005	5.0582358E+003
1.0003202E+003	4.0549221E+000	1.7158020E+000	4.4029956E+000	-2.2935192E+001	7.743670154493884E+000	2.8264922E-001	-5.7219401E-002	9.2728645E+001	1.4081592E+001	1.000000000000000E+000	10	4.7107027E-003	1.0698859E-003	0	-1.386883607224057E-004	2.0916356E-001	8.8505581E-002	2.2711810E-001	2.2935192E+001	1.4081595E+004	3.3278758E+004	3.6135398E+004	-6.7064804E+001	0.0000000E+000	0.0000000E+000	0.0000000E+000	6.7064804E+001	0.0000000E+000	0.0000000E+000	0.0000000E+000	-6.7064804E+001	0.0000000E+000	0.0000000E+000	0.0000000E+000	-2.2935192E+001	0.0000000E+000	0.0000000E+000	0.0000000E+000	2.2935192E+001	2.3632810E+000	6.7064804E+001	-6.246928652791310E-006	-1.6173019E-005	4.9397446E+003
6.8108978E+002	4.4779582E+000	1.9477185E+000	4.8832078E+000	-2.3506960E+001	8.209422496584011E+000	2.8251213E-001	-5.5121183E-002	1.1997468E+002	1.9086731E+001	1.000000000000000E+000	10	4.6848236E-003	9.5937424E-004	0	-1.453510904442131E-004	1.8778878E-001	8.1680015E-002	2.0478342E-001	2.3506960E+001	1.9086730E+004	4.3881902E+004	4.7853156E+004	-6.6493042E+001	0.0000000E+000	0.0000000E+000	0.0000000E+000	6.6493042E+001	0.0000000E+000	0.0000000E+000	0.0000000E+000	-6.6493042E+001	0.0000000E+000	0.0000000E+000	0.0000000E+000	-2.3506960E+001	0.0000000E+000	0.0000000E+000	0.0000000E+000	2.3506960E+001	2.2990787E+000	6.6493042E+001	-6.662729721807419E-006	-1.5572403E-005	5.1252915E+003
4.6396069E+002	4.9440827E+000	2.1949518E+000	5.4094148E+000	-2.3939083E+001	8.678191932180198E+000	2.8249997E-001	-5.4388210E-002	1.5628380E+002	2.5731396E+001	1.000000000000000E+000	10	4.6614562E-003	8.6173019E-004	0	-1.521264551554309E-004	1.6896050E-001	7.5010911E-002	1.8486288E-001	2.3939083E+001	2.5731402E+004	5.7959430E+004	6.3414512E+004	-6.6060913E+001	0.0000000E+000	0.0000000E+000	0.0000000E+000	6.6060913E+001	0.0000000E+000	0.0000000E+000	0.0000000E+000	-6.6060913E+001	0.0000000E+000	0.0000000E+000	0.0000000E+000	-2.3939083E+001	0.0000000E+000	0.0000000E+000	0.0000000E+000	2.3939083E+001	2.2524791E+000	6.6060913E+001	-6.775364711217758E-006	-1.5364667E-005	5.1941396E+003
3.1631589E+002	5.4749312E+000	2.4757071E+000	6.0086603E+000	-2.4331989E+001	9.144944541039877E+000	2.8252038E-001	-5.4936558E-002	2.0323564E+002	3.4501904E+001	1.000000000000000E+000	10	4.6479749E-003	7.7354594E-004	0	-1.584703468382876E-004	1.5164335E-001	6.8571553E-002	1.6642645E-001	2.4331989E+001	3.4501902E+004	7.6299648E+004	8.3737789E+004	-6.5668015E+001	0.0000000E+000	0.0000000E+000	0.0000000E+000	6.5668015E+001	0.0000000E+000	0.0000000E+000	0.0000000E+000	-6.5668015E+001	0.0000000E+000	0.0000000E+000	0.0000000E+000	-2.4331989E+001	0.0000000E+000	0.0000000E+000	0.0000000E+000	2.4331989E+001	2.2114618E+000	6.5668015E+001	-6.343891682856746E-006	-1.5520698E-005	5.1426665E+003
2.1534457E+002	6.0691161E+000	2.7910247E+000	6.6801190E+000	-2.4696442E+001	9.612410323199583E+000	2.8248703E-001	-5.4227822E-002	2.6480276E+002	4.6225487E+001	1.000000000000000E+000	10	4.6366784E-003	6.9410115E-004	0	-1.648126296893202E-004	1.3600568E-001	6.2545389E-002	1.4969793E-001	2.4696442E+001	4.6225488E+004	1.0051787E+005	1.1063741E+005	-6.5303558E+001	0.0000000E+000	0.0000000E+000	0.0000000E+000	6.5303558E+001	0.0000000E+000	0.0000000E+000	0.0000000E+000	-6.5303558E+001	0.0000000E+000	0.0000000E+000	0.0000000E+000	-2.4696442E+001	0.0000000E+000	0.0000000E+000	0.0000000E+000	2.4696442E+001	2.1745119E+000	6.5303558E+001	-6.342282851032609E-006	-1.5318656E-005	5.2092642E+003
1.4673740E+002	6.7641034E+000	3.1497362E+000	7.4614968E+000	-2.4969259E+001	1.007537690518075E+001	2.8248873E-001	-5.4792948E-002	3.4435400E+002	6.1362293E+001	1.000000000000000E+000	10	4.6372791E-003	6.2149449E-004	0	-1.720326597726024E-004	1.2149499E-001	5.6574702E-002	1.3402137E-001	2.4969259E+001	6.1362297E+004	1.3177641E+005	1.4536283E+005	-6.5030739E+001	0.0000000E+000	0.0000000E+000	0.0000000E+000	6.5030739E+001	0.0000000E+000	0.0000000E+000	0.0000000E+000	-6.5030739E+001	0.0000000E+000	0.0000000E+000	0.0000000E+000	-2.4969259E+001	0.0000000E+000	0.0000000E+000	0.0000000E+000	2.4969259E+001	2.1475143E+000	6.5030739E+001	-7.220030083282222E-006	-1.5478390E-005	5.1555674E+003
1.0003201E+002	7.5539117E+000	3.5551412E+000	8.3486891E+000	-2.5203356E+001	1.054171340739413E+001	2.8251171E-001	-5.3416513E-002	4.4753220E+002	8.1152412E+001	1.000000000000000E+000	10	4.6328353E-003	5.5491767E-004	0	-1.791369576605826E-004	1.0837655E-001	5.1005885E-002	1.1977928E-001	2.5203356E+001	8.1152406E+004	1.7243144E+005	1.9057364E+005	-6.4796646E+001	0.0000000E+000	0.0000000E+000	0.0000000E+000	6.4796646E+001	0.0000000E+000	0.0000000E+000	0.0000000E+000	-6.4796646E+001	0.0000000E+000	0.0000000E+000	0.0000000E+000	-2.5203356E+001	0.0000000E+000	0.0000000E+000	0.0000000E+000	2.5203356E+001	2.1247852E+000	6.4796646E+001	-7.104297887980144E-006	-1.5090791E-005	5.2888462E+003
6.8103981E+001	8.5121202E+000	3.9640083E+000	9.3898640E+000	-2.4970921E+001	1.102031348340097E+001	2.8250754E-001	-4.9436416E-002	5.8953973E+002	1.0506634E+002	1.000000000000000E+000	10	4.6300297E-003	4.9308804E-004	0	-1.858211751254243E-004	9.6542634E-002	4.4958930E-002	1.0649782E-001	2.4970921E+001	1.0506632E+005	2.2561438E+005	2.4887905E+005	-6.5029083E+001	0.0000000E+000	0.0000000E+000	0.0000000E+000	6.5029083E+001	0.0000000E+000	0.0000000E+000	0.0000000E+000	-6.5029083E+001	0.0000000E+000	0.0000000E+000	0.0000000E+000	-2.4970921E+001	0.0000000E+000	0.0000000E+000	0.0000000E+000	2.4970921E+001	2.1473517E+000	6.5029083E+001	-6.684217464841726E-006	-1.3966161E-005	5.7145635E+003
4.6441547E+001	9.6028891E+000	4.2851715E+000	1.0515615E+001	-2.4048231E+001	1.147552662502858E+001	2.8255957E-001	-5.6346569E-002	7.9973346E+002	1.3280434E+002	1.000000000000000E+000	10	4.6101450E-003	4.3840945E-004	0	-1.929866253426767E-004	8.6842537E-002	3.8752418E-002	9.5096670E-002	2.4048231E+001	1.3280434E+005	2.9760891E+005	3.2589578E+005	-6.5951767E+001	0.0000000E+000	0.0000000E+000	0.0000000E+000	6.5951767E+001	0.0000000E+000	0.0000000E+000	0.0000000E+000	-6.5951767E+001	0.0000000E+000	0.0000000E+000	0.0000000E+000	-2.4048231E+001	0.0000000E+000	0.0000000E+000	0.0000000E+000	2.4048231E+001	2.2409580E+000	6.5951767E+001	-7.165450217252426E-006	-1.5921263E-005	5.0146724E+003
3.1629555E+001	1.0986533E+001	4.5443387E+000	1.1889277E+001	-2.2471361E+001	1.192143885957194E+001	2.8251985E-001	-5.7521582E-002	1.1072772E+003	1.6176584E+002	1.000000000000000E+000	10	4.6500652E-003	3.9111418E-004	0	-1.997314141206743E-004	7.7723034E-002	3.2148428E-002	8.4109403E-002	2.2471361E+001	1.6176583E+005	3.9109009E+005	4.2322528E+005	-6.7528641E+001	0.0000000E+000	0.0000000E+000	0.0000000E+000	6.7528641E+001	0.0000000E+000	0.0000000E+000	0.0000000E+000	-6.7528641E+001	0.0000000E+000	0.0000000E+000	0.0000000E+000	-2.2471361E+001	0.0000000E+000	0.0000000E+000	0.0000000E+000	2.2471361E+001	2.4176307E+000	6.7528641E+001	-6.744788777997523E-006	-1.6250988E-005	4.9115454E+003
2.1551722E+001	1.2378879E+001	4.4721394E+000	1.3161940E+001	-1.9863358E+001	1.236036501373746E+001	2.8255188E-001	-5.9550792E-002	1.6512880E+003	1.9063985E+002	1.000000000000000E+000	10	4.6605407E-003	3.5409225E-004	0	-2.076567963097267E-004	7.1456462E-002	2.5815204E-002	7.5976647E-002	1.9863358E+001	1.9063984E+005	5.2769094E+005	5.6107156E+005	-7.0136642E+001	0.0000000E+000	0.0000000E+000	0.0000000E+000	7.0136642E+001	0.0000000E+000	0.0000000E+000	0.0000000E+000	-7.0136642E+001	0.0000000E+000	0.0000000E+000	0.0000000E+000	-1.9863358E+001	0.0000000E+000	0.0000000E+000	0.0000000E+000	1.9863358E+001	2.7679994E+000	7.0136642E+001	-7.925382189052449E-006	-1.6826189E-005	4.7447207E+003
1.4685154E+001	1.3511249E+001	4.2774940E+000	1.4172184E+001	-1.7567142E+001	1.309802982211113E+001	2.8256044E-001	-4.4157941E-002	2.5336826E+003	2.3081151E+002	1.000000000000000E+000	11	4.6023508E-003	3.2474534E-004	0	-2.166403769302043E-004	6.7270078E-002	2.1296874E-002	7.0560753E-002	1.7567142E+001	2.3081148E+005	7.2906050E+005	7.6472425E+005	-7.2432861E+001	0.0000000E+000	0.0000000E+000	0.0000000E+000	7.2432861E+001	0.0000000E+000	0.0000000E+000	0.0000000E+000	-7.2432861E+001	0.0000000E+000	0.0000000E+000	0.0000000E+000	-1.7567142E+001	0.0000000E+000	0.0000000E+000	0.0000000E+000	1.7567142E+001	3.1586833E+000	7.2432861E+001	-8.983580620477592E-006	-1.2477287E-005	6.3988589E+003
