
EC-Lab ASCII FILE
Nb header lines : 63                          

Potentio Electrochemical Impedance Spectroscopy

Run on channel : 2 (SN 66139)
User : 
CE vs. WE compliance from -10 V to 10 V
Electrode connection : standard
Potential control : Ewe
Ewe ctrl range : min = -10.00 V, max = 10.00 V
Safety Limits :
	Do not start on E overload
Acquisition started on : 09/08/2025 17:23:55.952
Loaded Setting File :  C:\Users\Celltest\OneDrive - store-dot.com\Documents\EC-Lab\Data\Gyutae\R270\17153_C01.mpr
Saved on :
	File : 17417_C02.mpr
	Directory : C:\Users\Celltest\OneDrive - store-dot.com\Documents\EC-Lab\Data\Gyutae\R282\
	Host : 169.254.61.224
Device : VMP-3e (SN .003165)
Address : USB
EC-LAB for windows v11.62 (software)
Internet server v27.00 (firmware)
Command interpretor v12.03 (firmware)
Electrode material : 
Initial state : 
Electrolyte : 
Comments : 
Electrode surface area : 0.001 cm²
Characteristic mass : 0.001 g
Equivalent Weight : 0.000 g/eq.
Density : 0.000 g/cm3
Volume (V) : 0.001 cm³
Cycle Definition : Charge/Discharge alternance
Mode                Single sine         
E (V)               0.0000              
vs.                 Eoc                 
tE (h:m:s)          0:00:0.0000         
record              0                   
dI                  0.000               
unit dI             mA                  
dt (s)              0.000               
fi                  100.000             
unit fi             kHz                 
ff                  10.000              
unit ff             mHz                 
Nd                  6                   
Points              per decade          
spacing             Logarithmic         
Va (mV)             5.0                 
pw                  0.10                
Na                  2                   
corr                0                   
E range min (V)     -10.000             
E range max (V)     10.000              
I Range             Auto                
Bandwidth           5                   
nc cycles           0                   
goto Ns'            0                   
nr cycles           0                   
inc. cycle          0                   

freq/Hz	Re(Z)/Ohm	-Im(Z)/Ohm	|Z|/Ohm	Phase(Z)/deg	time/s	<Ewe>/V	<I>/mA	Cs/µF	Cp/µF	cycle number	I Range	|Ewe|/V	|I|/A	Ns	(Q-Qo)/mA.h	Re(Y)/Ohm-1	Im(Y)/Ohm-1	|Y|/Ohm-1	Phase(Y)/deg	Re(C)/nF	Im(C)/nF	|C|/nF	Phase(C)/deg	Re(M)	Im(M)	|M|	Phase(M)/deg	Re(Permittivity)	Im(Permittivity)	|Permittivity|	Phase(Permittivity)/deg	Re(Resistivity)/Ohm.cm	Im(Resistivity)/Ohm.cm	|Resistivity|/Ohm.cm	Phase(Resistivity)/deg	Re(Conductivity)/mS/cm	Im(Conductivity)/mS/cm	|Conductivity|/mS/cm	Phase(Conductivity)/deg	Tan(Delta)	Loss Angle(Delta)/deg	dq/mA.h	Pwe/W	Rwe/Ohm	
1.0000371E+005	1.2334048E+000	2.1746163E-001	1.2524284E+000	-9.9990578E+000	2.025491136155324E+000	2.7406621E-001	-9.6608896E-004	7.3184876E+000	2.2063826E-001	1.000000000000000E+000	9	4.8307674E-003	3.8571204E-003	0	-1.427606054266087E-005	7.8632087E-001	1.3863625E-001	7.9844880E-001	9.9990578E+000	2.2063818E+002	1.2514221E+003	1.2707236E+003	-8.0000946E+001	0.0000000E+000	0.0000000E+000	0.0000000E+000	8.0000946E+001	0.0000000E+000	0.0000000E+000	0.0000000E+000	-8.0000946E+001	0.0000000E+000	0.0000000E+000	0.0000000E+000	-9.9990578E+000	0.0000000E+000	0.0000000E+000	0.0000000E+000	9.9990578E+000	5.6718268E+000	8.0000946E+001	-1.427606054266087E-005	-2.6477235E-007	2.8368631E+005
6.8132047E+004	1.2892871E+000	2.5907937E-001	1.3150601E+000	-1.1362138E+001	2.463478890334954E+000	2.7406147E-001	-2.4559086E-003	9.0164557E+000	3.4995347E-001	1.000000000000000E+000	9	5.4874509E-003	4.1727754E-003	0	-1.165115920218846E-005	7.4551845E-001	1.4981027E-001	7.6042151E-001	1.1362138E+001	3.4995343E+002	1.7415145E+003	1.7763278E+003	-7.8637863E+001	0.0000000E+000	0.0000000E+000	0.0000000E+000	7.8637863E+001	0.0000000E+000	0.0000000E+000	0.0000000E+000	-7.8637863E+001	0.0000000E+000	0.0000000E+000	0.0000000E+000	-1.1362138E+001	0.0000000E+000	0.0000000E+000	0.0000000E+000	1.1362138E+001	4.9764175E+000	7.8637863E+001	2.624901340472408E-006	-6.7306991E-007	1.1159270E+005
4.6420355E+004	1.3485786E+000	3.0108550E-001	1.3817803E+000	-1.2585532E+001	3.041482864442514E+000	2.7404884E-001	-1.9903495E-003	1.1387328E+001	5.4065913E-001	1.000000000000000E+000	9	5.1076822E-003	3.6964503E-003	0	-1.041098256129771E-005	7.0631474E-001	1.5769280E-001	7.2370404E-001	1.2585532E+001	5.4065912E+002	2.4216421E+003	2.4812622E+003	-7.7414467E+001	0.0000000E+000	0.0000000E+000	0.0000000E+000	7.7414467E+001	0.0000000E+000	0.0000000E+000	0.0000000E+000	-7.7414467E+001	0.0000000E+000	0.0000000E+000	0.0000000E+000	-1.2585532E+001	0.0000000E+000	0.0000000E+000	0.0000000E+000	1.2585532E+001	4.4790549E+000	7.7414467E+001	1.240176640890747E-006	-5.4545296E-007	1.3768880E+005
3.1621139E+004	1.4185714E+000	3.4510866E-001	1.4599468E+000	-1.3673243E+001	3.478478245175211E+000	2.7404925E-001	-1.5620220E-003	1.4584340E+001	8.1493777E-001	1.000000000000000E+000	9	5.4683913E-003	3.7456101E-003	0	-4.863397898255951E-006	6.6554457E-001	1.6191304E-001	6.8495649E-001	1.3673243E+001	8.1493762E+002	3.3498069E+003	3.4475105E+003	-7.6326759E+001	0.0000000E+000	0.0000000E+000	0.0000000E+000	7.6326759E+001	0.0000000E+000	0.0000000E+000	0.0000000E+000	-7.6326759E+001	0.0000000E+000	0.0000000E+000	0.0000000E+000	-1.3673243E+001	0.0000000E+000	0.0000000E+000	0.0000000E+000	1.3673243E+001	4.1105065E+000	7.6326759E+001	5.547584663041763E-006	-4.2807096E-007	1.7544519E+005
2.1544684E+004	1.4996172E+000	3.9202273E-001	1.5500108E+000	-1.4650141E+001	4.056493579322705E+000	2.7404633E-001	1.3617787E-003	1.8843813E+001	1.2053740E+000	1.000000000000000E+000	9	5.0818333E-003	3.2785793E-003	0	-6.441055703804724E-006	6.2418157E-001	1.6317056E-001	6.4515680E-001	1.4650141E+001	1.2053739E+003	4.6109561E+003	4.7659043E+003	-7.5349861E+001	0.0000000E+000	0.0000000E+000	0.0000000E+000	7.5349861E+001	0.0000000E+000	0.0000000E+000	0.0000000E+000	-7.5349861E+001	0.0000000E+000	0.0000000E+000	0.0000000E+000	-1.4650141E+001	0.0000000E+000	0.0000000E+000	0.0000000E+000	1.4650141E+001	3.8253324E+000	7.5349861E+001	-1.577657805548773E-006	3.7319046E-007	2.0124145E+005
1.4678594E+004	1.5883908E+000	4.5033589E-001	1.6509960E+000	-1.5828938E+001	4.494484160124557E+000	2.7404693E-001	9.3345053E-004	2.4076818E+001	1.7913489E+000	1.000000000000000E+000	9	5.4611531E-003	3.3077931E-003	0	-2.128991338075139E-006	5.8272725E-001	1.6521312E-001	6.0569501E-001	1.5828938E+001	1.7913486E+003	6.3183115E+003	6.5673428E+003	-7.4171066E+001	0.0000000E+000	0.0000000E+000	0.0000000E+000	7.4171066E+001	0.0000000E+000	0.0000000E+000	0.0000000E+000	-7.4171066E+001	0.0000000E+000	0.0000000E+000	0.0000000E+000	-1.5828938E+001	0.0000000E+000	0.0000000E+000	0.0000000E+000	1.5828938E+001	3.5271246E+000	7.4171066E+001	4.312064365729586E-006	2.5580925E-007	2.9358484E+005
1.0002226E+004	1.6970781E+000	5.1370662E-001	1.7731240E+000	-1.6841097E+001	5.072477947542211E+000	2.7403677E-001	-3.2194685E-003	3.0974787E+001	2.5999229E+000	1.000000000000000E+000	9	5.0732051E-003	2.8611678E-003	0	-7.264634613697935E-006	5.3978848E-001	1.6339432E-001	5.6397635E-001	1.6841097E+001	2.5999224E+003	8.5890889E+003	8.9739648E+003	-7.3158905E+001	0.0000000E+000	0.0000000E+000	0.0000000E+000	7.3158905E+001	0.0000000E+000	0.0000000E+000	0.0000000E+000	-7.3158905E+001	0.0000000E+000	0.0000000E+000	0.0000000E+000	-1.6841097E+001	0.0000000E+000	0.0000000E+000	0.0000000E+000	1.6841097E+001	3.3035939E+000	7.3158905E+001	-5.135643275622796E-006	-8.8225272E-007	8.5118633E+004
6.8110674E+003	1.8123860E+000	5.8420819E-001	1.9042170E+000	-1.7866312E+001	5.627513013925636E+000	2.7403718E-001	-6.9999294E-003	3.9997910E+001	3.7647810E+000	1.000000000000000E+000	9	5.3737476E-003	2.8220247E-003	0	-3.528262880113390E-006	4.9982485E-001	1.6111454E-001	5.2515024E-001	1.7866312E+001	3.7647805E+003	1.1679461E+004	1.2271242E+004	-7.2133690E+001	0.0000000E+000	0.0000000E+000	0.0000000E+000	7.2133690E+001	0.0000000E+000	0.0000000E+000	0.0000000E+000	-7.2133690E+001	0.0000000E+000	0.0000000E+000	0.0000000E+000	-1.7866312E+001	0.0000000E+000	0.0000000E+000	0.0000000E+000	1.7866312E+001	3.1022949E+000	7.2133690E+001	3.736371733584545E-006	-1.9182410E-006	3.9148563E+004
4.6414854E+003	1.9523591E+000	6.7218363E-001	2.0648334E+000	-1.8998228E+001	6.321710433621774E+000	2.7404290E-001	-5.0259065E-003	5.1012337E+001	5.4060621E+000	1.000000000000000E+000	9	5.3207707E-003	2.5768522E-003	0	-9.006081049563364E-006	4.5792007E-001	1.5765868E-001	4.8430058E-001	1.8998228E+001	5.4060625E+003	1.5701921E+004	1.6606500E+004	-7.1001770E+001	0.0000000E+000	0.0000000E+000	0.0000000E+000	7.1001770E+001	0.0000000E+000	0.0000000E+000	0.0000000E+000	-7.1001770E+001	0.0000000E+000	0.0000000E+000	0.0000000E+000	-1.8998228E+001	0.0000000E+000	0.0000000E+000	0.0000000E+000	1.8998228E+001	2.9045026E+000	7.1001770E+001	-5.477818169449974E-006	-1.3773140E-006	5.4526066E+004
3.1610117E+003	2.1126046E+000	7.7343893E-001	2.2497346E+000	-2.0108023E+001	7.011698146394338E+000	2.7404356E-001	-1.1150956E-003	6.5098053E+001	7.6940932E+000	1.000000000000000E+000	9	5.1934631E-003	2.3084781E-003	0	-7.187107736400018E-006	4.1740307E-001	1.5281411E-001	4.4449687E-001	2.0108023E+001	7.6940942E+003	2.1015980E+004	2.2380137E+004	-6.9891975E+001	0.0000000E+000	0.0000000E+000	0.0000000E+000	6.9891975E+001	0.0000000E+000	0.0000000E+000	0.0000000E+000	-6.9891975E+001	0.0000000E+000	0.0000000E+000	0.0000000E+000	-2.0108023E+001	0.0000000E+000	0.0000000E+000	0.0000000E+000	2.0108023E+001	2.7314434E+000	6.9891975E+001	1.818973313163345E-006	-3.0558476E-007	2.4575791E+005
2.1556899E+003	2.2842052E+000	8.7961721E-001	2.4477172E+000	-2.1061037E+001	7.701688099165040E+000	2.7404091E-001	1.5107244E-003	8.3934418E+001	1.0839396E+001	1.000000000000000E+000	9	5.0577219E-003	2.0663016E-003	0	-8.497156629985612E-006	3.8125244E-001	1.4681529E-001	4.0854394E-001	2.1061037E+001	1.0839396E+004	2.8147930E+004	3.0162865E+004	-6.8938965E+001	0.0000000E+000	0.0000000E+000	0.0000000E+000	6.8938965E+001	0.0000000E+000	0.0000000E+000	0.0000000E+000	-6.8938965E+001	0.0000000E+000	0.0000000E+000	0.0000000E+000	-2.1061037E+001	0.0000000E+000	0.0000000E+000	0.0000000E+000	2.1061037E+001	2.5968173E+000	6.8938965E+001	-1.310048893585593E-006	4.1400028E-007	1.8139702E+005
1.4685898E+003	2.5056229E+000	1.0014695E+000	2.6983490E+000	-2.1786039E+001	8.168925081350608E+000	2.7403957E-001	-3.1636413E-003	1.0821362E+002	1.4906000E+001	1.000000000000000E+000	9	5.0939536E-003	1.8878038E-003	0	-1.000389431477783E-005	3.4412757E-001	1.3754395E-001	3.7059698E-001	2.1786039E+001	1.4906001E+004	3.7294012E+004	4.0162570E+004	-6.8213959E+001	0.0000000E+000	0.0000000E+000	0.0000000E+000	6.8213959E+001	0.0000000E+000	0.0000000E+000	0.0000000E+000	-6.8213959E+001	0.0000000E+000	0.0000000E+000	0.0000000E+000	-2.1786039E+001	0.0000000E+000	0.0000000E+000	0.0000000E+000	2.1786039E+001	2.5019462E+000	6.8213959E+001	-1.506737684792219E-006	-8.6696292E-007	8.6621563E+004
1.0003202E+003	2.7285578E+000	1.1480584E+000	2.9602475E+000	-2.2819241E+001	8.637707156958641E+000	2.7404091E-001	-2.5863298E-003	1.3858528E+002	2.0844381E+001	1.000000000000000E+000	9	5.0325887E-003	1.7000567E-003	0	-1.005879296092058E-005	3.1137022E-001	1.3101105E-001	3.3780959E-001	2.2819241E+001	2.0844387E+004	4.9540250E+004	5.3746859E+004	-6.7180756E+001	0.0000000E+000	0.0000000E+000	0.0000000E+000	6.7180756E+001	0.0000000E+000	0.0000000E+000	0.0000000E+000	-6.7180756E+001	0.0000000E+000	0.0000000E+000	0.0000000E+000	-2.2819241E+001	0.0000000E+000	0.0000000E+000	0.0000000E+000	2.2819241E+001	2.3766716E+000	6.7180756E+001	-5.489864614274756E-008	-7.0876018E-007	1.0595745E+005
6.8108978E+002	2.9941161E+000	1.3033440E+000	3.2654917E+000	-2.3523579E+001	9.357443377753953E+000	2.7404150E-001	-2.6180573E-002	1.7929027E+002	2.8561281E+001	1.000000000000000E+000	10	5.0117001E-003	1.5347459E-003	0	-1.461413319800825E-005	2.8078341E-001	1.2222552E-001	3.0623260E-001	2.3523579E+001	2.8561273E+004	6.5612594E+004	7.1559477E+004	-6.6476425E+001	0.0000000E+000	0.0000000E+000	0.0000000E+000	6.6476425E+001	0.0000000E+000	0.0000000E+000	0.0000000E+000	-6.6476425E+001	0.0000000E+000	0.0000000E+000	0.0000000E+000	-2.3523579E+001	0.0000000E+000	0.0000000E+000	0.0000000E+000	2.3523579E+001	2.2972569E+000	6.6476425E+001	-4.555340237087673E-006	-7.1745635E-006	1.0467361E+004
4.6396069E+002	3.2950714E+000	1.4980991E+000	3.6196404E+000	-2.4448845E+001	9.826213533378905E+000	2.7404720E-001	-2.5869519E-002	2.2898044E+002	3.9223705E+001	1.000000000000000E+000	10	4.9451459E-003	1.3661982E-003	0	-1.740564642503159E-005	2.5149769E-001	1.1434302E-001	2.7627054E-001	2.4448845E+001	3.9223707E+004	8.6272609E+004	9.4770578E+004	-6.5551155E+001	0.0000000E+000	0.0000000E+000	0.0000000E+000	6.5551155E+001	0.0000000E+000	0.0000000E+000	0.0000000E+000	-6.5551155E+001	0.0000000E+000	0.0000000E+000	0.0000000E+000	-2.4448845E+001	0.0000000E+000	0.0000000E+000	0.0000000E+000	2.4448845E+001	2.1995015E+000	6.5551155E+001	-2.791513227023342E-006	-7.0894689E-006	1.0593440E+004
3.1631589E+002	3.6417441E+000	1.7319918E+000	4.0326290E+000	-2.5435480E+001	1.029291446221760E+001	2.7404344E-001	-2.6052060E-002	2.9050479E+002	5.3588108E+001	1.000000000000000E+000	10	4.8915371E-003	1.2129896E-003	0	-1.986184755856327E-005	2.2394063E-001	1.0650482E-001	2.4797718E-001	2.5435480E+001	5.3588105E+004	1.1267616E+005	1.2477020E+005	-6.4564522E+001	0.0000000E+000	0.0000000E+000	0.0000000E+000	6.4564522E+001	0.0000000E+000	0.0000000E+000	0.0000000E+000	-6.4564522E+001	0.0000000E+000	0.0000000E+000	0.0000000E+000	-2.5435480E+001	0.0000000E+000	0.0000000E+000	0.0000000E+000	2.5435480E+001	2.1026337E+000	6.4564522E+001	-2.456201133531672E-006	-7.1393961E-006	1.0519070E+004
2.1534457E+002	4.0553904E+000	2.0097947E+000	4.5260873E+000	-2.6362371E+001	1.076043376440066E+001	2.7404407E-001	-2.5854621E-002	3.6773462E+002	7.2509026E+001	1.000000000000000E+000	10	4.8508807E-003	1.0717603E-003	0	-2.298650457304514E-005	1.9796427E-001	9.8108321E-002	2.2094138E-001	2.6362371E+001	7.2509023E+004	1.4630966E+005	1.6329138E+005	-6.3637627E+001	0.0000000E+000	0.0000000E+000	0.0000000E+000	6.3637627E+001	0.0000000E+000	0.0000000E+000	0.0000000E+000	-6.3637627E+001	0.0000000E+000	0.0000000E+000	0.0000000E+000	-2.6362371E+001	0.0000000E+000	0.0000000E+000	0.0000000E+000	2.6362371E+001	2.0178132E+000	6.3637627E+001	-3.124657014481878E-006	-7.0853057E-006	1.0599423E+004
1.4673740E+002	4.5711017E+000	2.3240154E+000	5.1279645E+000	-2.6949453E+001	1.122336157303653E+001	2.7404574E-001	-2.5329372E-002	4.6670270E+002	9.5857986E+001	1.000000000000000E+000	10	4.8325672E-003	9.4239478E-004	0	-2.651109218911248E-005	1.7383246E-001	8.8378981E-002	1.9500916E-001	2.6949453E+001	9.5858000E+004	1.8854292E+005	2.1151167E+005	-6.3050545E+001	0.0000000E+000	0.0000000E+000	0.0000000E+000	6.3050545E+001	0.0000000E+000	0.0000000E+000	0.0000000E+000	-6.3050545E+001	0.0000000E+000	0.0000000E+000	0.0000000E+000	-2.6949453E+001	0.0000000E+000	0.0000000E+000	0.0000000E+000	2.6949453E+001	1.9668982E+000	6.3050545E+001	-3.524587616067342E-006	-6.9414064E-006	1.0819287E+004
1.0003201E+002	5.1950946E+000	2.6431885E+000	5.8288465E+000	-2.6966330E+001	1.169169474201772E+001	2.7405047E-001	-2.4684913E-002	6.0193976E+002	1.2377817E+002	1.000000000000000E+000	10	4.8114909E-003	8.2546193E-004	0	-3.020999097993546E-005	1.5290730E-001	7.7797003E-002	1.7156053E-001	2.6966330E+001	1.2377816E+005	2.4328164E+005	2.7295969E+005	-6.3033669E+001	0.0000000E+000	0.0000000E+000	0.0000000E+000	6.3033669E+001	0.0000000E+000	0.0000000E+000	0.0000000E+000	-6.3033669E+001	0.0000000E+000	0.0000000E+000	0.0000000E+000	-2.6966330E+001	0.0000000E+000	0.0000000E+000	0.0000000E+000	2.6966330E+001	1.9654651E+000	6.3033669E+001	-3.698898790822971E-006	-6.7649121E-006	1.1101941E+004
6.8103981E+001	5.9591355E+000	2.9297736E+000	6.6403966E+000	-2.6180763E+001	1.217035065803793E+001	2.7405632E-001	-2.3971539E-002	7.9765216E+002	1.5527217E+002	1.000000000000000E+000	10	4.8024710E-003	7.2322052E-004	0	-3.375241212511901E-005	1.3514352E-001	6.6442505E-002	1.5059341E-001	2.6180763E+001	1.5527216E+005	3.1582231E+005	3.5192781E+005	-6.3819237E+001	0.0000000E+000	0.0000000E+000	0.0000000E+000	6.3819237E+001	0.0000000E+000	0.0000000E+000	0.0000000E+000	-6.3819237E+001	0.0000000E+000	0.0000000E+000	0.0000000E+000	-2.6180763E+001	0.0000000E+000	0.0000000E+000	0.0000000E+000	2.6180763E+001	2.0339918E+000	6.3819237E+001	-3.542421145183554E-006	-6.5695517E-006	1.1432570E+004
4.6441547E+001	6.8451200E+000	3.1402707E+000	7.5310669E+000	-2.4643787E+001	1.262556081297225E+001	2.7404386E-001	-2.5932867E-002	1.0913055E+003	1.8974377E+002	1.000000000000000E+000	10	4.7977320E-003	6.3705875E-004	0	-3.745446046204112E-005	1.2068910E-001	5.5367392E-002	1.3278331E-001	2.4643787E+001	1.8974373E+005	4.1360091E+005	4.5504769E+005	-6.5356216E+001	0.0000000E+000	0.0000000E+000	0.0000000E+000	6.5356216E+001	0.0000000E+000	0.0000000E+000	0.0000000E+000	-6.5356216E+001	0.0000000E+000	0.0000000E+000	0.0000000E+000	-2.4643787E+001	0.0000000E+000	0.0000000E+000	0.0000000E+000	2.4643787E+001	2.1797867E+000	6.5356216E+001	-3.702048336922111E-006	-7.1067429E-006	1.0567434E+004
3.1629555E+001	7.7774701E+000	3.1937916E+000	8.4076958E+000	-2.2325336E+001	1.307244555422221E+001	2.7403632E-001	-2.6527038E-002	1.5755074E+003	2.2734198E+002	1.000000000000000E+000	10	4.7947448E-003	5.7028048E-004	0	-4.034734327631304E-005	1.1002323E-001	4.5180663E-002	1.1893865E-001	2.2325336E+001	2.2734194E+005	5.5361956E+005	5.9848056E+005	-6.7674667E+001	0.0000000E+000	0.0000000E+000	0.0000000E+000	6.7674667E+001	0.0000000E+000	0.0000000E+000	0.0000000E+000	-6.7674667E+001	0.0000000E+000	0.0000000E+000	0.0000000E+000	-2.2325336E+001	0.0000000E+000	0.0000000E+000	0.0000000E+000	2.2325336E+001	2.4351840E+000	6.7674667E+001	-2.892882814271920E-006	-7.2693720E-006	1.0330453E+004
2.1551722E+001	8.7128811E+000	3.1153543E+000	9.2530928E+000	-1.9674883E+001	1.351133237508475E+001	2.7403519E-001	-2.7074650E-002	2.3704495E+003	2.6870251E+002	1.000000000000000E+000	10	4.7954000E-003	5.1824836E-004	0	-4.483386920112288E-005	1.0176254E-001	3.6385942E-002	1.0807198E-001	1.9674883E+001	2.6870253E+005	7.5149506E+005	7.9808888E+005	-7.0325119E+001	0.0000000E+000	0.0000000E+000	0.0000000E+000	7.0325119E+001	0.0000000E+000	0.0000000E+000	0.0000000E+000	-7.0325119E+001	0.0000000E+000	0.0000000E+000	0.0000000E+000	-1.9674883E+001	0.0000000E+000	0.0000000E+000	0.0000000E+000	1.9674883E+001	2.7967544E+000	7.0325119E+001	-4.486525924809837E-006	-7.4194068E-006	1.0121468E+004
1.4685154E+001	9.5137291E+000	2.9189858E+000	9.9514580E+000	-1.7056971E+001	1.399004298448563E+001	2.7404708E-001	-2.3911940E-002	3.7128689E+003	3.1944800E+002	1.000000000000000E+000	10	4.7855182E-003	4.8088611E-004	0	-4.837048703220919E-005	9.6067689E-002	2.9475324E-002	1.0048779E-001	1.7056971E+001	3.1944797E+005	1.0411636E+006	1.0890678E+006	-7.2943031E+001	0.0000000E+000	0.0000000E+000	0.0000000E+000	7.2943031E+001	0.0000000E+000	0.0000000E+000	0.0000000E+000	-7.2943031E+001	0.0000000E+000	0.0000000E+000	0.0000000E+000	-1.7056971E+001	0.0000000E+000	0.0000000E+000	0.0000000E+000	1.7056971E+001	3.2592583E+000	7.2943031E+001	-3.536617831086308E-006	-6.5529971E-006	1.1460680E+004
