EC-Lab ASCII FILE
Nb header lines : 63                          

Potentio Electrochemical Impedance Spectroscopy

Run on channel : 1 (SN 66354)
User : 
CE vs. WE compliance from -10 V to 10 V
Electrode connection : standard
Potential control : Ewe
Ewe ctrl range : min = -10.00 V, max = 10.00 V
Safety Limits :
	Do not start on E overload
Acquisition started on : 09/08/2025 17:23:47.822
Loaded Setting File :  C:\Users\Celltest\OneDrive - store-dot.com\Documents\EC-Lab\Data\Gyutae\EIS_SOC0_C01.mpr
Saved on :
	File : 17416_C01.mpr
	Directory : C:\Users\Celltest\OneDrive - store-dot.com\Documents\EC-Lab\Data\Gyutae\R282\
	Host : 169.254.61.224
Device : VMP-3e (SN .003165)
Address : USB
EC-LAB for windows v11.62 (software)
Internet server v27.00 (firmware)
Command interpretor v12.03 (firmware)
Electrode material : 
Initial state : 
Electrolyte : 
Comments : 
Electrode surface area : 0.001 cm²
Characteristic mass : 0.001 g
Equivalent Weight : 0.000 g/eq.
Density : 0.000 g/cm3
Volume (V) : 0.001 cm³
Cycle Definition : Charge/Discharge alternance
Mode                Single sine         
E (V)               0.0000              
vs.                 Eoc                 
tE (h:m:s)          0:00:0.0000         
record              0                   
dI                  0.000               
unit dI             mA                  
dt (s)              0.000               
fi                  100.000             
unit fi             kHz                 
ff                  10.000              
unit ff             mHz                 
Nd                  6                   
Points              per decade          
spacing             Logarithmic         
Va (mV)             5.0                 
pw                  0.10                
Na                  2                   
corr                0                   
E range min (V)     -10.000             
E range max (V)     10.000              
I Range             Auto                
Bandwidth           5                   
nc cycles           0                   
goto Ns'            0                   
nr cycles           0                   
inc. cycle          0                   

freq/Hz	Re(Z)/Ohm	-Im(Z)/Ohm	|Z|/Ohm	Phase(Z)/deg	time/s	<Ewe>/V	<I>/mA	Cs/µF	Cp/µF	cycle number	I Range	|Ewe|/V	|I|/A	Ns	(Q-Qo)/mA.h	Re(Y)/Ohm-1	Im(Y)/Ohm-1	|Y|/Ohm-1	Phase(Y)/deg	Re(C)/nF	Im(C)/nF	|C|/nF	Phase(C)/deg	Re(M)	Im(M)	|M|	Phase(M)/deg	Re(Permittivity)	Im(Permittivity)	|Permittivity|	Phase(Permittivity)/deg	Re(Resistivity)/Ohm.cm	Im(Resistivity)/Ohm.cm	|Resistivity|/Ohm.cm	Phase(Resistivity)/deg	Re(Conductivity)/mS/cm	Im(Conductivity)/mS/cm	|Conductivity|/mS/cm	Phase(Conductivity)/deg	Tan(Delta)	Loss Angle(Delta)/deg	dq/mA.h	Pwe/W	Rwe/Ohm	
1.0000371E+005	1.2706468E+000	3.5256577E-001	1.3186531E+000	-1.5507712E+001	2.025487536186120E+000	2.7102530E-001	5.2654460E-002	4.5140238E+000	3.2268813E-001	1.000000000000000E+000	9	4.9420772E-003	3.7478220E-003	0	6.140905697273815E-006	7.3074144E-001	2.0275846E-001	7.5834954E-001	1.5507712E+001	3.2268817E+002	1.1629679E+003	1.2069060E+003	-7.4492287E+001	0.0000000E+000	0.0000000E+000	0.0000000E+000	7.4492287E+001	0.0000000E+000	0.0000000E+000	0.0000000E+000	-7.4492287E+001	0.0000000E+000	0.0000000E+000	0.0000000E+000	-1.5507712E+001	0.0000000E+000	0.0000000E+000	0.0000000E+000	1.5507712E+001	3.6039994E+000	7.4492287E+001	6.140905697273815E-006	1.4270691E-005	5.1472432E+003
6.8132047E+004	1.3584268E+000	4.0722716E-001	1.4181528E+000	-1.6687601E+001	2.462475663603982E+000	2.7103713E-001	5.7665166E-002	5.7363014E+000	4.7299805E-001	1.000000000000000E+000	9	5.4464648E-003	3.8405345E-003	0	1.174554309735282E-005	6.7544532E-001	2.0248398E-001	7.0514262E-001	1.6687601E+001	4.7299805E+002	1.5778252E+003	1.6471975E+003	-7.3312401E+001	0.0000000E+000	0.0000000E+000	0.0000000E+000	7.3312401E+001	0.0000000E+000	0.0000000E+000	0.0000000E+000	-7.3312401E+001	0.0000000E+000	0.0000000E+000	0.0000000E+000	-1.6687601E+001	0.0000000E+000	0.0000000E+000	0.0000000E+000	1.6687601E+001	3.3357961E+000	7.3312401E+001	5.604637400079001E-006	1.5629401E-005	4.7001880E+003
4.6420355E+004	1.4552426E+000	4.5834064E-001	1.5257154E+000	-1.7482250E+001	2.899485577683663E+000	2.7103844E-001	5.5672053E-002	7.4803739E+000	6.7507654E-001	1.000000000000000E+000	9	5.4537863E-003	3.5745765E-003	0	1.667183020069367E-005	6.2515599E-001	1.9689801E-001	6.5543026E-001	1.7482250E+001	6.7507672E+002	2.1433845E+003	2.2471816E+003	-7.2517746E+001	0.0000000E+000	0.0000000E+000	0.0000000E+000	7.2517746E+001	0.0000000E+000	0.0000000E+000	0.0000000E+000	-7.2517746E+001	0.0000000E+000	0.0000000E+000	0.0000000E+000	-1.7482250E+001	0.0000000E+000	0.0000000E+000	0.0000000E+000	1.7482250E+001	3.1750243E+000	7.2517746E+001	4.926287103340857E-006	1.5089267E-005	4.8684829E+003
3.1621139E+004	1.5599029E+000	5.1999807E-001	1.6442916E+000	-1.8435955E+001	3.336476611759281E+000	2.7103800E-001	6.2154304E-002	9.6792316E+000	9.6802521E-001	1.000000000000000E+000	9	5.4185116E-003	3.2953471E-003	0	2.609899090204595E-005	5.7695222E-001	1.9232866E-001	6.0816461E-001	1.8435955E+001	9.6802539E+002	2.9039055E+003	3.0610032E+003	-7.1564041E+001	0.0000000E+000	0.0000000E+000	0.0000000E+000	7.1564041E+001	0.0000000E+000	0.0000000E+000	0.0000000E+000	-7.1564041E+001	0.0000000E+000	0.0000000E+000	0.0000000E+000	-1.8435955E+001	0.0000000E+000	0.0000000E+000	0.0000000E+000	1.8435955E+001	2.9998243E+000	7.1564041E+001	9.427160701352277E-006	1.6846177E-005	4.3607275E+003
2.1544684E+004	1.6809791E+000	5.9182525E-001	1.7821189E+000	-1.9395725E+001	3.773496072535636E+000	2.7104542E-001	5.3511295E-002	1.2482068E+001	1.3765758E+000	1.000000000000000E+000	9	5.3696604E-003	3.0130765E-003	0	3.903928486693702E-005	5.2928424E-001	1.8634602E-001	5.6112981E-001	1.9395725E+001	1.3765756E+003	3.9099302E+003	4.1451797E+003	-7.0604279E+001	0.0000000E+000	0.0000000E+000	0.0000000E+000	7.0604279E+001	0.0000000E+000	0.0000000E+000	0.0000000E+000	-7.0604279E+001	0.0000000E+000	0.0000000E+000	0.0000000E+000	-1.9395725E+001	0.0000000E+000	0.0000000E+000	0.0000000E+000	1.9395725E+001	2.8403301E+000	7.0604279E+001	1.294029396489107E-005	1.4503991E-005	5.0652002E+003
1.4678594E+004	1.8179834E+000	6.7004502E-001	1.9375304E+000	-2.0232121E+001	4.211478173354408E+000	2.7103829E-001	5.6473009E-002	1.6181980E+001	1.9352746E+000	1.000000000000000E+000	9	5.3880112E-003	2.7808654E-003	0	4.428243766666856E-005	4.8427588E-001	1.7848714E-001	5.1612091E-001	2.0232121E+001	1.9352743E+003	5.2508369E+003	5.5961216E+003	-6.9767883E+001	0.0000000E+000	0.0000000E+000	0.0000000E+000	6.9767883E+001	0.0000000E+000	0.0000000E+000	0.0000000E+000	-6.9767883E+001	0.0000000E+000	0.0000000E+000	0.0000000E+000	-2.0232121E+001	0.0000000E+000	0.0000000E+000	0.0000000E+000	2.0232121E+001	2.7132258E+000	6.9767883E+001	5.243152799731537E-006	1.5306348E-005	4.7994307E+003
1.0002226E+004	1.9757340E+000	7.5986731E-001	2.1168191E+000	-2.1036743E+001	4.649490487499861E+000	2.7103886E-001	5.4405395E-002	2.0940437E+001	2.6983218E+000	1.000000000000000E+000	9	5.2288296E-003	2.4701352E-003	0	5.211056156834174E-005	4.4092119E-001	1.6957830E-001	4.7240692E-001	2.1036743E+001	2.6983220E+003	7.0159175E+003	7.5169170E+003	-6.8963257E+001	0.0000000E+000	0.0000000E+000	0.0000000E+000	6.8963257E+001	0.0000000E+000	0.0000000E+000	0.0000000E+000	-6.8963257E+001	0.0000000E+000	0.0000000E+000	0.0000000E+000	-2.1036743E+001	0.0000000E+000	0.0000000E+000	0.0000000E+000	2.1036743E+001	2.6001039E+000	6.8963257E+001	7.828123901673176E-006	1.4745976E-005	4.9818379E+003
6.8110674E+003	2.1560593E+000	8.6119491E-001	2.3216908E+000	-2.1773252E+001	5.203492513770470E+000	2.7104235E-001	5.2486792E-002	2.7133354E+001	3.7333407E+000	1.000000000000000E+000	9	5.1678861E-003	2.2259150E-003	0	6.299270807509310E-005	3.9999259E-001	1.5976906E-001	4.3072057E-001	2.1773252E+001	3.7333411E+003	9.3466699E+003	1.0064694E+004	-6.8226746E+001	0.0000000E+000	0.0000000E+000	0.0000000E+000	6.8226746E+001	0.0000000E+000	0.0000000E+000	0.0000000E+000	-6.8226746E+001	0.0000000E+000	0.0000000E+000	0.0000000E+000	-2.1773252E+001	0.0000000E+000	0.0000000E+000	0.0000000E+000	2.1773252E+001	2.5035672E+000	6.8226746E+001	1.088214650675137E-005	1.4226143E-005	5.1640107E+003
4.6414854E+003	2.3595016E+000	9.7791070E-001	2.5541255E+000	-2.2511879E+001	5.897694306811900E+000	2.7102473E-001	5.8186688E-002	3.5064201E+001	5.1401744E+000	1.000000000000000E+000	9	4.9957554E-003	1.9559553E-003	0	7.564988931280095E-005	3.6168939E-001	1.4990452E-001	3.9152342E-001	2.2511879E+001	5.1401748E+003	1.2402207E+004	1.3425205E+004	-6.7488121E+001	0.0000000E+000	0.0000000E+000	0.0000000E+000	6.7488121E+001	0.0000000E+000	0.0000000E+000	0.0000000E+000	-6.7488121E+001	0.0000000E+000	0.0000000E+000	0.0000000E+000	-2.2511879E+001	0.0000000E+000	0.0000000E+000	0.0000000E+000	2.2511879E+001	2.4127986E+000	6.7488121E+001	1.265718123770785E-005	1.5770032E-005	4.6578477E+003
3.1610117E+003	2.5926204E+000	1.1168275E+000	2.8229389E+000	-2.3305010E+001	6.363678302281187E+000	2.7102995E-001	5.9769992E-002	4.5082493E+001	7.0563021E+000	1.000000000000000E+000	9	5.0044260E-003	1.7727716E-003	0	8.179483199588948E-005	3.2533887E-001	1.4014678E-001	3.5424075E-001	2.3305010E+001	7.0563008E+003	1.6380606E+004	1.7835797E+004	-6.6694992E+001	0.0000000E+000	0.0000000E+000	0.0000000E+000	6.6694992E+001	0.0000000E+000	0.0000000E+000	0.0000000E+000	-6.6694992E+001	0.0000000E+000	0.0000000E+000	0.0000000E+000	-2.3305010E+001	0.0000000E+000	0.0000000E+000	0.0000000E+000	2.3305010E+001	2.3214152E+000	6.6694992E+001	6.144942683088532E-006	1.6199458E-005	4.5345488E+003
2.1556899E+003	2.8591027E+000	1.2715728E+000	3.1291158E+000	-2.3976887E+001	6.830711337795947E+000	2.7103719E-001	6.3905217E-002	5.8062080E+001	9.5880833E+000	1.000000000000000E+000	9	4.9270289E-003	1.5745754E-003	0	8.900399350095216E-005	2.9200244E-001	1.2986675E-001	3.1957909E-001	2.3976887E+001	9.5880820E+003	2.1558590E+004	2.3594578E+004	-6.6023117E+001	0.0000000E+000	0.0000000E+000	0.0000000E+000	6.6023117E+001	0.0000000E+000	0.0000000E+000	0.0000000E+000	-6.6023117E+001	0.0000000E+000	0.0000000E+000	0.0000000E+000	-2.3976887E+001	0.0000000E+000	0.0000000E+000	0.0000000E+000	2.3976887E+001	2.2484775E+000	6.6023117E+001	7.209161505062679E-006	1.7320690E-005	4.2412373E+003
1.4685898E+003	3.1861565E+000	1.4470860E+000	3.4993787E+000	-2.4426559E+001	7.551964252023026E+000	2.7105826E-001	-1.6395237E-002	7.4890251E+001	1.2806548E+001	1.000000000000000E+000	10	4.9502496E-003	1.4146081E-003	0	9.125246679656750E-005	2.6018679E-001	1.1817142E-001	2.8576502E-001	2.4426559E+001	1.2806547E+004	2.8197125E+004	3.0969105E+004	-6.5573441E+001	0.0000000E+000	0.0000000E+000	0.0000000E+000	6.5573441E+001	0.0000000E+000	0.0000000E+000	0.0000000E+000	-6.5573441E+001	0.0000000E+000	0.0000000E+000	0.0000000E+000	-2.4426559E+001	0.0000000E+000	0.0000000E+000	0.0000000E+000	2.4426559E+001	2.2017741E+000	6.5573441E+001	2.248473295615342E-006	-4.4440644E-006	1.6532744E+004
1.0003202E+003	3.5538816E+000	1.6299633E+000	3.9098408E+000	-2.4638231E+001	8.020702540983621E+000	2.7104878E-001	-1.7056772E-002	9.7612015E+001	1.6964487E+001	1.000000000000000E+000	10	4.8656678E-003	1.2444670E-003	0	8.814417949402964E-005	2.3247959E-001	1.0662516E-001	2.5576490E-001	2.4638231E+001	1.6964486E+004	3.6988430E+004	4.0693215E+004	-6.5361771E+001	0.0000000E+000	0.0000000E+000	0.0000000E+000	6.5361771E+001	0.0000000E+000	0.0000000E+000	0.0000000E+000	-6.5361771E+001	0.0000000E+000	0.0000000E+000	0.0000000E+000	-2.4638231E+001	0.0000000E+000	0.0000000E+000	0.0000000E+000	2.4638231E+001	2.1803446E+000	6.5361771E+001	-3.108287302537864E-006	-4.6232176E-006	1.5890978E+004
6.8108978E+002	3.9717278E+000	1.8348908E+000	4.3750939E+000	-2.4796373E+001	8.486424243048532E+000	2.7104914E-001	-1.6954282E-002	1.2735193E+002	2.2400167E+001	1.000000000000000E+000	10	4.8025730E-003	1.0977074E-003	0	8.551633268437904E-005	2.0749362E-001	9.5859572E-002	2.2856653E-001	2.4796373E+001	2.2400164E+004	4.8486461E+004	5.3410715E+004	-6.5203629E+001	0.0000000E+000	0.0000000E+000	0.0000000E+000	6.5203629E+001	0.0000000E+000	0.0000000E+000	0.0000000E+000	-6.5203629E+001	0.0000000E+000	0.0000000E+000	0.0000000E+000	-2.4796373E+001	0.0000000E+000	0.0000000E+000	0.0000000E+000	2.4796373E+001	2.1645582E+000	6.5203629E+001	-2.627846809650600E-006	-4.5954434E-006	1.5987061E+004
4.6396069E+002	4.4468150E+000	2.0141428E+000	4.8816938E+000	-2.4367699E+001	8.955215732014040E+000	2.7104554E-001	-1.7310208E-002	1.7031334E+002	2.8992662E+001	1.000000000000000E+000	10	4.7550667E-003	9.7406085E-004	0	8.354841044741139E-005	1.8659844E-001	8.4517993E-002	2.0484693E-001	2.4367699E+001	2.8992664E+004	6.4009867E+004	7.0269750E+004	-6.5632301E+001	0.0000000E+000	0.0000000E+000	0.0000000E+000	6.5632301E+001	0.0000000E+000	0.0000000E+000	0.0000000E+000	-6.5632301E+001	0.0000000E+000	0.0000000E+000	0.0000000E+000	-2.4367699E+001	0.0000000E+000	0.0000000E+000	0.0000000E+000	2.4367699E+001	2.2077954E+000	6.5632301E+001	-1.967922236967650E-006	-4.6918544E-006	1.5658133E+004
3.1631589E+002	4.9834051E+000	2.1886663E+000	5.4428473E+000	-2.3710646E+001	9.421903860842576E+000	2.7104339E-001	-1.7804025E-002	2.2988972E+002	3.7172897E+001	1.000000000000000E+000	10	4.7264658E-003	8.6838112E-004	0	8.087365297934998E-005	1.6821855E-001	7.3880062E-002	1.8372737E-001	2.3710646E+001	3.7172898E+004	8.4639484E+004	9.2442773E+004	-6.6289352E+001	0.0000000E+000	0.0000000E+000	0.0000000E+000	6.6289352E+001	0.0000000E+000	0.0000000E+000	0.0000000E+000	-6.6289352E+001	0.0000000E+000	0.0000000E+000	0.0000000E+000	-2.3710646E+001	0.0000000E+000	0.0000000E+000	0.0000000E+000	2.3710646E+001	2.2769141E+000	6.6289352E+001	-2.674757468061414E-006	-4.8256634E-006	1.5223715E+004
2.1534457E+002	5.5669727E+000	2.3650143E+000	6.0485106E+000	-2.3017218E+001	9.889410096366191E+000	2.7103907E-001	-1.7565511E-002	3.1250174E+002	4.7777466E+001	1.000000000000000E+000	10	4.7103814E-003	7.7876716E-004	0	7.807154497377148E-005	1.5216762E-001	6.4645290E-002	1.6532996E-001	2.3017218E+001	4.7777469E+004	1.1246267E+005	1.2219059E+005	-6.6982780E+001	0.0000000E+000	0.0000000E+000	0.0000000E+000	6.6982780E+001	0.0000000E+000	0.0000000E+000	0.0000000E+000	-6.6982780E+001	0.0000000E+000	0.0000000E+000	0.0000000E+000	-2.3017218E+001	0.0000000E+000	0.0000000E+000	0.0000000E+000	2.3017218E+001	2.3538854E+000	6.6982780E+001	-2.802108005578498E-006	-4.7609396E-006	1.5430184E+004
1.4673740E+002	6.2015829E+000	2.5095584E+000	6.6901054E+000	-2.2031416E+001	1.035238569168723E+001	2.7103764E-001	-1.7884167E-002	4.3219727E+002	6.0814999E+001	1.000000000000000E+000	10	4.7017206E-003	7.0278719E-004	0	7.633273308933389E-005	1.3855959E-001	5.6070104E-002	1.4947447E-001	2.2031416E+001	6.0815000E+004	1.5028509E+005	1.6212364E+005	-6.7968582E+001	0.0000000E+000	0.0000000E+000	0.0000000E+000	6.7968582E+001	0.0000000E+000	0.0000000E+000	0.0000000E+000	-6.7968582E+001	0.0000000E+000	0.0000000E+000	0.0000000E+000	-2.2031416E+001	0.0000000E+000	0.0000000E+000	0.0000000E+000	2.2031416E+001	2.4711850E+000	6.7968582E+001	-1.738811884437585E-006	-4.8472825E-006	1.5155173E+004
1.0003201E+002	6.8936219E+000	2.6350410E+000	7.3800721E+000	-2.0919022E+001	1.082066587398003E+001	2.7105150E-001	-1.6913297E-002	6.0380090E+002	7.6974579E+001	1.000000000000000E+000	10	4.6882657E-003	6.3526013E-004	0	7.490659030899406E-005	1.2656868E-001	4.8380032E-002	1.3550003E-001	2.0919022E+001	7.6974570E+004	2.0137584E+005	2.1558598E+005	-6.9080978E+001	0.0000000E+000	0.0000000E+000	0.0000000E+000	6.9080978E+001	0.0000000E+000	0.0000000E+000	0.0000000E+000	-6.9080978E+001	0.0000000E+000	0.0000000E+000	0.0000000E+000	-2.0919022E+001	0.0000000E+000	0.0000000E+000	0.0000000E+000	2.0919022E+001	2.6161346E+000	6.9080978E+001	-1.426142780339834E-006	-4.5843744E-006	1.6025941E+004
6.8103981E+001	7.6429324E+000	2.6630194E+000	8.0935831E+000	-1.9209820E+001	1.129931869669235E+001	2.7104884E-001	-1.5882801E-002	8.7755280E+002	9.5003654E+001	1.000000000000000E+000	10	4.6926187E-003	5.7979499E-004	0	7.345667951539508E-005	1.1667515E-001	4.0653005E-002	1.2355467E-001	1.9209820E+001	9.5003664E+004	2.7266284E+005	2.8873988E+005	-7.0790176E+001	0.0000000E+000	0.0000000E+000	0.0000000E+000	7.0790176E+001	0.0000000E+000	0.0000000E+000	0.0000000E+000	-7.0790176E+001	0.0000000E+000	0.0000000E+000	0.0000000E+000	-1.9209820E+001	0.0000000E+000	0.0000000E+000	0.0000000E+000	1.9209820E+001	2.8700252E+000	7.0790176E+001	-1.449910793598980E-006	-4.3050150E-006	1.7065557E+004
4.6441547E+001	8.3780556E+000	2.6125815E+000	8.7759552E+000	-1.7319372E+001	1.175454935830203E+001	2.7103969E-001	-1.9019021E-002	1.3117274E+003	1.1625041E+002	1.000000000000000E+000	10	4.6873027E-003	5.3410744E-004	0	7.151044453081946E-005	1.0878135E-001	3.3921968E-002	1.1394771E-001	1.7319372E+001	1.1625042E+005	3.7279309E+005	3.9049822E+005	-7.2680626E+001	0.0000000E+000	0.0000000E+000	0.0000000E+000	7.2680626E+001	0.0000000E+000	0.0000000E+000	0.0000000E+000	-7.2680626E+001	0.0000000E+000	0.0000000E+000	0.0000000E+000	-1.7319372E+001	0.0000000E+000	0.0000000E+000	0.0000000E+000	1.7319372E+001	3.2068112E+000	7.2680626E+001	-1.946234984575619E-006	-5.1549096E-006	1.4250980E+004
3.1629555E+001	9.0917597E+000	2.4882038E+000	9.4260941E+000	-1.5305745E+001	1.220144289950258E+001	2.7103224E-001	-2.0086790E-002	2.0222791E+003	1.4091248E+002	1.000000000000000E+000	10	4.6866080E-003	4.9719511E-004	0	6.899455784971846E-005	1.0232563E-001	2.8004151E-002	1.0608848E-001	1.5305745E+001	1.4091252E+005	5.1488644E+005	5.3382056E+005	-7.4694252E+001	0.0000000E+000	0.0000000E+000	0.0000000E+000	7.4694252E+001	0.0000000E+000	0.0000000E+000	0.0000000E+000	-7.4694252E+001	0.0000000E+000	0.0000000E+000	0.0000000E+000	-1.5305745E+001	0.0000000E+000	0.0000000E+000	0.0000000E+000	1.5305745E+001	3.6539450E+000	7.4694252E+001	-2.515886681101005E-006	-5.4441675E-006	1.3493060E+004
2.1551722E+001	9.7077303E+000	2.3282313E+000	9.9830198E+000	-1.3486671E+001	1.264032529367250E+001	2.7102822E-001	-2.0712920E-002	3.1718455E+003	1.7252039E+002	1.000000000000000E+000	10	4.6805418E-003	4.6885031E-004	0	6.666177835097833E-005	9.7407818E-002	2.3361584E-002	1.0017009E-001	1.3486671E+001	1.7252041E+005	7.1933631E+005	7.3973513E+005	-7.6513329E+001	0.0000000E+000	0.0000000E+000	0.0000000E+000	7.6513329E+001	0.0000000E+000	0.0000000E+000	0.0000000E+000	-7.6513329E+001	0.0000000E+000	0.0000000E+000	0.0000000E+000	-1.3486671E+001	0.0000000E+000	0.0000000E+000	0.0000000E+000	1.3486671E+001	4.1695728E+000	7.6513329E+001	-2.332779498740123E-006	-5.6137856E-006	1.3084984E+004
1.4685154E+001	1.0306694E+001	2.0926366E+000	1.0516990E+001	-1.1477130E+001	1.311803107641754E+001	2.7104378E-001	-1.5806405E-002	5.1790225E+003	2.0504659E+002	1.000000000000000E+000	10	4.6867337E-003	4.4563451E-004	0	6.533044484641222E-005	9.3182959E-002	1.8919555E-002	9.5084243E-002	1.1477130E+001	2.0504655E+005	1.0098994E+006	1.0305052E+006	-7.8522873E+001	0.0000000E+000	0.0000000E+000	0.0000000E+000	7.8522873E+001	0.0000000E+000	0.0000000E+000	0.0000000E+000	-7.8522873E+001	0.0000000E+000	0.0000000E+000	0.0000000E+000	-1.1477130E+001	0.0000000E+000	0.0000000E+000	0.0000000E+000	1.1477130E+001	4.9252191E+000	7.8522873E+001	-1.331333504566118E-006	-4.2842275E-006	1.7147719E+004
1.0003201E+001	1.0792359E+001	1.9066256E+000	1.0959482E+001	-1.0018747E+001	1.358567843197670E+001	2.7103406E-001	-1.7578563E-002	8.3447959E+003	2.5256111E+002	1.000000000000000E+000	10	4.6842615E-003	4.2741632E-004	0	6.568124562301657E-005	8.9853778E-002	1.5873963E-002	9.1245189E-002	1.0018747E+001	2.5256105E+005	1.4296096E+006	1.4517475E+006	-7.9981255E+001	0.0000000E+000	0.0000000E+000	0.0000000E+000	7.9981255E+001	0.0000000E+000	0.0000000E+000	0.0000000E+000	-7.9981255E+001	0.0000000E+000	0.0000000E+000	0.0000000E+000	-1.0018747E+001	0.0000000E+000	0.0000000E+000	0.0000000E+000	1.0018747E+001	5.6604500E+000	7.9981255E+001	3.508007766043499E-007	-4.7643894E-006	1.5418442E+004
