EC-Lab ASCII FILE
Nb header lines : 64                          

Potentio Electrochemical Impedance Spectroscopy

Run on channel : 3 (SN 65921)
User : 
CE vs. WE compliance from -10 V to 10 V
Electrode connection : standard
Potential control : Ewe
Ewe ctrl range : min = -10.00 V, max = 10.00 V
Safety Limits :
	Do not start on E overload
Acquisition started on : 09/08/2025 17:24:03.900
Technique started on : 09/08/2025 17:24:05.765
Loaded Setting File :  C:\Users\Celltest\OneDrive - store-dot.com\Documents\EC-Lab\Data\Gyutae\R270\17154_C02.mpr
Saved on :
	File : 17418_C03.mpr
	Directory : C:\Users\Celltest\OneDrive - store-dot.com\Documents\EC-Lab\Data\Gyutae\R282\
	Host : 169.254.61.224
Device : VMP-3e (SN .003165)
Address : USB
EC-LAB for windows v11.62 (software)
Internet server v27.00 (firmware)
Command interpretor v12.03 (firmware)
Electrode material : 
Initial state : 
Electrolyte : 
Comments : 
Electrode surface area : 0.001 cm²
Characteristic mass : 0.001 g
Equivalent Weight : 0.000 g/eq.
Density : 0.000 g/cm3
Volume (V) : 0.001 cm³
Cycle Definition : Charge/Discharge alternance
Mode                Single sine         
E (V)               0.0000              
vs.                 Eoc                 
tE (h:m:s)          0:00:0.0000         
record              0                   
dI                  0.000               
unit dI             mA                  
dt (s)              0.000               
fi                  100.000             
unit fi             kHz                 
ff                  10.000              
unit ff             mHz                 
Nd                  6                   
Points              per decade          
spacing             Logarithmic         
Va (mV)             5.0                 
pw                  0.10                
Na                  2                   
corr                0                   
E range min (V)     -10.000             
E range max (V)     10.000              
I Range             Auto                
Bandwidth           5                   
nc cycles           0                   
goto Ns'            0                   
nr cycles           0                   
inc. cycle          0                   

freq/Hz	Re(Z)/Ohm	-Im(Z)/Ohm	|Z|/Ohm	Phase(Z)/deg	time/s	<Ewe>/V	<I>/mA	Cs/µF	Cp/µF	cycle number	I Range	|Ewe|/V	|I|/A	Ns	(Q-Qo)/mA.h	Re(Y)/Ohm-1	Im(Y)/Ohm-1	|Y|/Ohm-1	Phase(Y)/deg	Re(C)/nF	Im(C)/nF	|C|/nF	Phase(C)/deg	Re(M)	Im(M)	|M|	Phase(M)/deg	Re(Permittivity)	Im(Permittivity)	|Permittivity|	Phase(Permittivity)/deg	Re(Resistivity)/Ohm.cm	Im(Resistivity)/Ohm.cm	|Resistivity|/Ohm.cm	Phase(Resistivity)/deg	Re(Conductivity)/mS/cm	Im(Conductivity)/mS/cm	|Conductivity|/mS/cm	Phase(Conductivity)/deg	Tan(Delta)	Loss Angle(Delta)/deg	dq/mA.h	Pwe/W	Rwe/Ohm	
1.0000371E+005	1.5275919E+000	2.8914246E-001	1.5547155E+000	-1.0718142E+001	1.865498621918960E+000	2.8187197E-001	5.8581814E-002	5.5041733E+000	1.9037679E-001	1.000000000000000E+000	9	4.6138461E-003	2.9676466E-003	0	1.369277684630166E-005	6.3198316E-001	1.1962172E-001	6.4320451E-001	1.0718142E+001	1.9037679E+002	1.0057951E+003	1.0236538E+003	-7.9281860E+001	0.0000000E+000	0.0000000E+000	0.0000000E+000	7.9281860E+001	0.0000000E+000	0.0000000E+000	0.0000000E+000	-7.9281860E+001	0.0000000E+000	0.0000000E+000	0.0000000E+000	-1.0718142E+001	0.0000000E+000	0.0000000E+000	0.0000000E+000	1.0718142E+001	5.2831812E+000	7.9281860E+001	1.369277684630166E-005	1.6512571E-005	4.8115952E+003
6.8132047E+004	1.5955100E+000	3.1558335E-001	1.6264210E+000	-1.1188383E+001	2.444491076079430E+000	2.8188559E-001	6.1136421E-002	7.4020939E+000	2.7868709E-001	1.000000000000000E+000	9	5.0415564E-003	3.0997857E-003	0	2.345567455748096E-005	6.0316145E-001	1.1930211E-001	6.1484694E-001	1.1188383E+001	2.7868710E+002	1.4089718E+003	1.4362688E+003	-7.8811615E+001	0.0000000E+000	0.0000000E+000	0.0000000E+000	7.8811615E+001	0.0000000E+000	0.0000000E+000	0.0000000E+000	-7.8811615E+001	0.0000000E+000	0.0000000E+000	0.0000000E+000	-1.1188383E+001	0.0000000E+000	0.0000000E+000	0.0000000E+000	1.1188383E+001	5.0557485E+000	7.8811615E+001	9.762897711179296E-006	1.7233477E-005	4.6107637E+003
4.6420355E+004	1.6719644E+000	3.4721765E-001	1.7076373E+000	-1.1731885E+001	3.022490490198834E+000	2.8187263E-001	5.5971265E-002	9.8743811E+000	4.0824625E-001	1.000000000000000E+000	9	5.0855493E-003	2.9781202E-003	0	3.397476071096025E-005	5.7337105E-001	1.1907224E-001	5.8560443E-001	1.1731885E+001	4.0824634E+002	1.9658367E+003	2.0077795E+003	-7.8268112E+001	0.0000000E+000	0.0000000E+000	0.0000000E+000	7.8268112E+001	0.0000000E+000	0.0000000E+000	0.0000000E+000	-7.8268112E+001	0.0000000E+000	0.0000000E+000	0.0000000E+000	-1.1731885E+001	0.0000000E+000	0.0000000E+000	0.0000000E+000	1.1731885E+001	4.8153210E+000	7.8268112E+001	1.051908615347929E-005	1.5776768E-005	5.0360239E+003
3.1621139E+004	1.7466578E+000	3.8807392E-001	1.7892499E+000	-1.2526548E+001	3.460480884328717E+000	2.8187442E-001	5.2353792E-002	1.2969648E+001	6.1011976E-001	1.000000000000000E+000	9	5.4978109E-003	3.0726905E-003	0	4.666389978808972E-005	5.4558933E-001	1.2121949E-001	5.5889344E-001	1.2526548E+001	6.1011981E+002	2.7460500E+003	2.8130122E+003	-7.7473450E+001	0.0000000E+000	0.0000000E+000	0.0000000E+000	7.7473450E+001	0.0000000E+000	0.0000000E+000	0.0000000E+000	-7.7473450E+001	0.0000000E+000	0.0000000E+000	0.0000000E+000	-1.2526548E+001	0.0000000E+000	0.0000000E+000	0.0000000E+000	1.2526548E+001	4.5008378E+000	7.7473450E+001	1.268913907712947E-005	1.4757195E-005	5.3840308E+003
2.1544684E+004	1.8418449E+000	4.3377599E-001	1.8922353E+000	-1.3252331E+001	3.897474318422610E+000	2.8186965E-001	5.9141215E-002	1.7029995E+001	8.9494276E-001	1.000000000000000E+000	9	5.3659221E-003	2.8357585E-003	0	5.138580755013714E-005	5.1440221E-001	1.2114772E-001	5.2847552E-001	1.3252331E+001	8.9494299E+002	3.7999929E+003	3.9039556E+003	-7.6747665E+001	0.0000000E+000	0.0000000E+000	0.0000000E+000	7.6747665E+001	0.0000000E+000	0.0000000E+000	0.0000000E+000	-7.6747665E+001	0.0000000E+000	0.0000000E+000	0.0000000E+000	-1.3252331E+001	0.0000000E+000	0.0000000E+000	0.0000000E+000	1.3252331E+001	4.2460737E+000	7.6747665E+001	4.721907762047420E-006	1.6670114E-005	4.7660444E+003
1.4678594E+004	1.9370431E+000	4.8474240E-001	1.9967752E+000	-1.4049651E+001	4.194489745859755E+000	2.8187254E-001	5.3789582E-002	2.2367870E+001	1.3182213E+000	1.000000000000000E+000	9	5.2928696E-003	2.6507089E-003	0	5.516351999761537E-005	4.8582622E-001	1.2157736E-001	5.0080752E-001	1.4049651E+001	1.3182214E+003	5.2676465E+003	5.4300835E+003	-7.5950348E+001	0.0000000E+000	0.0000000E+000	0.0000000E+000	7.5950348E+001	0.0000000E+000	0.0000000E+000	0.0000000E+000	-7.5950348E+001	0.0000000E+000	0.0000000E+000	0.0000000E+000	-1.4049651E+001	0.0000000E+000	0.0000000E+000	0.0000000E+000	1.4049651E+001	3.9960256E+000	7.5950348E+001	3.777712447478232E-006	1.5161806E-005	5.2402813E+003
1.0002226E+004	2.0461776E+000	5.5239910E-001	2.1194310E+000	-1.5107778E+001	4.490498906612629E+000	2.8187218E-001	5.3118285E-002	2.8805176E+001	1.9567615E+000	1.000000000000000E+000	9	5.0462075E-003	2.3809255E-003	0	6.129878359190318E-005	4.5551717E-001	1.2297431E-001	4.7182474E-001	1.5107778E+001	1.9567617E+003	7.2481675E+003	7.5076528E+003	-7.4892220E+001	0.0000000E+000	0.0000000E+000	0.0000000E+000	7.4892220E+001	0.0000000E+000	0.0000000E+000	0.0000000E+000	-7.4892220E+001	0.0000000E+000	0.0000000E+000	0.0000000E+000	-1.5107778E+001	0.0000000E+000	0.0000000E+000	0.0000000E+000	1.5107778E+001	3.7041655E+000	7.4892220E+001	6.135263594287810E-006	1.4972567E-005	5.3065000E+003
6.8110674E+003	2.1688170E+000	6.3524675E-001	2.2599349E+000	-1.6325314E+001	4.868498551222729E+000	2.8172633E-001	-7.6702437E-003	3.6784302E+001	2.9064012E+000	1.000000000000000E+000	9	4.8678718E-003	2.1539875E-003	0	6.142512800373758E-005	4.2464992E-001	1.2438001E-001	4.4249061E-001	1.6325314E+001	2.9064016E+003	9.9228398E+003	1.0339726E+004	-7.3674683E+001	0.0000000E+000	0.0000000E+000	0.0000000E+000	7.3674683E+001	0.0000000E+000	0.0000000E+000	0.0000000E+000	-7.3674683E+001	0.0000000E+000	0.0000000E+000	0.0000000E+000	-1.6325314E+001	0.0000000E+000	0.0000000E+000	0.0000000E+000	1.6325314E+001	3.4141333E+000	7.3674683E+001	1.263444118343980E-007	-2.1609096E-006	3.6729777E+004
4.6414854E+003	2.3191407E+000	7.2640634E-001	2.4302428E+000	-1.7391714E+001	5.339712146975216E+000	2.8190228E-001	9.4458185E-002	4.7204514E+001	4.2173867E+000	1.000000000000000E+000	9	4.7662682E-003	1.9612312E-003	0	7.341166913852147E-005	3.9267007E-001	1.2299298E-001	4.1148153E-001	1.7391714E+001	4.2173877E+003	1.3464521E+004	1.4109561E+004	-7.2608284E+001	0.0000000E+000	0.0000000E+000	0.0000000E+000	7.2608284E+001	0.0000000E+000	0.0000000E+000	0.0000000E+000	-7.2608284E+001	0.0000000E+000	0.0000000E+000	0.0000000E+000	-1.7391714E+001	0.0000000E+000	0.0000000E+000	0.0000000E+000	1.7391714E+001	3.1926217E+000	7.2608284E+001	1.198654113478389E-005	2.6627979E-005	2.9844136E+003
3.1610117E+003	2.4886580E+000	8.3502191E-001	2.6250105E+000	-1.8548201E+001	5.806675955827814E+000	2.8190690E-001	9.7087368E-002	6.0297058E+001	6.1014042E+000	1.000000000000000E+000	9	4.7091059E-003	1.7939379E-003	0	8.411444805435733E-005	3.6116290E-001	1.2118136E-001	3.8095087E-001	1.8548201E+001	6.1014053E+003	1.8184322E+004	1.9180635E+004	-7.1451797E+001	0.0000000E+000	0.0000000E+000	0.0000000E+000	7.1451797E+001	0.0000000E+000	0.0000000E+000	0.0000000E+000	-7.1451797E+001	0.0000000E+000	0.0000000E+000	0.0000000E+000	-1.8548201E+001	0.0000000E+000	0.0000000E+000	0.0000000E+000	1.8548201E+001	2.9803505E+000	7.1451797E+001	1.070277891583586E-005	2.7369599E-005	2.9036414E+003
2.1556899E+003	2.6713643E+000	9.6040124E-001	2.8387599E+000	-1.9774382E+001	6.273678271340032E+000	2.8189903E-001	9.2835896E-002	7.6874290E+001	8.7989168E+000	1.000000000000000E+000	9	4.6620015E-003	1.6422669E-003	0	9.722722930876383E-005	3.3149409E-001	1.1917781E-001	3.5226649E-001	1.9774382E+001	8.7989180E+003	2.4474262E+004	2.6007893E+004	-7.0225616E+001	0.0000000E+000	0.0000000E+000	0.0000000E+000	7.0225616E+001	0.0000000E+000	0.0000000E+000	0.0000000E+000	-7.0225616E+001	0.0000000E+000	0.0000000E+000	0.0000000E+000	-1.9774382E+001	0.0000000E+000	0.0000000E+000	0.0000000E+000	1.9774382E+001	2.7815087E+000	7.0225616E+001	1.311278125440650E-005	2.6170350E-005	3.0365305E+003
1.4685898E+003	2.8973377E+000	1.1189483E+000	3.1058993E+000	-2.1116501E+001	6.740928720188094E+000	2.8190568E-001	9.2761301E-002	9.6852226E+001	1.2570568E+001	1.000000000000000E+000	9	4.6413690E-003	1.4943720E-003	0	1.093533551410720E-004	3.0034772E-001	1.1599393E-001	3.2196793E-001	2.1116501E+001	1.2570567E+004	3.2549473E+004	3.4892512E+004	-6.8883499E+001	0.0000000E+000	0.0000000E+000	0.0000000E+000	6.8883499E+001	0.0000000E+000	0.0000000E+000	0.0000000E+000	-6.8883499E+001	0.0000000E+000	0.0000000E+000	0.0000000E+000	-2.1116501E+001	0.0000000E+000	0.0000000E+000	0.0000000E+000	2.1116501E+001	2.5893400E+000	6.8883499E+001	1.212612583230820E-005	2.6149937E-005	3.0390442E+003
1.0003202E+003	3.1297238E+000	1.2866553E+000	3.3838813E+000	-2.2347969E+001	7.464710807907977E+000	2.8186715E-001	1.4271680E-002	1.2365704E+002	1.7877758E+001	1.000000000000000E+000	10	4.7112331E-003	1.3922572E-003	0	1.158007316019114E-004	2.7332273E-001	1.1236524E-001	2.9551864E-001	2.2347969E+001	1.7877760E+004	4.3486742E+004	4.7018199E+004	-6.7652031E+001	0.0000000E+000	0.0000000E+000	0.0000000E+000	6.7652031E+001	0.0000000E+000	0.0000000E+000	0.0000000E+000	-6.7652031E+001	0.0000000E+000	0.0000000E+000	0.0000000E+000	-2.2347969E+001	0.0000000E+000	0.0000000E+000	0.0000000E+000	2.2347969E+001	2.4324493E+000	6.7652031E+001	6.447376460839418E-006	4.0227178E-006	1.9750102E+004
6.8108978E+002	3.4128616E+000	1.4927303E+000	3.7250326E+000	-2.3623787E+001	7.930412296642317E+000	2.8186834E-001	1.3766425E-002	1.5654329E+002	2.5138363E+001	1.000000000000000E+000	10	4.6776524E-003	1.2557346E-003	0	1.166431423010266E-004	2.4595661E-001	1.0757743E-001	2.6845402E-001	2.3623787E+001	2.5138359E+004	5.7474379E+004	6.2731504E+004	-6.6376213E+001	0.0000000E+000	0.0000000E+000	0.0000000E+000	6.6376213E+001	0.0000000E+000	0.0000000E+000	0.0000000E+000	-6.6376213E+001	0.0000000E+000	0.0000000E+000	0.0000000E+000	-2.3623787E+001	0.0000000E+000	0.0000000E+000	0.0000000E+000	2.3623787E+001	2.2863216E+000	6.6376213E+001	8.424106991151411E-007	3.8803191E-006	2.0475057E+004
4.6396069E+002	3.7406318E+000	1.7617968E+000	4.1347618E+000	-2.5219923E+001	8.399183545581764E+000	2.8187186E-001	1.3883877E-002	1.9470769E+002	3.5350353E+001	1.000000000000000E+000	10	4.6556508E-003	1.1259780E-003	0	1.190778586559140E-004	2.1879832E-001	1.0305162E-001	2.4185190E-001	2.5219923E+001	3.5350355E+004	7.5055570E+004	8.2963766E+004	-6.4780075E+001	0.0000000E+000	0.0000000E+000	0.0000000E+000	6.4780075E+001	0.0000000E+000	0.0000000E+000	0.0000000E+000	-6.4780075E+001	0.0000000E+000	0.0000000E+000	0.0000000E+000	-2.5219923E+001	0.0000000E+000	0.0000000E+000	0.0000000E+000	2.5219923E+001	2.1231914E+000	6.4780075E+001	2.434716354887407E-006	3.9134738E-006	2.0302100E+004
3.1631589E+002	4.1248426E+000	2.0903301E+000	4.6242628E+000	-2.6874344E+001	8.865933914436027E+000	2.8187045E-001	1.3902517E-002	2.4070451E+002	4.9184582E+001	1.000000000000000E+000	10	4.6324353E-003	1.0017673E-003	0	1.210004186565283E-004	1.9289562E-001	9.7752951E-002	2.1625069E-001	2.6874344E+001	4.9184582E+004	9.7055797E+004	1.0880695E+005	-6.3125656E+001	0.0000000E+000	0.0000000E+000	0.0000000E+000	6.3125656E+001	0.0000000E+000	0.0000000E+000	0.0000000E+000	-6.3125656E+001	0.0000000E+000	0.0000000E+000	0.0000000E+000	-2.6874344E+001	0.0000000E+000	0.0000000E+000	0.0000000E+000	2.6874344E+001	1.9732972E+000	6.3125656E+001	1.922560000614293E-006	3.9187089E-006	2.0274779E+004
2.1534457E+002	4.6080108E+000	2.4946680E+000	5.2399554E+000	-2.8430067E+001	9.333426603261614E+000	2.8186160E-001	1.3283521E-002	2.9626028E+002	6.7149658E+001	1.000000000000000E+000	10	4.6251607E-003	8.8267174E-004	0	1.221478088777642E-004	1.6782564E-001	9.0856835E-002	1.9084132E-001	2.8430067E+001	6.7149664E+004	1.2403507E+005	1.4104530E+005	-6.1569931E+001	0.0000000E+000	0.0000000E+000	0.0000000E+000	6.1569931E+001	0.0000000E+000	0.0000000E+000	0.0000000E+000	-6.1569931E+001	0.0000000E+000	0.0000000E+000	0.0000000E+000	-2.8430067E+001	0.0000000E+000	0.0000000E+000	0.0000000E+000	2.8430067E+001	1.8471439E+000	6.1569931E+001	1.147390221235879E-006	3.7441146E-006	2.1218893E+004
1.4673740E+002	5.2188478E+000	2.9452088E+000	5.9925475E+000	-2.9437811E+001	9.796395745273912E+000	2.8186899E-001	1.2808083E-002	3.6826733E+002	8.8955421E+001	1.000000000000000E+000	10	4.6132468E-003	7.6983066E-004	0	1.240388767741646E-004	1.4532878E-001	8.2014963E-002	1.6687393E-001	2.9437811E+001	8.8955430E+004	1.5762714E+005	1.8099553E+005	-6.0562187E+001	0.0000000E+000	0.0000000E+000	0.0000000E+000	6.0562187E+001	0.0000000E+000	0.0000000E+000	0.0000000E+000	-6.0562187E+001	0.0000000E+000	0.0000000E+000	0.0000000E+000	-2.9437811E+001	0.0000000E+000	0.0000000E+000	0.0000000E+000	2.9437811E+001	1.7719789E+000	6.0562187E+001	1.891067896400483E-006	3.6102015E-006	2.2007119E+004
1.0003201E+002	5.9775395E+000	3.4441009E+000	6.8987541E+000	-2.9949413E+001	1.026471040757315E+001	2.8187239E-001	1.2839774E-002	4.6196094E+002	1.1513720E+002	1.000000000000000E+000	10	4.6046400E-003	6.6745962E-004	0	1.260039323992419E-004	1.2559754E-001	7.2365992E-002	1.4495371E-001	2.9949413E+001	1.1513720E+005	1.9983070E+005	2.3062716E+005	-6.0050587E+001	0.0000000E+000	0.0000000E+000	0.0000000E+000	6.0050587E+001	0.0000000E+000	0.0000000E+000	0.0000000E+000	-6.0050587E+001	0.0000000E+000	0.0000000E+000	0.0000000E+000	-2.9949413E+001	0.0000000E+000	0.0000000E+000	0.0000000E+000	2.9949413E+001	1.7355878E+000	6.0050583E+001	1.965055625077284E-006	3.6191777E-006	2.1953066E+004
6.8103981E+001	6.9310737E+000	3.9544201E+000	7.9798007E+000	-2.9706272E+001	1.074331533690565E+001	2.8187504E-001	1.4640822E-002	5.9096918E+002	1.4512637E+002	1.000000000000000E+000	10	4.6024956E-003	5.7676825E-004	0	1.282051075801978E-004	1.0884698E-001	6.2101018E-002	1.2531641E-001	2.9706272E+001	1.4512638E+005	2.5436891E+005	2.9285697E+005	-6.0293728E+001	0.0000000E+000	0.0000000E+000	0.0000000E+000	6.0293728E+001	0.0000000E+000	0.0000000E+000	0.0000000E+000	-6.0293728E+001	0.0000000E+000	0.0000000E+000	0.0000000E+000	-2.9706272E+001	0.0000000E+000	0.0000000E+000	0.0000000E+000	2.9706272E+001	1.7527409E+000	6.0293732E+001	2.201175180955830E-006	4.1268822E-006	1.9252680E+004
4.6441547E+001	8.1026068E+000	4.3984594E+000	9.2194729E+000	-2.8495100E+001	1.119853786521708E+001	2.8186634E-001	1.0910074E-002	7.7913531E+002	1.7733803E+002	1.000000000000000E+000	10	4.6074521E-003	4.9975223E-004	0	1.295389011067915E-004	9.5326267E-002	5.1747385E-002	1.0846607E-001	2.8495100E+001	1.7733803E+005	3.2668259E+005	3.7171266E+005	-6.1504898E+001	0.0000000E+000	0.0000000E+000	0.0000000E+000	6.1504898E+001	0.0000000E+000	0.0000000E+000	0.0000000E+000	-6.1504898E+001	0.0000000E+000	0.0000000E+000	0.0000000E+000	-2.8495100E+001	0.0000000E+000	0.0000000E+000	0.0000000E+000	2.8495100E+001	1.8421465E+000	6.1504898E+001	1.333793526593781E-006	3.0751828E-006	2.5835420E+004
3.1629555E+001	9.4250240E+000	4.6751189E+000	1.0520827E+001	-2.6382910E+001	1.164542951309704E+001	2.8186706E-001	9.5471656E-003	1.0763025E+003	2.1252985E+002	1.000000000000000E+000	10	4.6042134E-003	4.3762845E-004	0	1.309488938925238E-004	8.5149609E-002	4.2236980E-002	9.5049560E-002	2.6382910E+001	2.1252984E+005	4.2845941E+005	4.7827441E+005	-6.3617088E+001	0.0000000E+000	0.0000000E+000	0.0000000E+000	6.3617088E+001	0.0000000E+000	0.0000000E+000	0.0000000E+000	-6.3617088E+001	0.0000000E+000	0.0000000E+000	0.0000000E+000	-2.6382910E+001	0.0000000E+000	0.0000000E+000	0.0000000E+000	2.6382910E+001	2.0159967E+000	6.3617088E+001	1.409992785732271E-006	2.6910316E-006	2.9523637E+004
2.1551722E+001	1.0810120E+001	4.7291870E+000	1.1799317E+001	-2.3628309E+001	1.208433348059771E+001	2.8187448E-001	7.4739046E-003	1.5615347E+003	2.5084813E+002	1.000000000000000E+000	10	4.6013729E-003	3.8996941E-004	0	1.307254152288596E-004	7.7645577E-002	3.3968214E-002	8.4750667E-002	2.3628309E+001	2.5084816E+005	5.7339631E+005	6.2586588E+005	-6.6371689E+001	0.0000000E+000	0.0000000E+000	0.0000000E+000	6.6371689E+001	0.0000000E+000	0.0000000E+000	0.0000000E+000	-6.6371689E+001	0.0000000E+000	0.0000000E+000	0.0000000E+000	-2.3628309E+001	0.0000000E+000	0.0000000E+000	0.0000000E+000	2.3628309E+001	2.2858305E+000	6.6371689E+001	-2.234786636642482E-007	2.1067031E-006	3.7714488E+004
1.4685154E+001	1.2122972E+001	4.6235013E+000	1.2974715E+001	-2.0876024E+001	1.256304217004799E+001	2.8186861E-001	1.3261130E-002	2.3440703E+003	2.9765756E+002	1.000000000000000E+000	10	4.6063145E-003	3.5502241E-004	0	1.327104124059260E-004	7.2013430E-002	2.7464731E-002	7.7072985E-002	2.0876024E+001	2.9765756E+005	7.8046794E+005	8.3530250E+005	-6.9123978E+001	0.0000000E+000	0.0000000E+000	0.0000000E+000	6.9123978E+001	0.0000000E+000	0.0000000E+000	0.0000000E+000	-6.9123978E+001	0.0000000E+000	0.0000000E+000	0.0000000E+000	-2.0876024E+001	0.0000000E+000	0.0000000E+000	0.0000000E+000	2.0876024E+001	2.6220329E+000	6.9123978E+001	1.984997177066465E-006	3.7378963E-006	2.1255248E+004
1.0003201E+001	1.3432559E+001	4.3806438E+000	1.4128824E+001	-1.8062250E+001	1.328570991106244E+001	2.8188911E-001	1.1966743E-002	3.6319778E+003	3.4914597E+002	1.000000000000000E+000	11	4.6045161E-003	3.2589521E-004	0	1.373834269768623E-004	6.7289405E-002	2.1944508E-002	7.0777297E-002	1.8062250E+001	3.4914588E+005	1.0706014E+006	1.1260951E+006	-7.1937752E+001	0.0000000E+000	0.0000000E+000	0.0000000E+000	7.1937752E+001	0.0000000E+000	0.0000000E+000	0.0000000E+000	-7.1937752E+001	0.0000000E+000	0.0000000E+000	0.0000000E+000	-1.8062250E+001	0.0000000E+000	0.0000000E+000	0.0000000E+000	1.8062250E+001	3.0663435E+000	7.1937752E+001	4.673014570936296E-006	3.3732945E-006	2.3556043E+004
