EC-Lab ASCII FILE
Nb header lines : 64                          

Potentio Electrochemical Impedance Spectroscopy

Run on channel : 5 (SN 65912)
User : 
CE vs. WE compliance from -10 V to 10 V
Electrode connection : standard
Potential control : Ewe
Ewe ctrl range : min = -10.00 V, max = 10.00 V
Safety Limits :
	Do not start on E overload
Acquisition started on : 09/11/2025 16:16:09.979
Technique started on : 09/11/2025 16:16:12.045
Loaded Setting File :  C:\Users\Celltest\OneDrive - store-dot.com\Documents\EC-Lab\Data\Charmaine\R279\17382_C01.mpr
Saved on :
	File : 17449_C05.mpr
	Directory : C:\Users\Celltest\OneDrive - store-dot.com\Documents\EC-Lab\Data\John\R281\
	Host : 169.254.61.224
Device : VMP-3e (SN .003165)
Address : USB
EC-LAB for windows v11.62 (software)
Internet server v27.00 (firmware)
Command interpretor v12.03 (firmware)
Electrode material : 
Initial state : 
Electrolyte : 
Comments : 
Electrode surface area : 0.001 cm²
Characteristic mass : 0.001 g
Equivalent Weight : 0.000 g/eq.
Density : 0.000 g/cm3
Volume (V) : 0.001 cm³
Cycle Definition : Charge/Discharge alternance
Mode                Single sine         
E (V)               0.0000              
vs.                 Eoc                 
tE (h:m:s)          0:00:0.0000         
record              0                   
dI                  0.000               
unit dI             mA                  
dt (s)              0.000               
fi                  100.000             
unit fi             kHz                 
ff                  10.000              
unit ff             mHz                 
Nd                  6                   
Points              per decade          
spacing             Logarithmic         
Va (mV)             5.0                 
pw                  0.10                
Na                  2                   
corr                0                   
E range min (V)     -10.000             
E range max (V)     10.000              
I Range             Auto                
Bandwidth           5                   
nc cycles           0                   
goto Ns'            0                   
nr cycles           0                   
inc. cycle          0                   

freq/Hz	Re(Z)/Ohm	-Im(Z)/Ohm	|Z|/Ohm	Phase(Z)/deg	time/s	<Ewe>/V	<I>/mA	Cs/µF	Cp/µF	cycle number	I Range	|Ewe|/V	|I|/A	Ns	(Q-Qo)/mA.h	Re(Y)/Ohm-1	Im(Y)/Ohm-1	|Y|/Ohm-1	Phase(Y)/deg	Re(C)/nF	Im(C)/nF	|C|/nF	Phase(C)/deg	Re(M)	Im(M)	|M|	Phase(M)/deg	Re(Permittivity)	Im(Permittivity)	|Permittivity|	Phase(Permittivity)/deg	Re(Resistivity)/Ohm.cm	Im(Resistivity)/Ohm.cm	|Resistivity|/Ohm.cm	Phase(Resistivity)/deg	Re(Conductivity)/mS/cm	Im(Conductivity)/mS/cm	|Conductivity|/mS/cm	Phase(Conductivity)/deg	Tan(Delta)	Loss Angle(Delta)/deg	dq/mA.h	Pwe/W	Rwe/Ohm	
1.0000371E+005	1.2648809E+000	2.5721642E-001	1.2907687E+000	-1.1494498E+001	2.066474124818342E+000	2.9500884E-001	-1.6835280E-002	6.1873584E+000	2.4570037E-001	1.000000000000000E+000	9	4.6912883E-003	3.6344917E-003	0	-6.732117381774717E-006	7.5919396E-001	1.5438384E-001	7.7473211E-001	1.1494498E+001	2.4570042E+002	1.2082500E+003	1.2329788E+003	-7.8505501E+001	0.0000000E+000	0.0000000E+000	0.0000000E+000	7.8505501E+001	0.0000000E+000	0.0000000E+000	0.0000000E+000	-7.8505501E+001	0.0000000E+000	0.0000000E+000	0.0000000E+000	-1.1494498E+001	0.0000000E+000	0.0000000E+000	0.0000000E+000	1.1494498E+001	4.9175744E+000	7.8505501E+001	-6.732117381774717E-006	-4.9665564E-006	1.7523252E+004
6.8132047E+004	1.3254601E+000	2.8568509E-001	1.3558984E+000	-1.2163260E+001	2.644493138912367E+000	2.9499468E-001	-1.5122244E-002	8.1767578E+000	3.6299613E-001	1.000000000000000E+000	9	5.0487206E-003	3.7235245E-003	0	-2.486497594916727E-006	7.2096199E-001	1.5539365E-001	7.3751837E-001	1.2163260E+001	3.6299615E+002	1.6841511E+003	1.7228265E+003	-7.7836739E+001	0.0000000E+000	0.0000000E+000	0.0000000E+000	7.7836739E+001	0.0000000E+000	0.0000000E+000	0.0000000E+000	-7.7836739E+001	0.0000000E+000	0.0000000E+000	0.0000000E+000	-1.2163260E+001	0.0000000E+000	0.0000000E+000	0.0000000E+000	1.2163260E+001	4.6395845E+000	7.7836739E+001	4.245619786857989E-006	-4.4609815E-006	1.9507336E+004
4.6420355E+004	1.3953317E+000	3.1977141E-001	1.4315042E+000	-1.2907716E+001	3.222474073030753E+000	2.9499596E-001	-1.7449735E-002	1.0721908E+001	5.3501511E-001	1.000000000000000E+000	9	5.0465721E-003	3.5253630E-003	0	-1.242188548953790E-006	6.8091387E-001	1.5604660E-001	6.9856584E-001	1.2907716E+001	5.3501501E+002	2.3345537E+003	2.3950745E+003	-7.7092285E+001	0.0000000E+000	0.0000000E+000	0.0000000E+000	7.7092285E+001	0.0000000E+000	0.0000000E+000	0.0000000E+000	-7.7092285E+001	0.0000000E+000	0.0000000E+000	0.0000000E+000	-1.2907716E+001	0.0000000E+000	0.0000000E+000	0.0000000E+000	1.2907716E+001	4.3635287E+000	7.7092285E+001	1.244309045962938E-006	-5.1476013E-006	1.6905471E+004
3.1621139E+004	1.4703265E+000	3.6597124E-001	1.5151881E+000	-1.3977166E+001	3.801491060556145E+000	2.9498613E-001	-2.0149628E-002	1.3752944E+001	8.0233639E-001	1.000000000000000E+000	9	5.1329844E-003	3.3876880E-003	0	-8.743678597655769E-006	6.4044327E-001	1.5940937E-001	6.5998405E-001	1.3977166E+001	8.0233630E+002	3.2234675E+003	3.3218198E+003	-7.6022835E+001	0.0000000E+000	0.0000000E+000	0.0000000E+000	7.6022835E+001	0.0000000E+000	0.0000000E+000	0.0000000E+000	-7.6022835E+001	0.0000000E+000	0.0000000E+000	0.0000000E+000	-1.3977166E+001	0.0000000E+000	0.0000000E+000	0.0000000E+000	1.3977166E+001	4.0176015E+000	7.6022835E+001	-7.501490048701979E-006	-5.9438607E-006	1.4639780E+004
2.1544684E+004	1.5549967E+000	4.1400278E-001	1.6091653E+000	-1.4908607E+001	4.238486734597245E+000	2.9498547E-001	-1.9479314E-002	1.7843367E+001	1.1810871E+000	1.000000000000000E+000	9	5.1566968E-003	3.2045785E-003	0	-8.777616611500789E-006	6.0052091E-001	1.5988286E-001	6.2144017E-001	1.4908607E+001	1.1810872E+003	4.4361699E+003	4.5907046E+003	-7.5091393E+001	0.0000000E+000	0.0000000E+000	0.0000000E+000	7.5091393E+001	0.0000000E+000	0.0000000E+000	0.0000000E+000	-7.5091393E+001	0.0000000E+000	0.0000000E+000	0.0000000E+000	-1.4908607E+001	0.0000000E+000	0.0000000E+000	0.0000000E+000	1.4908607E+001	3.7560055E+000	7.5091393E+001	-3.393801384501991E-008	-5.7461148E-006	1.5143524E+004
1.4678594E+004	1.6482859E+000	4.7295821E-001	1.7147990E+000	-1.6010273E+001	4.534484828676796E+000	2.9498804E-001	-1.7822150E-002	2.2925188E+001	1.7439417E+000	1.000000000000000E+000	9	5.0233272E-003	2.9293969E-003	0	-8.654287095317462E-006	5.6053931E-001	1.6084084E-001	5.8315873E-001	1.6010273E+001	1.7439414E+003	6.0777349E+003	6.3229893E+003	-7.3989731E+001	0.0000000E+000	0.0000000E+000	0.0000000E+000	7.3989731E+001	0.0000000E+000	0.0000000E+000	0.0000000E+000	-7.3989731E+001	0.0000000E+000	0.0000000E+000	0.0000000E+000	-1.6010273E+001	0.0000000E+000	0.0000000E+000	0.0000000E+000	1.6010273E+001	3.4850562E+000	7.3989731E+001	1.233295161833268E-007	-5.2573209E-006	1.6551766E+004
1.0002226E+004	1.7580005E+000	5.3909981E-001	1.8388025E+000	-1.7048426E+001	4.830499562754994E+000	2.9498917E-001	-1.7729048E-002	2.9515783E+001	2.5370121E+000	1.000000000000000E+000	9	4.7125262E-003	2.5628235E-003	0	-1.121065632966929E-005	5.1993471E-001	1.5944064E-001	5.4383218E-001	1.7048426E+001	2.5370120E+003	8.2731777E+003	8.6534326E+003	-7.2951576E+001	0.0000000E+000	0.0000000E+000	0.0000000E+000	7.2951576E+001	0.0000000E+000	0.0000000E+000	0.0000000E+000	-7.2951576E+001	0.0000000E+000	0.0000000E+000	0.0000000E+000	-1.7048426E+001	0.0000000E+000	0.0000000E+000	0.0000000E+000	1.7048426E+001	3.2609925E+000	7.2951576E+001	-2.556369234351829E-006	-5.2298769E-006	1.6638748E+004
6.8110674E+003	1.8833704E+000	6.2454301E-001	1.9842223E+000	-1.8345997E+001	5.208524114015745E+000	2.9481512E-001	-1.1855584E-001	3.7414730E+001	3.7066932E+000	1.000000000000000E+000	9	4.5237043E-003	2.2798374E-003	0	-2.347891323734560E-005	4.7836030E-001	1.5862867E-001	5.0397581E-001	1.8345997E+001	3.7066926E+003	1.1177896E+004	1.1776457E+004	-7.1654007E+001	0.0000000E+000	0.0000000E+000	0.0000000E+000	7.1654007E+001	0.0000000E+000	0.0000000E+000	0.0000000E+000	-7.1654007E+001	0.0000000E+000	0.0000000E+000	0.0000000E+000	-1.8345997E+001	0.0000000E+000	0.0000000E+000	0.0000000E+000	1.8345997E+001	3.0155976E+000	7.1654007E+001	-1.226825690767631E-005	-3.4952052E-005	2.4867197E+003
4.6414854E+003	2.0226440E+000	7.1293831E-001	2.1446142E+000	-1.9416452E+001	5.902672013718984E+000	2.9499257E-001	1.5768146E-002	4.8096249E+001	5.3151650E+000	1.000000000000000E+000	9	5.0650230E-003	2.3617409E-003	0	-2.448255977913504E-005	4.3976545E-001	1.5500781E-001	4.6628433E-001	1.9416452E+001	5.3151641E+003	1.5079406E+004	1.5988729E+004	-7.0583549E+001	0.0000000E+000	0.0000000E+000	0.0000000E+000	7.0583549E+001	0.0000000E+000	0.0000000E+000	0.0000000E+000	-7.0583549E+001	0.0000000E+000	0.0000000E+000	0.0000000E+000	-1.9416452E+001	0.0000000E+000	0.0000000E+000	0.0000000E+000	1.9416452E+001	2.8370533E+000	7.0583549E+001	-1.003646541789443E-006	4.6514861E-006	1.8708133E+004
3.1610117E+003	2.1788571E+000	8.2560962E-001	2.3300321E+000	-2.0752634E+001	6.369683689234080E+000	2.9499903E-001	1.4725421E-002	6.0984474E+001	7.6567588E+000	1.000000000000000E+000	9	4.9896431E-003	2.1414482E-003	0	-2.219969937344366E-005	4.0133306E-001	1.5207259E-001	4.2917863E-001	2.0752634E+001	7.6567583E+003	2.0206867E+004	2.1608873E+004	-6.9247368E+001	0.0000000E+000	0.0000000E+000	0.0000000E+000	6.9247368E+001	0.0000000E+000	0.0000000E+000	0.0000000E+000	-6.9247368E+001	0.0000000E+000	0.0000000E+000	0.0000000E+000	-2.0752634E+001	0.0000000E+000	0.0000000E+000	0.0000000E+000	2.0752634E+001	2.6390889E+000	6.9247368E+001	2.282860405691382E-006	4.3439850E-006	2.0033318E+004
2.1556899E+003	2.3663747E+000	9.5822370E-001	2.5530221E+000	-2.2044659E+001	6.836689951414883E+000	2.9499960E-001	1.0908335E-002	7.7048981E+001	1.0854044E+001	1.000000000000000E+000	9	4.9468460E-003	1.9376433E-003	0	-2.264527523841631E-005	3.6305660E-001	1.4701366E-001	3.9169264E-001	2.2044659E+001	1.0854045E+004	2.6804527E+004	2.8918730E+004	-6.7955338E+001	0.0000000E+000	0.0000000E+000	0.0000000E+000	6.7955338E+001	0.0000000E+000	0.0000000E+000	0.0000000E+000	-6.7955338E+001	0.0000000E+000	0.0000000E+000	0.0000000E+000	-2.2044659E+001	0.0000000E+000	0.0000000E+000	0.0000000E+000	2.2044659E+001	2.4695432E+000	6.7955338E+001	-4.455758649726506E-007	3.2179544E-006	2.7043506E+004
1.4685898E+003	2.5571768E+000	1.1180859E+000	2.7909262E+000	-2.3616608E+001	7.303938080265652E+000	2.9499635E-001	1.2807566E-002	9.6926933E+001	1.5556005E+001	1.000000000000000E+000	9	4.9224193E-003	1.7637225E-003	0	-2.230294617857241E-005	3.2829484E-001	1.4354183E-001	3.5830399E-001	2.3616608E+001	1.5556004E+004	3.5578172E+004	3.8830344E+004	-6.6383392E+001	0.0000000E+000	0.0000000E+000	0.0000000E+000	6.6383392E+001	0.0000000E+000	0.0000000E+000	0.0000000E+000	-6.6383392E+001	0.0000000E+000	0.0000000E+000	0.0000000E+000	-2.3616608E+001	0.0000000E+000	0.0000000E+000	0.0000000E+000	2.3616608E+001	2.2871025E+000	6.6383392E+001	3.423290598439054E-007	3.7781851E-006	2.3032977E+004
1.0003202E+003	2.7722242E+000	1.3255821E+000	3.0728481E+000	-2.5555521E+001	7.772678529203404E+000	2.9499787E-001	1.2639988E-002	1.2002575E+002	2.2336008E+001	1.000000000000000E+000	9	4.9011381E-003	1.5949822E-003	0	-2.049669153845429E-005	2.9359332E-001	1.4038622E-001	3.2543099E-001	2.5555521E+001	2.2336008E+004	4.6711875E+004	5.1777375E+004	-6.4444481E+001	0.0000000E+000	0.0000000E+000	0.0000000E+000	6.4444481E+001	0.0000000E+000	0.0000000E+000	0.0000000E+000	-6.4444481E+001	0.0000000E+000	0.0000000E+000	0.0000000E+000	-2.5555521E+001	0.0000000E+000	0.0000000E+000	0.0000000E+000	2.5555521E+001	2.0913258E+000	6.4444481E+001	1.806254640118113E-006	3.7287696E-006	2.3338461E+004
6.8108978E+002	2.9982269E+000	1.5995033E+000	3.3982017E+000	-2.8079166E+001	8.492417683330132E+000	2.9495931E-001	-1.4350294E-002	1.4609341E+002	3.2367012E+001	1.000000000000000E+000	10	4.9669920E-003	1.4616530E-003	0	-2.213459945868332E-005	2.5963676E-001	1.3851182E-001	2.9427329E-001	2.8079166E+001	3.2367014E+004	6.0671117E+004	6.8764875E+004	-6.1920834E+001	0.0000000E+000	0.0000000E+000	0.0000000E+000	6.1920834E+001	0.0000000E+000	0.0000000E+000	0.0000000E+000	-6.1920834E+001	0.0000000E+000	0.0000000E+000	0.0000000E+000	-2.8079166E+001	0.0000000E+000	0.0000000E+000	0.0000000E+000	2.8079166E+001	1.8744737E+000	6.1920837E+001	-1.637907920229028E-006	-4.2327529E-006	2.0554234E+004
4.6396069E+002	3.2867043E+000	1.9796505E+000	3.8368530E+000	-3.1061432E+001	8.961217918928014E+000	2.9496473E-001	-1.3707998E-002	1.7328078E+002	4.6129326E+001	1.000000000000000E+000	10	4.9326560E-003	1.2855994E-003	0	-2.416861724661430E-005	2.2325967E-001	1.3447395E-001	2.6063025E-001	3.1061432E+001	4.6129328E+004	7.6585977E+004	8.9405406E+004	-5.8938568E+001	0.0000000E+000	0.0000000E+000	0.0000000E+000	5.8938568E+001	0.0000000E+000	0.0000000E+000	0.0000000E+000	-5.8938568E+001	0.0000000E+000	0.0000000E+000	0.0000000E+000	-3.1061432E+001	0.0000000E+000	0.0000000E+000	0.0000000E+000	3.1061432E+001	1.6602447E+000	5.8938568E+001	-2.034017787930984E-006	-4.0433761E-006	2.1517711E+004
3.1631589E+002	3.6688373E+000	2.4896288E+000	4.4338040E+000	-3.4160343E+001	9.427926127798855E+000	2.9496196E-001	-1.3313315E-002	2.0209918E+002	6.3720730E+001	1.000000000000000E+000	10	4.9083168E-003	1.1070216E-003	0	-2.558206752408296E-005	1.8662743E-001	1.2664312E-001	2.2553997E-001	3.4160343E+001	6.3720727E+004	9.3901938E+004	1.1348086E+005	-5.5839657E+001	0.0000000E+000	0.0000000E+000	0.0000000E+000	5.5839657E+001	0.0000000E+000	0.0000000E+000	0.0000000E+000	-5.5839657E+001	0.0000000E+000	0.0000000E+000	0.0000000E+000	-3.4160343E+001	0.0000000E+000	0.0000000E+000	0.0000000E+000	3.4160343E+001	1.4736483E+000	5.5839661E+001	-1.413450277468653E-006	-3.9269216E-006	2.2155410E+004
2.1534457E+002	4.2089076E+000	3.1462853E+000	5.2549038E+000	-3.6779224E+001	9.895451723336009E+000	2.9495776E-001	-1.3706139E-002	2.3490277E+002	8.4208275E+001	1.000000000000000E+000	10	4.8971367E-003	9.3191752E-004	0	-2.638092078069652E-005	1.5241925E-001	1.1393800E-001	1.9029844E-001	3.6779224E+001	8.4208281E+004	1.1264866E+005	1.4064408E+005	-5.3220776E+001	0.0000000E+000	0.0000000E+000	0.0000000E+000	5.3220776E+001	0.0000000E+000	0.0000000E+000	0.0000000E+000	-5.3220776E+001	0.0000000E+000	0.0000000E+000	0.0000000E+000	-3.6779224E+001	0.0000000E+000	0.0000000E+000	0.0000000E+000	3.6779224E+001	1.3377388E+000	5.3220779E+001	-7.988532566135593E-007	-4.0427321E-006	2.1520119E+004
1.4673740E+002	4.9882770E+000	3.9247432E+000	6.3471661E+000	-3.8195431E+001	1.035838003861136E+001	2.9495406E-001	-1.4584878E-002	2.7635547E+002	1.0566492E+002	1.000000000000000E+000	10	4.8888298E-003	7.7023823E-004	0	-2.834724630642449E-005	1.2382002E-001	9.7420759E-002	1.5755063E-001	3.8195431E+001	1.0566491E+005	1.3429819E+005	1.7088323E+005	-5.1804569E+001	0.0000000E+000	0.0000000E+000	0.0000000E+000	5.1804569E+001	0.0000000E+000	0.0000000E+000	0.0000000E+000	-5.1804569E+001	0.0000000E+000	0.0000000E+000	0.0000000E+000	-3.8195431E+001	0.0000000E+000	0.0000000E+000	0.0000000E+000	3.8195431E+001	1.2709818E+000	5.1804565E+001	-1.966325525727977E-006	-4.3018690E-006	2.0223279E+004
1.0003201E+002	6.0621295E+000	4.7649698E+000	7.7106647E+000	-3.8168140E+001	1.082569323421194E+001	2.9496258E-001	-1.3495788E-002	3.3390350E+002	1.2751394E+002	1.000000000000000E+000	10	4.8800181E-003	6.3289201E-004	0	-3.049546739395979E-005	1.0196275E-001	8.0145009E-002	1.2969050E-001	3.8168140E+001	1.2751392E+005	1.6222683E+005	2.0634278E+005	-5.1831860E+001	0.0000000E+000	0.0000000E+000	0.0000000E+000	5.1831860E+001	0.0000000E+000	0.0000000E+000	0.0000000E+000	-5.1831860E+001	0.0000000E+000	0.0000000E+000	0.0000000E+000	-3.8168140E+001	0.0000000E+000	0.0000000E+000	0.0000000E+000	3.8168140E+001	1.2722284E+000	5.1831863E+001	-2.148221087535300E-006	-3.9807524E-006	2.1855900E+004
6.8103981E+001	7.4737811E+000	5.5276570E+000	9.2958269E+000	-3.6486870E+001	1.130434333693120E+001	2.9496324E-001	-1.2222383E-002	4.2277234E+002	1.4949017E+002	1.000000000000000E+000	10	4.8714741E-003	5.2404957E-004	0	-3.240291070991467E-005	8.6489685E-002	6.3968338E-002	1.0757516E-001	3.6486870E+001	1.4949019E+005	2.0212125E+005	2.5139673E+005	-5.3513130E+001	0.0000000E+000	0.0000000E+000	0.0000000E+000	5.3513130E+001	0.0000000E+000	0.0000000E+000	0.0000000E+000	-5.3513130E+001	0.0000000E+000	0.0000000E+000	0.0000000E+000	-3.6486870E+001	0.0000000E+000	0.0000000E+000	0.0000000E+000	3.6486870E+001	1.3520703E+000	5.3513130E+001	-1.907443315954879E-006	-3.6051538E-006	2.4133039E+004
4.6441547E+001	9.1794701E+000	6.1378665E+000	1.1042467E+001	-3.3768726E+001	1.175954677184927E+001	2.9496196E-001	-1.5651645E-002	5.5833649E+002	1.7250380E+002	1.000000000000000E+000	10	4.8758741E-003	4.4155659E-004	0	-3.434599251833667E-005	7.5281002E-002	5.0336756E-002	9.0559475E-002	3.3768726E+001	1.7250381E+005	2.5798763E+005	3.1034688E+005	-5.6231274E+001	0.0000000E+000	0.0000000E+000	0.0000000E+000	5.6231274E+001	0.0000000E+000	0.0000000E+000	0.0000000E+000	-5.6231274E+001	0.0000000E+000	0.0000000E+000	0.0000000E+000	-3.3768726E+001	0.0000000E+000	0.0000000E+000	0.0000000E+000	3.3768726E+001	1.4955474E+000	5.6231277E+001	-1.943081808421994E-006	-4.6166401E-006	1.8845428E+004
3.1629555E+001	1.1059397E+001	6.4359856E+000	1.2795787E+001	-3.0197147E+001	1.220643879307318E+001	2.9495803E-001	-1.7396066E-002	7.8182941E+002	1.9779172E+002	1.000000000000000E+000	10	4.8692324E-003	3.8053404E-004	0	-3.622854184464733E-005	6.7545660E-002	3.9308012E-002	7.8150727E-002	3.0197147E+001	1.9779172E+005	3.3987909E+005	3.9324213E+005	-5.9802853E+001	0.0000000E+000	0.0000000E+000	0.0000000E+000	5.9802853E+001	0.0000000E+000	0.0000000E+000	0.0000000E+000	-5.9802853E+001	0.0000000E+000	0.0000000E+000	0.0000000E+000	-3.0197147E+001	0.0000000E+000	0.0000000E+000	0.0000000E+000	3.0197147E+001	1.7183688E+000	5.9802856E+001	-1.882549326310663E-006	-5.1311094E-006	1.6955443E+004
2.1551722E+001	1.3020897E+001	6.4656677E+000	1.4537834E+001	-2.6407194E+001	1.264535862728371E+001	2.9494867E-001	-1.9451389E-002	1.1421542E+003	2.2591866E+002	1.000000000000000E+000	10	4.8722480E-003	3.3514263E-004	0	-3.825083405946174E-005	6.1608624E-002	3.0592429E-002	6.8786040E-002	2.6407194E+001	2.2591869E+005	4.5496675E+005	5.0797047E+005	-6.3592804E+001	0.0000000E+000	0.0000000E+000	0.0000000E+000	6.3592804E+001	0.0000000E+000	0.0000000E+000	0.0000000E+000	-6.3592804E+001	0.0000000E+000	0.0000000E+000	0.0000000E+000	-2.6407194E+001	0.0000000E+000	0.0000000E+000	0.0000000E+000	2.6407194E+001	2.0138519E+000	6.3592804E+001	-2.022292214814414E-006	-5.7371612E-006	1.5163373E+004
1.4685154E+001	1.4878620E+001	6.1974268E+000	1.6117737E+001	-2.2613308E+001	1.338302364898846E+001	2.9497793E-001	-6.9774883E-003	1.7487600E+003	2.5855020E+002	1.000000000000000E+000	11	4.8694946E-003	3.0212023E-004	0	-4.259770264037959E-005	5.7273608E-002	2.3856312E-002	6.2043451E-002	2.2613308E+001	2.5855025E+005	6.2072056E+005	6.7241525E+005	-6.7386688E+001	0.0000000E+000	0.0000000E+000	0.0000000E+000	6.7386688E+001	0.0000000E+000	0.0000000E+000	0.0000000E+000	-6.7386688E+001	0.0000000E+000	0.0000000E+000	0.0000000E+000	-2.2613308E+001	0.0000000E+000	0.0000000E+000	0.0000000E+000	2.2613308E+001	2.4007738E+000	6.7386688E+001	-4.346868580917851E-006	-2.0582052E-006	4.2275660E+004
