
EC-Lab ASCII FILE
Nb header lines : 63                          

Potentio Electrochemical Impedance Spectroscopy

Run on channel : 1 (SN 66354)
User : 
CE vs. WE compliance from -10 V to 10 V
Electrode connection : standard
Potential control : Ewe
Ewe ctrl range : min = -10.00 V, max = 10.00 V
Safety Limits :
	Do not start on E overload
Acquisition started on : 09/11/2025 16:15:27.841
Loaded Setting File :  C:\Users\Celltest\OneDrive - store-dot.com\Documents\EC-Lab\Data\Gyutae\EIS_SOC0_C01.mpr
Saved on :
	File : 17454_C01.mpr
	Directory : C:\Users\Celltest\OneDrive - store-dot.com\Documents\EC-Lab\Data\John\R281\
	Host : 169.254.61.224
Device : VMP-3e (SN .003165)
Address : USB
EC-LAB for windows v11.62 (software)
Internet server v27.00 (firmware)
Command interpretor v12.03 (firmware)
Electrode material : 
Initial state : 
Electrolyte : 
Comments : 
Electrode surface area : 0.001 cm²
Characteristic mass : 0.001 g
Equivalent Weight : 0.000 g/eq.
Density : 0.000 g/cm3
Volume (V) : 0.001 cm³
Cycle Definition : Charge/Discharge alternance
Mode                Single sine         
E (V)               0.0000              
vs.                 Eoc                 
tE (h:m:s)          0:00:0.0000         
record              0                   
dI                  0.000               
unit dI             mA                  
dt (s)              0.000               
fi                  100.000             
unit fi             kHz                 
ff                  10.000              
unit ff             mHz                 
Nd                  6                   
Points              per decade          
spacing             Logarithmic         
Va (mV)             5.0                 
pw                  0.10                
Na                  2                   
corr                0                   
E range min (V)     -10.000             
E range max (V)     10.000              
I Range             Auto                
Bandwidth           5                   
nc cycles           0                   
goto Ns'            0                   
nr cycles           0                   
inc. cycle          0                   

freq/Hz	Re(Z)/Ohm	-Im(Z)/Ohm	|Z|/Ohm	Phase(Z)/deg	time/s	<Ewe>/V	<I>/mA	Cs/µF	Cp/µF	cycle number	I Range	|Ewe|/V	|I|/A	Ns	(Q-Qo)/mA.h	Re(Y)/Ohm-1	Im(Y)/Ohm-1	|Y|/Ohm-1	Phase(Y)/deg	Re(C)/nF	Im(C)/nF	|C|/nF	Phase(C)/deg	Re(M)	Im(M)	|M|	Phase(M)/deg	Re(Permittivity)	Im(Permittivity)	|Permittivity|	Phase(Permittivity)/deg	Re(Resistivity)/Ohm.cm	Im(Resistivity)/Ohm.cm	|Resistivity|/Ohm.cm	Phase(Resistivity)/deg	Re(Conductivity)/mS/cm	Im(Conductivity)/mS/cm	|Conductivity|/mS/cm	Phase(Conductivity)/deg	Tan(Delta)	Loss Angle(Delta)/deg	dq/mA.h	Pwe/W	Rwe/Ohm	
1.0000371E+005	2.0173733E+000	3.4394068E-001	2.0464823E+000	-9.6752939E+000	2.068491431564325E+000	2.9624259E-001	3.3617467E-002	4.6272230E+000	1.3069879E-001	1.000000000000000E+000	9	4.5577227E-003	2.2271010E-003	0	4.012843076294909E-007	4.8169291E-001	8.2123518E-002	4.8864335E-001	9.6752939E+000	1.3069878E+002	7.6660962E+002	7.7767120E+002	-8.0324707E+001	0.0000000E+000	0.0000000E+000	0.0000000E+000	8.0324707E+001	0.0000000E+000	0.0000000E+000	0.0000000E+000	-8.0324707E+001	0.0000000E+000	0.0000000E+000	0.0000000E+000	-9.6752939E+000	0.0000000E+000	0.0000000E+000	0.0000000E+000	9.6752939E+000	5.8654690E+000	8.0324707E+001	4.012843076294909E-007	9.9589251E-006	8.8121631E+003
6.8132047E+004	2.0992312E+000	3.6903110E-001	2.1314211E+000	-9.9703503E+000	2.646475112327607E+000	2.9624864E-001	3.1102804E-002	6.3300295E+000	1.8975496E-001	1.000000000000000E+000	9	5.0422857E-003	2.3656921E-003	0	4.744865718336466E-006	4.6208489E-001	8.1231497E-002	4.6917054E-001	9.9703503E+000	1.8975500E+002	1.0794199E+003	1.0959719E+003	-8.0029648E+001	0.0000000E+000	0.0000000E+000	0.0000000E+000	8.0029648E+001	0.0000000E+000	0.0000000E+000	0.0000000E+000	-8.0029648E+001	0.0000000E+000	0.0000000E+000	0.0000000E+000	-9.9703503E+000	0.0000000E+000	0.0000000E+000	0.0000000E+000	9.9703503E+000	5.6884942E+000	8.0029648E+001	4.343581410706975E-006	9.2141636E-006	9.5248213E+003
4.6420355E+004	2.1882536E+000	4.0317151E-001	2.2250845E+000	-1.0439303E+001	3.224494099820731E+000	2.9624560E-001	3.8833074E-002	8.5039721E+000	2.7919555E-001	1.000000000000000E+000	9	5.1034018E-003	2.2935765E-003	0	7.803506752450227E-006	4.4198206E-001	8.1432328E-002	4.4942114E-001	1.0439303E+001	2.7919550E+002	1.5153617E+003	1.5408671E+003	-7.9560699E+001	0.0000000E+000	0.0000000E+000	0.0000000E+000	7.9560699E+001	0.0000000E+000	0.0000000E+000	0.0000000E+000	-7.9560699E+001	0.0000000E+000	0.0000000E+000	0.0000000E+000	-1.0439303E+001	0.0000000E+000	0.0000000E+000	0.0000000E+000	1.0439303E+001	5.4275999E+000	7.9560699E+001	3.058641034113761E-006	1.1504128E-005	7.6286929E+003
3.1621139E+004	2.2729445E+000	4.5987830E-001	2.3190007E+000	-1.1438081E+001	3.802491913927952E+000	2.9624578E-001	3.7193883E-002	1.0944596E+001	4.3041143E-001	1.000000000000000E+000	9	5.0892234E-003	2.1945760E-003	0	1.492222705855966E-005	4.2265603E-001	8.5514776E-002	4.3122023E-001	1.1438081E+001	4.3041138E+002	2.1273047E+003	2.1704099E+003	-7.8561920E+001	0.0000000E+000	0.0000000E+000	0.0000000E+000	7.8561920E+001	0.0000000E+000	0.0000000E+000	0.0000000E+000	-7.8561920E+001	0.0000000E+000	0.0000000E+000	0.0000000E+000	-1.1438081E+001	0.0000000E+000	0.0000000E+000	0.0000000E+000	1.1438081E+001	4.9424911E+000	7.8561920E+001	7.118720306109430E-006	1.1018531E-005	7.9649058E+003
2.1544684E+004	2.3707860E+000	5.1925439E-001	2.4269841E+000	-1.2353961E+001	4.098487394658150E+000	2.9623768E-001	3.5293896E-002	1.4226558E+001	6.5121794E-001	1.000000000000000E+000	9	4.7509060E-003	1.9575348E-003	0	1.885840466655403E-005	4.0249315E-001	8.8154867E-002	4.1203400E-001	1.2353961E+001	6.5121771E+002	2.9732983E+003	3.0437786E+003	-7.7646042E+001	0.0000000E+000	0.0000000E+000	0.0000000E+000	7.7646042E+001	0.0000000E+000	0.0000000E+000	0.0000000E+000	-7.7646042E+001	0.0000000E+000	0.0000000E+000	0.0000000E+000	-1.2353961E+001	0.0000000E+000	0.0000000E+000	0.0000000E+000	1.2353961E+001	4.5657506E+000	7.7646042E+001	3.936177607994371E-006	1.0455382E-005	8.3934541E+003
1.4678594E+004	2.4892995E+000	5.8033001E-001	2.5560508E+000	-1.3122964E+001	4.535478162084473E+000	2.9624614E-001	3.5182130E-002	1.8683603E+001	9.6310079E-001	1.000000000000000E+000	9	4.8419377E-003	1.8943042E-003	0	2.351491537391363E-005	3.8101161E-001	8.8825174E-002	3.9122853E-001	1.3122964E+001	9.6310077E+002	4.1311782E+003	4.2419565E+003	-7.6877037E+001	0.0000000E+000	0.0000000E+000	0.0000000E+000	7.6877037E+001	0.0000000E+000	0.0000000E+000	0.0000000E+000	-7.6877037E+001	0.0000000E+000	0.0000000E+000	0.0000000E+000	-1.3122964E+001	0.0000000E+000	0.0000000E+000	0.0000000E+000	1.3122964E+001	4.2894549E+000	7.6877037E+001	4.656510707359606E-006	1.0422570E-005	8.4203584E+003
1.0002226E+004	2.6119456E+000	6.7005396E-001	2.6965222E+000	-1.4388070E+001	4.832479322823929E+000	2.9624635E-001	3.7678171E-002	2.3747272E+001	1.4663082E+000	1.000000000000000E+000	9	4.5229704E-003	1.6773348E-003	0	2.552574653867891E-005	3.5921639E-001	9.2151366E-002	3.7084806E-001	1.4388070E+001	1.4663080E+003	5.7158335E+003	5.9009160E+003	-7.5611931E+001	0.0000000E+000	0.0000000E+000	0.0000000E+000	7.5611931E+001	0.0000000E+000	0.0000000E+000	0.0000000E+000	-7.5611931E+001	0.0000000E+000	0.0000000E+000	0.0000000E+000	-1.4388070E+001	0.0000000E+000	0.0000000E+000	0.0000000E+000	1.4388070E+001	3.8981123E+000	7.5611931E+001	2.010831164765275E-006	1.1162020E-005	7.8625459E+003
6.8110674E+003	2.7557795E+000	7.7385259E-001	2.8623712E+000	-1.5685314E+001	5.387500202545198E+000	2.9616156E-001	3.4250770E-002	3.0195812E+001	2.2070456E+000	1.000000000000000E+000	9	4.8533496E-003	1.6955696E-003	0	2.863427545892126E-005	3.3635089E-001	9.4450951E-002	3.4936070E-001	1.5685314E+001	2.2070461E+003	7.8595469E+003	8.1635488E+003	-7.4314682E+001	0.0000000E+000	0.0000000E+000	0.0000000E+000	7.4314682E+001	0.0000000E+000	0.0000000E+000	0.0000000E+000	-7.4314682E+001	0.0000000E+000	0.0000000E+000	0.0000000E+000	-1.5685314E+001	0.0000000E+000	0.0000000E+000	0.0000000E+000	1.5685314E+001	3.5611169E+000	7.4314682E+001	3.108528920242356E-006	1.0143762E-005	8.6468584E+003
4.6414854E+003	2.9347990E+000	8.8264424E-001	3.0646544E+000	-1.6738720E+001	5.858697398296499E+000	2.9634991E-001	1.0374873E-001	3.8848785E+001	3.2224474E+000	1.000000000000000E+000	9	4.7866413E-003	1.5618862E-003	0	4.161767687900121E-005	3.1247506E-001	9.3977235E-002	3.2630107E-001	1.6738720E+001	3.2224475E+003	1.0714662E+004	1.1188751E+004	-7.3261276E+001	0.0000000E+000	0.0000000E+000	0.0000000E+000	7.3261276E+001	0.0000000E+000	0.0000000E+000	0.0000000E+000	-7.3261276E+001	0.0000000E+000	0.0000000E+000	0.0000000E+000	-1.6738720E+001	0.0000000E+000	0.0000000E+000	0.0000000E+000	1.6738720E+001	3.3250077E+000	7.3261276E+001	1.298340142007995E-005	3.0745927E-005	2.8564197E+003
3.1610117E+003	3.1393514E+000	1.0400686E+000	3.3071544E+000	-1.8330057E+001	6.325707767144195E+000	2.9635331E-001	9.9147826E-002	4.8409660E+001	4.7879219E+000	1.000000000000000E+000	9	4.7423984E-003	1.4339816E-003	0	5.281169112710955E-005	2.8703246E-001	9.5093980E-002	3.0237475E-001	1.8330057E+001	4.7879209E+003	1.4451901E+004	1.5224377E+004	-7.1669945E+001	0.0000000E+000	0.0000000E+000	0.0000000E+000	7.1669945E+001	0.0000000E+000	0.0000000E+000	0.0000000E+000	-7.1669945E+001	0.0000000E+000	0.0000000E+000	0.0000000E+000	-1.8330057E+001	0.0000000E+000	0.0000000E+000	0.0000000E+000	1.8330057E+001	3.0184078E+000	7.1669945E+001	1.119401424810834E-005	2.9382787E-005	2.9890046E+003
2.1556899E+003	3.3720603E+000	1.1842922E+000	3.5739808E+000	-1.9351646E+001	6.792701149322966E+000	2.9634610E-001	1.0045172E-001	6.2341175E+001	6.8452334E+000	1.000000000000000E+000	9	4.7179577E-003	1.3200848E-003	0	6.609027267187938E-005	2.6399210E-001	9.2715949E-002	2.7980006E-001	1.9351646E+001	6.8452334E+003	1.9490578E+004	2.0657684E+004	-7.0648354E+001	0.0000000E+000	0.0000000E+000	0.0000000E+000	7.0648354E+001	0.0000000E+000	0.0000000E+000	0.0000000E+000	-7.0648354E+001	0.0000000E+000	0.0000000E+000	0.0000000E+000	-1.9351646E+001	0.0000000E+000	0.0000000E+000	0.0000000E+000	1.9351646E+001	2.8473213E+000	7.0648354E+001	1.327858154476983E-005	2.9768476E-005	2.9501345E+003
1.4685898E+003	3.6503148E+000	1.3896924E+000	3.9058986E+000	-2.0842070E+001	7.513931583554950E+000	2.9628134E-001	-9.0345331E-003	7.7983177E+001	9.8718014E+000	1.000000000000000E+000	10	4.7988631E-003	1.2286195E-003	0	7.118322242912190E-005	2.3927008E-001	9.1091268E-002	2.5602302E-001	2.0842070E+001	9.8718008E+003	2.5930328E+004	2.7745889E+004	-6.9157928E+001	0.0000000E+000	0.0000000E+000	0.0000000E+000	6.9157928E+001	0.0000000E+000	0.0000000E+000	0.0000000E+000	-6.9157928E+001	0.0000000E+000	0.0000000E+000	0.0000000E+000	-2.0842070E+001	0.0000000E+000	0.0000000E+000	0.0000000E+000	2.0842070E+001	2.6267071E+000	6.9157928E+001	5.092949757242522E-006	-2.6767636E-006	3.2794316E+004
1.0003202E+003	3.9490409E+000	1.6178836E+000	4.2676072E+000	-2.2278435E+001	7.983671152564057E+000	2.9628643E-001	-9.2730587E-003	9.8340820E+001	1.4133817E+001	1.000000000000000E+000	10	4.7648884E-003	1.1165246E-003	0	6.928528994861214E-005	2.1683170E-001	8.8833831E-002	2.3432335E-001	2.2278435E+001	1.4133817E+004	3.4498789E+004	3.7281781E+004	-6.7721565E+001	0.0000000E+000	0.0000000E+000	0.0000000E+000	6.7721565E+001	0.0000000E+000	0.0000000E+000	0.0000000E+000	-6.7721565E+001	0.0000000E+000	0.0000000E+000	0.0000000E+000	-2.2278435E+001	0.0000000E+000	0.0000000E+000	0.0000000E+000	2.2278435E+001	2.4408684E+000	6.7721565E+001	-1.897932480509758E-006	-2.7474814E-006	3.1951316E+004
6.8108978E+002	4.2769718E+000	1.9018153E+000	4.6807466E+000	-2.3972992E+001	8.449417707946850E+000	2.9629076E-001	-8.5761249E-003	1.2287046E+002	2.0284012E+001	1.000000000000000E+000	10	4.7346698E-003	1.0115203E-003	0	6.765730117675815E-005	1.9521183E-001	8.6803667E-002	2.1364114E-001	2.3972992E+001	2.0284010E+004	4.5616488E+004	4.9922992E+004	-6.6027008E+001	0.0000000E+000	0.0000000E+000	0.0000000E+000	6.6027008E+001	0.0000000E+000	0.0000000E+000	0.0000000E+000	-6.6027008E+001	0.0000000E+000	0.0000000E+000	0.0000000E+000	-2.3972992E+001	0.0000000E+000	0.0000000E+000	0.0000000E+000	2.3972992E+001	2.2488892E+000	6.6027008E+001	-1.627988771853988E-006	-2.5410266E-006	3.4548324E+004
4.6396069E+002	4.6562166E+000	2.2698302E+000	5.1800079E+000	-2.5988483E+001	8.918214983568760E+000	2.9629007E-001	-8.8761421E-003	1.5112820E+002	2.9018265E+001	1.000000000000000E+000	10	4.7189007E-003	9.1098325E-004	0	6.684344665447457E-005	1.7352910E-001	8.4592625E-002	1.9304989E-001	2.5988483E+001	2.9018264E+004	5.9526633E+004	6.6222953E+004	-6.4011520E+001	0.0000000E+000	0.0000000E+000	0.0000000E+000	6.4011520E+001	0.0000000E+000	0.0000000E+000	0.0000000E+000	-6.4011520E+001	0.0000000E+000	0.0000000E+000	0.0000000E+000	-2.5988483E+001	0.0000000E+000	0.0000000E+000	0.0000000E+000	2.5988483E+001	2.0513501E+000	6.4011520E+001	-8.138545222835883E-007	-2.6299128E-006	3.3380500E+004
3.1631589E+002	5.1148162E+000	2.7532845E+000	5.8087797E+000	-2.8293396E+001	9.384921672433848E+000	2.9628494E-001	-8.9171445E-003	1.8274608E+002	4.1056355E+001	1.000000000000000E+000	10	4.7065699E-003	8.1025105E-004	0	6.545885374644745E-005	1.5158640E-001	8.1598327E-002	1.7215319E-001	2.8293396E+001	4.1056355E+004	7.6270984E+004	8.6619211E+004	-6.1706604E+001	0.0000000E+000	0.0000000E+000	0.0000000E+000	6.1706604E+001	0.0000000E+000	0.0000000E+000	0.0000000E+000	-6.1706604E+001	0.0000000E+000	0.0000000E+000	0.0000000E+000	-2.8293396E+001	0.0000000E+000	0.0000000E+000	0.0000000E+000	2.8293396E+001	1.8577144E+000	6.1706604E+001	-1.384592908027117E-006	-2.6420157E-006	3.3226438E+004
2.1534457E+002	5.7060180E+000	3.3723292E+000	6.6280651E+000	-3.0583628E+001	9.852452147955773E+000	2.9627976E-001	-8.4456922E-003	2.1915746E+002	5.6733902E+001	1.000000000000000E+000	10	4.6954504E-003	7.0841948E-004	0	6.374298180885428E-005	1.2988518E-001	7.6763794E-002	1.5087359E-001	3.0583628E+001	5.6733895E+004	9.5994383E+004	1.1150630E+005	-5.9416374E+001	0.0000000E+000	0.0000000E+000	0.0000000E+000	5.9416374E+001	0.0000000E+000	0.0000000E+000	0.0000000E+000	-5.9416374E+001	0.0000000E+000	0.0000000E+000	0.0000000E+000	-3.0583628E+001	0.0000000E+000	0.0000000E+000	0.0000000E+000	3.0583628E+001	1.6920110E+000	5.9416374E+001	-1.715871937593165E-006	-2.5022878E-006	3.5080578E+004
1.4673740E+002	6.5094399E+000	4.1250672E+000	7.7064252E+000	-3.2362656E+001	1.031538043657201E+001	2.9628196E-001	-9.9569652E-003	2.6293494E+002	7.5336319E+001	1.000000000000000E+000	10	4.6897596E-003	6.0855190E-004	0	6.294035871051084E-005	1.0960685E-001	6.9458447E-002	1.2976184E-001	3.2362656E+001	7.5336328E+004	1.1888226E+005	1.4074286E+005	-5.7637344E+001	0.0000000E+000	0.0000000E+000	0.0000000E+000	5.7637344E+001	0.0000000E+000	0.0000000E+000	0.0000000E+000	-5.7637344E+001	0.0000000E+000	0.0000000E+000	0.0000000E+000	-3.2362656E+001	0.0000000E+000	0.0000000E+000	0.0000000E+000	3.2362656E+001	1.5780203E+000	5.7637344E+001	-8.026230983434400E-007	-2.9500693E-006	2.9756252E+004
1.0003201E+002	7.5744939E+000	4.9692898E+000	9.0590725E+000	-3.3267105E+001	1.078371035221790E+001	2.9628029E-001	-8.6674467E-003	3.2017456E+002	9.6340302E+001	1.000000000000000E+000	10	4.6895198E-003	5.1766005E-004	0	6.239435512540068E-005	9.2296697E-002	6.0551770E-002	1.1038658E-001	3.3267105E+001	9.6340289E+004	1.4684773E+005	1.7562947E+005	-5.6732895E+001	0.0000000E+000	0.0000000E+000	0.0000000E+000	5.6732895E+001	0.0000000E+000	0.0000000E+000	0.0000000E+000	-5.6732895E+001	0.0000000E+000	0.0000000E+000	0.0000000E+000	-3.3267105E+001	0.0000000E+000	0.0000000E+000	0.0000000E+000	3.3267105E+001	1.5242609E+000	5.6732895E+001	-5.460035851101593E-007	-2.5679938E-006	3.4183113E+004
6.8103981E+001	8.9482107E+000	5.7977500E+000	1.0662288E+001	-3.2940125E+001	1.126230381490313E+001	2.9628581E-001	-5.5852719E-003	4.0307712E+002	1.1918080E+002	1.000000000000000E+000	10	4.6802391E-003	4.3895261E-004	0	6.203138957061674E-005	7.8710996E-002	5.0998654E-002	9.3788505E-002	3.2940125E+001	1.1918080E+005	1.8394289E+005	2.1917813E+005	-5.7059875E+001	0.0000000E+000	0.0000000E+000	0.0000000E+000	5.7059875E+001	0.0000000E+000	0.0000000E+000	0.0000000E+000	-5.7059875E+001	0.0000000E+000	0.0000000E+000	0.0000000E+000	-3.2940125E+001	0.0000000E+000	0.0000000E+000	0.0000000E+000	3.2940125E+001	1.5433937E+000	5.7059875E+001	-3.629655547839484E-007	-1.6548368E-006	5.3047695E+004
4.6441547E+001	1.0649199E+001	6.5238123E+000	1.2488618E+001	-3.1492077E+001	1.171752591655240E+001	2.9627421E-001	-1.1824170E-002	5.2530554E+002	1.4334619E+002	1.000000000000000E+000	10	4.6795472E-003	3.7470498E-004	0	6.065890091020426E-005	6.8279162E-002	4.1828539E-002	8.0072910E-002	3.1492077E+001	1.4334619E+005	2.3399233E+005	2.7440944E+005	-5.8507923E+001	0.0000000E+000	0.0000000E+000	0.0000000E+000	5.8507923E+001	0.0000000E+000	0.0000000E+000	0.0000000E+000	-5.8507923E+001	0.0000000E+000	0.0000000E+000	0.0000000E+000	-3.1492077E+001	0.0000000E+000	0.0000000E+000	0.0000000E+000	3.1492077E+001	1.6323583E+000	5.8507919E+001	-1.372488660412474E-006	-3.5031967E-006	2.5056660E+004
3.1629555E+001	1.2615020E+001	7.0383959E+000	1.4445683E+001	-2.9158798E+001	1.216344607106294E+001	2.9626700E-001	-1.3672735E-002	7.1491327E+002	1.6971671E+002	1.000000000000000E+000	10	4.6833940E-003	3.2420718E-004	0	5.899005394424926E-005	6.0452156E-002	3.3728540E-002	6.9224834E-002	2.9158798E+001	1.6971672E+005	3.0418575E+005	3.4832850E+005	-6.0841202E+001	0.0000000E+000	0.0000000E+000	0.0000000E+000	6.0841202E+001	0.0000000E+000	0.0000000E+000	0.0000000E+000	-6.0841202E+001	0.0000000E+000	0.0000000E+000	0.0000000E+000	-2.9158798E+001	0.0000000E+000	0.0000000E+000	0.0000000E+000	2.9158798E+001	1.7923146E+000	6.0841202E+001	-1.668846965954997E-006	-4.0507803E-006	2.1668453E+004
2.1551722E+001	1.4843515E+001	7.3303719E+000	1.6554888E+001	-2.6282158E+001	1.284334932998172E+001	2.9630375E-001	-8.9850966E-003	1.0074236E+003	1.9752026E+002	1.000000000000000E+000	11	4.6880413E-003	2.8318170E-004	0	5.683661405606189E-005	5.4160703E-002	2.6746904E-002	6.0405120E-002	2.6282158E+001	1.9752028E+005	3.9996544E+005	4.4607916E+005	-6.3717842E+001	0.0000000E+000	0.0000000E+000	0.0000000E+000	6.3717842E+001	0.0000000E+000	0.0000000E+000	0.0000000E+000	-6.3717842E+001	0.0000000E+000	0.0000000E+000	0.0000000E+000	-2.6282158E+001	0.0000000E+000	0.0000000E+000	0.0000000E+000	2.6282158E+001	2.0249336E+000	6.3717842E+001	-2.153439888187377E-006	-2.6623179E-006	3.2977246E+004
1.4685154E+001	1.6953266E+001	7.2230287E+000	1.8427843E+001	-2.3076685E+001	1.332102740605478E+001	2.9631847E-001	-8.0131572E-003	1.5004526E+003	2.3052177E+002	1.000000000000000E+000	11	4.6808557E-003	2.5400997E-004	0	5.580616146331279E-005	4.9923427E-002	2.1270139E-002	5.4265711E-002	2.3076685E+001	2.3052175E+005	5.4106069E+005	5.8812156E+005	-6.6923317E+001	0.0000000E+000	0.0000000E+000	0.0000000E+000	6.6923317E+001	0.0000000E+000	0.0000000E+000	0.0000000E+000	-6.6923317E+001	0.0000000E+000	0.0000000E+000	0.0000000E+000	-2.3076685E+001	0.0000000E+000	0.0000000E+000	0.0000000E+000	2.3076685E+001	2.3471131E+000	6.6923317E+001	-1.030452592749094E-006	-2.3744465E-006	3.6978992E+004
1.0003201E+001	1.8963722E+001	6.8710136E+000	2.0170116E+001	-1.9916674E+001	1.378966750833206E+001	2.9631737E-001	-8.1682568E-003	2.3155828E+003	2.6871082E+002	1.000000000000000E+000	11	4.6838247E-003	2.3221606E-004	0	5.598736457773258E-005	4.6612967E-002	1.6889002E-002	4.9578294E-002	1.9916674E+001	2.6871078E+005	7.4163106E+005	7.8881056E+005	-7.0083328E+001	0.0000000E+000	0.0000000E+000	0.0000000E+000	7.0083328E+001	0.0000000E+000	0.0000000E+000	0.0000000E+000	-7.0083328E+001	0.0000000E+000	0.0000000E+000	0.0000000E+000	-1.9916674E+001	0.0000000E+000	0.0000000E+000	0.0000000E+000	1.9916674E+001	2.7599599E+000	7.0083328E+001	1.812031144197846E-007	-2.4203964E-006	3.6276695E+004
