EC-Lab ASCII FILE
Nb header lines : 64                          

Potentio Electrochemical Impedance Spectroscopy

Run on channel : 1 (SN 66354)
User : 
CE vs. WE compliance from -10 V to 10 V
Electrode connection : standard
Potential control : Ewe
Ewe ctrl range : min = -10.00 V, max = 10.00 V
Safety Limits :
	Do not start on E overload
Acquisition started on : 09/12/2025 09:48:20.444
Technique started on : 09/12/2025 09:48:22.511
Loaded Setting File :  C:\Users\Celltest\OneDrive - store-dot.com\Documents\EC-Lab\Data\Gyutae\EIS_SOC0_C01.mpr
Saved on :
	File : 17459_C01.mpr
	Directory : C:\Users\Celltest\OneDrive - store-dot.com\Documents\EC-Lab\Data\Gyutae\R277\
	Host : 169.254.61.224
Device : VMP-3e (SN .003165)
Address : USB
EC-LAB for windows v11.62 (software)
Internet server v27.00 (firmware)
Command interpretor v12.03 (firmware)
Electrode material : 
Initial state : 
Electrolyte : 
Comments : 
Electrode surface area : 0.001 cm²
Characteristic mass : 0.001 g
Equivalent Weight : 0.000 g/eq.
Density : 0.000 g/cm3
Volume (V) : 0.001 cm³
Cycle Definition : Charge/Discharge alternance
Mode                Single sine         
E (V)               0.0000              
vs.                 Eoc                 
tE (h:m:s)          0:00:0.0000         
record              0                   
dI                  0.000               
unit dI             mA                  
dt (s)              0.000               
fi                  100.000             
unit fi             kHz                 
ff                  10.000              
unit ff             mHz                 
Nd                  6                   
Points              per decade          
spacing             Logarithmic         
Va (mV)             5.0                 
pw                  0.10                
Na                  2                   
corr                0                   
E range min (V)     -10.000             
E range max (V)     10.000              
I Range             Auto                
Bandwidth           5                   
nc cycles           0                   
goto Ns'            0                   
nr cycles           0                   
inc. cycle          0                   

freq/Hz	Re(Z)/Ohm	-Im(Z)/Ohm	|Z|/Ohm	Phase(Z)/deg	time/s	<Ewe>/V	<I>/mA	Cs/µF	Cp/µF	cycle number	I Range	|Ewe|/V	|I|/A	Ns	(Q-Qo)/mA.h	Re(Y)/Ohm-1	Im(Y)/Ohm-1	|Y|/Ohm-1	Phase(Y)/deg	Re(C)/nF	Im(C)/nF	|C|/nF	Phase(C)/deg	Re(M)	Im(M)	|M|	Phase(M)/deg	Re(Permittivity)	Im(Permittivity)	|Permittivity|	Phase(Permittivity)/deg	Re(Resistivity)/Ohm.cm	Im(Resistivity)/Ohm.cm	|Resistivity|/Ohm.cm	Phase(Resistivity)/deg	Re(Conductivity)/mS/cm	Im(Conductivity)/mS/cm	|Conductivity|/mS/cm	Phase(Conductivity)/deg	Tan(Delta)	Loss Angle(Delta)/deg	dq/mA.h	Pwe/W	Rwe/Ohm	
1.0000371E+005	1.1411192E+000	2.4100442E-001	1.1662917E+000	-1.1925615E+001	2.067475938150892E+000	2.7484715E-001	7.6664887E-002	6.6035728E+000	2.8197762E-001	1.000000000000000E+000	9	4.6343878E-003	3.9736093E-003	0	9.059039872087952E-006	8.3891249E-001	1.7717834E-001	8.5741842E-001	1.1925615E+001	2.8197760E+002	1.3351212E+003	1.3645732E+003	-7.8074387E+001	0.0000000E+000	0.0000000E+000	0.0000000E+000	7.8074387E+001	0.0000000E+000	0.0000000E+000	0.0000000E+000	-7.8074387E+001	0.0000000E+000	0.0000000E+000	0.0000000E+000	-1.1925615E+001	0.0000000E+000	0.0000000E+000	0.0000000E+000	1.1925615E+001	4.7348475E+000	7.8074387E+001	9.059039872087952E-006	2.1071126E-005	3.5850461E+003
6.8132047E+004	1.2015171E+000	2.6131108E-001	1.2296044E+000	-1.2269860E+001	2.504491292260354E+000	2.7484772E-001	7.6907061E-002	8.9394512E+000	4.0373439E-001	1.000000000000000E+000	9	5.4827426E-003	4.4589485E-003	0	2.051671643997543E-005	7.9469264E-001	1.7283314E-001	8.1326973E-001	1.2269860E+001	4.0373434E+002	1.8563842E+003	1.8997799E+003	-7.7730141E+001	0.0000000E+000	0.0000000E+000	0.0000000E+000	7.7730141E+001	0.0000000E+000	0.0000000E+000	0.0000000E+000	-7.7730141E+001	0.0000000E+000	0.0000000E+000	0.0000000E+000	-1.2269860E+001	0.0000000E+000	0.0000000E+000	0.0000000E+000	1.2269860E+001	4.5980334E+000	7.7730141E+001	1.145767656788747E-005	2.1137730E-005	3.5737644E+003
4.6420355E+004	1.2626015E+000	2.8314647E-001	1.2939608E+000	-1.2639825E+001	3.083499586413382E+000	2.7484146E-001	7.5249217E-002	1.2108784E+001	5.7980317E-001	1.000000000000000E+000	9	5.0703469E-003	3.9184703E-003	0	3.508235448640254E-005	7.5409156E-001	1.6910985E-001	7.7282095E-001	1.2639825E+001	5.7980316E+002	2.5854478E+003	2.6496626E+003	-7.7360176E+001	0.0000000E+000	0.0000000E+000	0.0000000E+000	7.7360176E+001	0.0000000E+000	0.0000000E+000	0.0000000E+000	-7.7360176E+001	0.0000000E+000	0.0000000E+000	0.0000000E+000	-1.2639825E+001	0.0000000E+000	0.0000000E+000	0.0000000E+000	1.2639825E+001	4.4591813E+000	7.7360176E+001	1.456563804642711E-005	2.0681604E-005	3.6524163E+003
3.1621139E+004	1.3291819E+000	3.1860590E-001	1.3668337E+000	-1.3479520E+001	3.661488440557150E+000	2.7484474E-001	8.5307889E-002	1.5797517E+001	8.5835135E-001	1.000000000000000E+000	9	5.0879535E-003	3.7224379E-003	0	5.807383622236860E-005	7.1146429E-001	1.7053851E-001	7.3161793E-001	1.3479520E+001	8.5835150E+002	3.5809290E+003	3.6823660E+003	-7.6520477E+001	0.0000000E+000	0.0000000E+000	0.0000000E+000	7.6520477E+001	0.0000000E+000	0.0000000E+000	0.0000000E+000	-7.6520477E+001	0.0000000E+000	0.0000000E+000	0.0000000E+000	-1.3479520E+001	0.0000000E+000	0.0000000E+000	0.0000000E+000	1.3479520E+001	4.1718683E+000	7.6520477E+001	2.299148173596606E-005	2.3446424E-005	3.2217974E+003
2.1544684E+004	1.4024826E+000	3.5932809E-001	1.4477825E+000	-1.4370552E+001	4.098479047970613E+000	2.7484700E-001	8.1619702E-002	2.0558378E+001	1.2663815E+000	1.000000000000000E+000	9	5.3172782E-003	3.6727050E-003	0	6.601656563528296E-005	6.6909975E-001	1.7142910E-001	6.9071150E-001	1.4370552E+001	1.2663815E+003	4.9427754E+003	5.1024258E+003	-7.5629448E+001	0.0000000E+000	0.0000000E+000	0.0000000E+000	7.5629448E+001	0.0000000E+000	0.0000000E+000	0.0000000E+000	-7.5629448E+001	0.0000000E+000	0.0000000E+000	0.0000000E+000	-1.4370552E+001	0.0000000E+000	0.0000000E+000	0.0000000E+000	1.4370552E+001	3.9030697E+000	7.5629448E+001	7.942729412914352E-006	2.2432931E-005	3.3674099E+003
1.4678594E+004	1.4829670E+000	3.9963391E-001	1.5358706E+000	-1.5081945E+001	4.535476162069244E+000	2.7484691E-001	7.6590359E-002	2.7131470E+001	1.8369138E+000	1.000000000000000E+000	9	4.9481825E-003	3.2217444E-003	0	7.157166238947280E-005	6.2866926E-001	1.6941549E-001	6.5109652E-001	1.5081945E+001	1.8369142E+003	6.8164453E+003	7.0596162E+003	-7.4918053E+001	0.0000000E+000	0.0000000E+000	0.0000000E+000	7.4918053E+001	0.0000000E+000	0.0000000E+000	0.0000000E+000	-7.4918053E+001	0.0000000E+000	0.0000000E+000	0.0000000E+000	-1.5081945E+001	0.0000000E+000	0.0000000E+000	0.0000000E+000	1.5081945E+001	3.7108138E+000	7.4918053E+001	5.555096754189848E-006	2.1050624E-005	3.5885315E+003
1.0002226E+004	1.5722164E+000	4.5050907E-001	1.6354885E+000	-1.5989334E+001	4.972492476139450E+000	2.7484822E-001	8.1992231E-002	3.5319939E+001	2.6799829E+000	1.000000000000000E+000	9	4.9171005E-003	3.0065028E-003	0	7.992475502714256E-005	5.8778340E-001	1.6842577E-001	6.1143810E-001	1.5989334E+001	2.6799829E+003	9.3527822E+003	9.7291748E+003	-7.4010666E+001	0.0000000E+000	0.0000000E+000	0.0000000E+000	7.4010666E+001	0.0000000E+000	0.0000000E+000	0.0000000E+000	-7.4010666E+001	0.0000000E+000	0.0000000E+000	0.0000000E+000	-1.5989334E+001	0.0000000E+000	0.0000000E+000	0.0000000E+000	1.5989334E+001	3.4898663E+000	7.4010666E+001	8.353092637669758E-006	2.2535420E-005	3.3521252E+003
6.8110674E+003	1.6823562E+000	5.1094961E-001	1.7582355E+000	-1.6894098E+001	5.350507640774595E+000	2.7463478E-001	-6.1846778E-002	4.5732700E+001	3.8621483E+000	1.000000000000000E+000	9	4.6264362E-003	2.6312950E-003	0	7.641907165081809E-005	5.4420674E-001	1.6528141E-001	5.6875205E-001	1.6894098E+001	3.8621479E+003	1.2716536E+004	1.3290090E+004	-7.3105904E+001	0.0000000E+000	0.0000000E+000	0.0000000E+000	7.3105904E+001	0.0000000E+000	0.0000000E+000	0.0000000E+000	-7.3105904E+001	0.0000000E+000	0.0000000E+000	0.0000000E+000	-1.6894098E+001	0.0000000E+000	0.0000000E+000	0.0000000E+000	1.6894098E+001	3.2926068E+000	7.3105904E+001	-3.505683376324470E-006	-1.6985276E-005	4.4405674E+003
4.6414854E+003	1.8001566E+000	5.8115596E-001	1.8916411E+000	-1.7891964E+001	6.044705727130349E+000	2.7480882E-001	1.0555560E-001	5.9002502E+001	5.5690145E+000	1.000000000000000E+000	9	4.9814871E-003	2.6334208E-003	0	9.647838719744080E-005	5.0307512E-001	1.6241091E-001	5.2864152E-001	1.7891964E+001	5.5690151E+003	1.7250271E+004	1.8126936E+004	-7.2108032E+001	0.0000000E+000	0.0000000E+000	0.0000000E+000	7.2108032E+001	0.0000000E+000	0.0000000E+000	0.0000000E+000	-7.2108032E+001	0.0000000E+000	0.0000000E+000	0.0000000E+000	-1.7891964E+001	0.0000000E+000	0.0000000E+000	0.0000000E+000	1.7891964E+001	3.0975447E+000	7.2108032E+001	2.005931554662270E-005	2.9007611E-005	2.6034509E+003
3.1610117E+003	1.9433929E+000	6.6335380E-001	2.0534883E+000	-1.8846722E+001	6.511695189314196E+000	2.7483112E-001	1.0419582E-001	7.5901230E+001	7.9205399E+000	1.000000000000000E+000	9	4.9054506E-003	2.3888380E-003	0	1.073787909411670E-004	4.6086755E-001	1.5731160E-001	4.8697624E-001	1.8846722E+001	7.9205415E+003	2.3204393E+004	2.4518947E+004	-7.1153275E+001	0.0000000E+000	0.0000000E+000	0.0000000E+000	7.1153275E+001	0.0000000E+000	0.0000000E+000	0.0000000E+000	-7.1153275E+001	0.0000000E+000	0.0000000E+000	0.0000000E+000	-1.8846722E+001	0.0000000E+000	0.0000000E+000	0.0000000E+000	1.8846722E+001	2.9296477E+000	7.1153275E+001	1.090040374372620E-005	2.8636254E-005	2.6376406E+003
2.1556899E+003	2.1060524E+000	7.5337017E-001	2.2367439E+000	-1.9682980E+001	6.978698838160199E+000	2.7482495E-001	1.0624480E-001	9.7999847E+001	1.1117566E+001	1.000000000000000E+000	9	4.8628780E-003	2.1740880E-003	0	1.210476612116521E-004	4.2095593E-001	1.5058298E-001	4.4707844E-001	1.9682980E+001	1.1117568E+004	3.1079246E+004	3.3007875E+004	-7.0317017E+001	0.0000000E+000	0.0000000E+000	0.0000000E+000	7.0317017E+001	0.0000000E+000	0.0000000E+000	0.0000000E+000	-7.0317017E+001	0.0000000E+000	0.0000000E+000	0.0000000E+000	-1.9682980E+001	0.0000000E+000	0.0000000E+000	0.0000000E+000	1.9682980E+001	2.7955081E+000	7.0317017E+001	1.366887027048506E-005	2.9198722E-005	2.5867144E+003
1.4685898E+003	2.3162327E+000	8.8951808E-001	2.4811642E+000	-2.1008617E+001	7.445946140331216E+000	2.7483046E-001	1.0468010E-001	1.2183298E+002	1.5658977E+001	1.000000000000000E+000	9	4.8215655E-003	1.9432673E-003	0	1.350620380191443E-004	3.7624535E-001	1.4449199E-001	4.0303659E-001	2.1008617E+001	1.5658979E+004	4.0774699E+004	4.3678137E+004	-6.8991379E+001	0.0000000E+000	0.0000000E+000	0.0000000E+000	6.8991379E+001	0.0000000E+000	0.0000000E+000	0.0000000E+000	-6.8991379E+001	0.0000000E+000	0.0000000E+000	0.0000000E+000	-2.1008617E+001	0.0000000E+000	0.0000000E+000	0.0000000E+000	2.1008617E+001	2.6039186E+000	6.8991379E+001	1.401437680749222E-005	2.8769280E-005	2.6254319E+003
1.0003202E+003	2.5010800E+000	9.3784034E-001	2.6711318E+000	-2.0554747E+001	7.915668215995538E+000	2.7482802E-001	1.0784671E-001	1.6964934E+002	2.0913145E+001	1.000000000000000E+000	9	4.8271283E-003	1.8071472E-003	0	1.462832366112982E-004	3.5053948E-001	1.3144325E-001	3.7437314E-001	2.0554747E+001	2.0913146E+004	5.5772230E+004	5.9564262E+004	-6.9445251E+001	0.0000000E+000	0.0000000E+000	0.0000000E+000	6.9445251E+001	0.0000000E+000	0.0000000E+000	0.0000000E+000	-6.9445251E+001	0.0000000E+000	0.0000000E+000	0.0000000E+000	-2.0554747E+001	0.0000000E+000	0.0000000E+000	0.0000000E+000	2.0554747E+001	2.6668506E+000	6.9445251E+001	1.122119859215390E-005	2.9639299E-005	2.5483208E+003
6.8108978E+002	2.7486017E+000	1.0331594E+000	2.9363632E+000	-2.0600510E+001	8.381453891430283E+000	2.7481663E-001	1.0153211E-001	2.2617702E+002	2.8000357E+001	1.000000000000000E+000	9	4.8274286E-003	1.6440161E-003	0	1.575294349680836E-004	3.1878087E-001	1.1982509E-001	3.4055734E-001	2.0600510E+001	2.8000354E+004	7.4491719E+004	7.9580375E+004	-6.9399490E+001	0.0000000E+000	0.0000000E+000	0.0000000E+000	6.9399490E+001	0.0000000E+000	0.0000000E+000	0.0000000E+000	-6.9399490E+001	0.0000000E+000	0.0000000E+000	0.0000000E+000	-2.0600510E+001	0.0000000E+000	0.0000000E+000	0.0000000E+000	2.0600510E+001	2.6603849E+000	6.9399490E+001	1.124619835678539E-005	2.7902712E-005	2.7066968E+003
4.6396069E+002	3.0343926E+000	1.1467155E+000	3.2438395E+000	-2.0701885E+001	9.104184299096232E+000	2.7481139E-001	-1.2897502E-002	2.9914603E+002	3.7383152E+001	1.000000000000000E+000	10	4.8568640E-003	1.4972579E-003	0	1.639896512881904E-004	2.8837198E-001	1.0897753E-001	3.0827665E-001	2.0701885E+001	3.7383156E+004	9.8921789E+004	1.0574980E+005	-6.9298111E+001	0.0000000E+000	0.0000000E+000	0.0000000E+000	6.9298111E+001	0.0000000E+000	0.0000000E+000	0.0000000E+000	-6.9298111E+001	0.0000000E+000	0.0000000E+000	0.0000000E+000	-2.0701885E+001	0.0000000E+000	0.0000000E+000	0.0000000E+000	2.0701885E+001	2.6461599E+000	6.9298111E+001	6.460216320106863E-006	-3.5443804E-006	2.1307334E+004
3.1631589E+002	3.3387992E+000	1.2444209E+000	3.5631676E+000	-2.0441183E+001	9.570935947936960E+000	2.7480510E-001	-1.3374552E-002	4.0432617E+002	4.9316692E+001	1.000000000000000E+000	10	4.8364052E-003	1.3573330E-003	0	1.616339496580250E-004	2.6297700E-001	9.8015502E-002	2.8064916E-001	2.0441183E+001	4.9316695E+004	1.3231739E+005	1.4120917E+005	-6.9558815E+001	0.0000000E+000	0.0000000E+000	0.0000000E+000	6.9558815E+001	0.0000000E+000	0.0000000E+000	0.0000000E+000	-6.9558815E+001	0.0000000E+000	0.0000000E+000	0.0000000E+000	-2.0441183E+001	0.0000000E+000	0.0000000E+000	0.0000000E+000	2.0441183E+001	2.6830144E+000	6.9558815E+001	-2.355701630165426E-006	-3.6753952E-006	2.0546863E+004
2.1534457E+002	3.6887414E+000	1.3247647E+000	3.9194152E+000	-1.9755106E+001	1.003845117011224E+001	2.7481100E-001	-1.3982046E-002	5.5788855E+002	6.3735649E+001	1.000000000000000E+000	10	4.8272717E-003	1.2316306E-003	0	1.599012330321194E-004	2.4012406E-001	8.6237505E-002	2.5514010E-001	1.9755106E+001	6.3735641E+004	1.7746875E+005	1.8856667E+005	-7.0244896E+001	0.0000000E+000	0.0000000E+000	0.0000000E+000	7.0244896E+001	0.0000000E+000	0.0000000E+000	0.0000000E+000	-7.0244896E+001	0.0000000E+000	0.0000000E+000	0.0000000E+000	-1.9755106E+001	0.0000000E+000	0.0000000E+000	0.0000000E+000	1.9755106E+001	2.7844503E+000	7.0244896E+001	-1.732716625905620E-006	-3.8424200E-006	1.9654563E+004
1.4673740E+002	4.0671673E+000	1.3790431E+000	4.2946024E+000	-1.8730114E+001	1.050138265875285E+001	2.7480114E-001	-1.5342379E-002	7.8650500E+002	8.1098206E+001	1.000000000000000E+000	10	4.8195659E-003	1.1222380E-003	0	1.586117426542850E-004	2.2051905E-001	7.4770786E-002	2.3285043E-001	1.8730114E+001	8.1098219E+004	2.3918030E+005	2.5255522E+005	-7.1269882E+001	0.0000000E+000	0.0000000E+000	0.0000000E+000	7.1269882E+001	0.0000000E+000	0.0000000E+000	0.0000000E+000	-7.1269882E+001	0.0000000E+000	0.0000000E+000	0.0000000E+000	-1.8730114E+001	0.0000000E+000	0.0000000E+000	0.0000000E+000	1.8730114E+001	2.9492676E+000	7.1269882E+001	-1.289490377834416E-006	-4.2161032E-006	1.7911246E+004
1.0003201E+002	4.4606295E+000	1.3780873E+000	4.6686549E+000	-1.7168251E+001	1.096968556105276E+001	2.7480516E-001	-1.3152806E-002	1.1545278E+003	1.0059452E+002	1.000000000000000E+000	10	4.8067588E-003	1.0295811E-003	0	1.577907313512341E-004	2.0465040E-001	6.3225634E-002	2.1419446E-001	1.7168251E+001	1.0059451E+005	3.2560697E+005	3.4079194E+005	-7.2831749E+001	0.0000000E+000	0.0000000E+000	0.0000000E+000	7.2831749E+001	0.0000000E+000	0.0000000E+000	0.0000000E+000	-7.2831749E+001	0.0000000E+000	0.0000000E+000	0.0000000E+000	-1.7168251E+001	0.0000000E+000	0.0000000E+000	0.0000000E+000	1.7168251E+001	3.2368264E+000	7.2831749E+001	-8.210113030509138E-007	-3.6144590E-006	2.0893271E+004
6.8103981E+001	4.8640733E+000	1.3201488E+000	5.0400400E+000	-1.5184743E+001	1.144833683708566E+001	2.7480879E-001	-1.0784335E-002	1.7702097E+003	1.2145141E+002	1.000000000000000E+000	10	4.8128632E-003	9.5492561E-004	0	1.571419659138774E-004	1.9148386E-001	5.1970262E-002	1.9841112E-001	1.5184743E+001	1.2145143E+005	4.4748634E+005	4.6367497E+005	-7.4815254E+001	0.0000000E+000	0.0000000E+000	0.0000000E+000	7.4815254E+001	0.0000000E+000	0.0000000E+000	0.0000000E+000	-7.4815254E+001	0.0000000E+000	0.0000000E+000	0.0000000E+000	-1.5184743E+001	0.0000000E+000	0.0000000E+000	0.0000000E+000	1.5184743E+001	3.6844885E+000	7.4815254E+001	-6.487654373567113E-007	-2.9636299E-006	2.5482221E+004
4.6441547E+001	5.2172914E+000	1.2166983E+000	5.3572831E+000	-1.3127048E+001	1.190354355200543E+001	2.7479655E-001	-1.7664265E-002	2.8166350E+003	1.4528044E+002	1.000000000000000E+000	10	4.8086713E-003	8.9759514E-004	0	1.559727132941933E-004	1.8178409E-001	4.2392954E-002	1.8666178E-001	1.3127048E+001	1.4528042E+005	6.2297319E+005	6.3968900E+005	-7.6872955E+001	0.0000000E+000	0.0000000E+000	0.0000000E+000	7.6872955E+001	0.0000000E+000	0.0000000E+000	0.0000000E+000	-7.6872955E+001	0.0000000E+000	0.0000000E+000	0.0000000E+000	-1.3127048E+001	0.0000000E+000	0.0000000E+000	0.0000000E+000	1.3127048E+001	4.2880731E+000	7.6872955E+001	-1.169252619684098E-006	-4.8540792E-006	1.5556637E+004
3.1629555E+001	5.5197697E+000	1.0825957E+000	5.6249328E+000	-1.1096601E+001	1.235043005328043E+001	2.7479634E-001	-1.8782349E-002	4.6479424E+003	1.7217047E+002	1.000000000000000E+000	10	4.8095812E-003	8.5504691E-004	0	1.535555714999371E-004	1.7445613E-001	3.4216188E-002	1.7777990E-001	1.1096601E+001	1.7217050E+005	8.7783588E+005	8.9456050E+005	-7.8903397E+001	0.0000000E+000	0.0000000E+000	0.0000000E+000	7.8903397E+001	0.0000000E+000	0.0000000E+000	0.0000000E+000	-7.8903397E+001	0.0000000E+000	0.0000000E+000	0.0000000E+000	-1.1096601E+001	0.0000000E+000	0.0000000E+000	0.0000000E+000	1.1096601E+001	5.0986438E+000	7.8903397E+001	-2.417141794256188E-006	-5.1613206E-006	1.4630563E+004
2.1551722E+001	5.7713332E+000	9.4524848E-001	5.8482289E+000	-9.3015118E+000	1.279035951415426E+001	2.7479926E-001	-2.0060694E-002	7.8125381E+003	2.0409642E+002	1.000000000000000E+000	10	4.8076622E-003	8.2207151E-004	0	1.535650801257604E-004	1.6874364E-001	2.7637403E-002	1.7099194E-001	9.3015118E+000	2.0409647E+005	1.2461364E+006	1.2627396E+006	-8.0698486E+001	0.0000000E+000	0.0000000E+000	0.0000000E+000	8.0698486E+001	0.0000000E+000	0.0000000E+000	0.0000000E+000	-8.0698486E+001	0.0000000E+000	0.0000000E+000	0.0000000E+000	-9.3015118E+000	0.0000000E+000	0.0000000E+000	0.0000000E+000	9.3015118E+000	6.1056256E+000	8.0698486E+001	9.508625823322720E-009	-5.5126638E-006	1.3698393E+004
1.4685154E+001	5.9737816E+000	8.1654882E-001	6.0293298E+000	-7.7834539E+000	1.326906335024978E+001	2.7481490E-001	-1.0256981E-002	1.3272705E+004	2.4343649E+002	1.000000000000000E+000	10	4.8098597E-003	7.9774368E-004	0	1.532412830988873E-004	1.6432789E-001	2.2461776E-002	1.6585591E-001	7.7834539E+000	2.4343656E+005	1.7809549E+006	1.7975154E+006	-8.2216545E+001	0.0000000E+000	0.0000000E+000	0.0000000E+000	8.2216545E+001	0.0000000E+000	0.0000000E+000	0.0000000E+000	-8.2216545E+001	0.0000000E+000	0.0000000E+000	0.0000000E+000	-7.7834539E+000	0.0000000E+000	0.0000000E+000	0.0000000E+000	7.7834539E+000	7.3158903E+000	8.2216545E+001	-3.237970268730659E-007	-2.8187715E-006	2.6792961E+004
