EC-Lab ASCII FILE
Nb header lines : 64                          

Potentio Electrochemical Impedance Spectroscopy

Run on channel : 7 (SN 66126)
User : 
CE vs. WE compliance from -10 V to 10 V
Electrode connection : standard
Potential control : Ewe
Ewe ctrl range : min = -10.00 V, max = 10.00 V
Safety Limits :
	Do not start on E overload
Acquisition started on : 09/11/2025 16:16:31.856
Technique started on : 09/11/2025 16:16:33.924
Loaded Setting File :  C:\Users\Celltest\OneDrive - store-dot.com\Documents\EC-Lab\Data\Charmaine\R279\17382_C01.mpr
Saved on :
	File : 17451_C07.mpr
	Directory : C:\Users\Celltest\OneDrive - store-dot.com\Documents\EC-Lab\Data\John\R281\
	Host : 169.254.61.224
Device : VMP-3e (SN .003165)
Address : USB
EC-LAB for windows v11.62 (software)
Internet server v27.00 (firmware)
Command interpretor v12.03 (firmware)
Electrode material : 
Initial state : 
Electrolyte : 
Comments : 
Electrode surface area : 0.001 cm²
Characteristic mass : 0.001 g
Equivalent Weight : 0.000 g/eq.
Density : 0.000 g/cm3
Volume (V) : 0.001 cm³
Cycle Definition : Charge/Discharge alternance
Mode                Single sine         
E (V)               0.0000              
vs.                 Eoc                 
tE (h:m:s)          0:00:0.0000         
record              0                   
dI                  0.000               
unit dI             mA                  
dt (s)              0.000               
fi                  100.000             
unit fi             kHz                 
ff                  10.000              
unit ff             mHz                 
Nd                  6                   
Points              per decade          
spacing             Logarithmic         
Va (mV)             5.0                 
pw                  0.10                
Na                  2                   
corr                0                   
E range min (V)     -10.000             
E range max (V)     10.000              
I Range             Auto                
Bandwidth           5                   
nc cycles           0                   
goto Ns'            0                   
nr cycles           0                   
inc. cycle          0                   

freq/Hz	Re(Z)/Ohm	-Im(Z)/Ohm	|Z|/Ohm	Phase(Z)/deg	time/s	<Ewe>/V	<I>/mA	Cs/µF	Cp/µF	cycle number	I Range	|Ewe|/V	|I|/A	Ns	(Q-Qo)/mA.h	Re(Y)/Ohm-1	Im(Y)/Ohm-1	|Y|/Ohm-1	Phase(Y)/deg	Re(C)/nF	Im(C)/nF	|C|/nF	Phase(C)/deg	Re(M)	Im(M)	|M|	Phase(M)/deg	Re(Permittivity)	Im(Permittivity)	|Permittivity|	Phase(Permittivity)/deg	Re(Resistivity)/Ohm.cm	Im(Resistivity)/Ohm.cm	|Resistivity|/Ohm.cm	Phase(Resistivity)/deg	Re(Conductivity)/mS/cm	Im(Conductivity)/mS/cm	|Conductivity|/mS/cm	Phase(Conductivity)/deg	Tan(Delta)	Loss Angle(Delta)/deg	dq/mA.h	Pwe/W	Rwe/Ohm	
1.0000371E+005	1.3616432E+000	2.6152456E-001	1.3865306E+000	-1.0872140E+001	2.068483724870021E+000	2.9839587E-001	6.0292538E-002	6.0854335E+000	2.1649982E-001	1.000000000000000E+000	9	4.6374612E-003	3.3446511E-003	0	-1.415726645513334E-006	7.0827901E-001	1.3603590E-001	7.2122461E-001	1.0872140E+001	2.1649982E+002	1.1272192E+003	1.1478220E+003	-7.9127861E+001	0.0000000E+000	0.0000000E+000	0.0000000E+000	7.9127861E+001	0.0000000E+000	0.0000000E+000	0.0000000E+000	-7.9127861E+001	0.0000000E+000	0.0000000E+000	0.0000000E+000	-1.0872140E+001	0.0000000E+000	0.0000000E+000	0.0000000E+000	1.0872140E+001	5.2065597E+000	7.9127861E+001	-1.415726645513334E-006	1.7991044E-005	4.9491343E+003
6.8132047E+004	1.4265226E+000	2.9507080E-001	1.4567201E+000	-1.1686604E+001	2.646475912333699E+000	2.9839957E-001	5.8505207E-002	7.9166689E+000	3.2481995E-001	1.000000000000000E+000	9	5.0651659E-003	3.4771031E-003	0	8.331661849463773E-006	6.7224318E-001	1.3905096E-001	6.8647367E-001	1.1686604E+001	3.2481985E+002	1.5703451E+003	1.6035872E+003	-7.8313400E+001	0.0000000E+000	0.0000000E+000	0.0000000E+000	7.8313400E+001	0.0000000E+000	0.0000000E+000	0.0000000E+000	-7.8313400E+001	0.0000000E+000	0.0000000E+000	0.0000000E+000	-1.1686604E+001	0.0000000E+000	0.0000000E+000	0.0000000E+000	1.1686604E+001	4.8345098E+000	7.8313400E+001	9.747388494977108E-006	1.7457929E-005	5.1003931E+003
4.6420355E+004	1.4989051E+000	3.3245084E-001	1.5353305E+000	-1.2505523E+001	3.224475593102397E+000	2.9840913E-001	5.6624785E-002	1.0312983E+001	4.8354328E-001	1.000000000000000E+000	9	5.0818617E-003	3.3099465E-003	0	1.919866691081713E-005	6.3587290E-001	1.4103393E-001	6.5132552E-001	1.2505523E+001	4.8354324E+002	2.1801279E+003	2.2331082E+003	-7.7494476E+001	0.0000000E+000	0.0000000E+000	0.0000000E+000	7.7494476E+001	0.0000000E+000	0.0000000E+000	0.0000000E+000	-7.7494476E+001	0.0000000E+000	0.0000000E+000	0.0000000E+000	-1.2505523E+001	0.0000000E+000	0.0000000E+000	0.0000000E+000	1.2505523E+001	4.5086517E+000	7.7494476E+001	1.086700506135336E-005	1.6897353E-005	5.2699385E+003
3.1621139E+004	1.5743616E+000	3.8056460E-001	1.6197048E+000	-1.3589220E+001	3.802477407240076E+000	2.9840955E-001	5.7295028E-002	1.3225565E+001	7.3012847E-001	1.000000000000000E+000	9	5.1149330E-003	3.1579414E-003	0	3.428717770116054E-005	6.0011256E-001	1.4506300E-001	6.1739641E-001	1.3589220E+001	7.3012836E+002	3.0204756E+003	3.1074685E+003	-7.6410782E+001	0.0000000E+000	0.0000000E+000	0.0000000E+000	7.6410782E+001	0.0000000E+000	0.0000000E+000	0.0000000E+000	-7.6410782E+001	0.0000000E+000	0.0000000E+000	0.0000000E+000	-1.3589220E+001	0.0000000E+000	0.0000000E+000	0.0000000E+000	1.3589220E+001	4.1369100E+000	7.6410782E+001	1.508851079034341E-005	1.7097384E-005	5.2082974E+003
2.1544684E+004	1.6629621E+000	4.3497381E-001	1.7189081E+000	-1.4658211E+001	4.239500094641699E+000	2.9840294E-001	5.6401361E-002	1.6983097E+001	1.0875214E+000	1.000000000000000E+000	9	5.2147266E-003	3.0337437E-003	0	4.319246115556193E-005	5.6282973E-001	1.4721695E-001	5.8176470E-001	1.4658211E+001	1.0875214E+003	4.1577368E+003	4.2976133E+003	-7.5341789E+001	0.0000000E+000	0.0000000E+000	0.0000000E+000	7.5341789E+001	0.0000000E+000	0.0000000E+000	0.0000000E+000	-7.5341789E+001	0.0000000E+000	0.0000000E+000	0.0000000E+000	-1.4658211E+001	0.0000000E+000	0.0000000E+000	0.0000000E+000	1.4658211E+001	3.8231316E+000	7.5341789E+001	8.905283454401393E-006	1.6830332E-005	5.2907046E+003
1.4678594E+004	1.7606765E+000	4.9479750E-001	1.8288811E+000	-1.5696793E+001	4.676498515444109E+000	2.9840925E-001	5.2659135E-002	2.1913321E+001	1.6039550E+000	1.000000000000000E+000	9	4.9163410E-003	2.6881688E-003	0	5.286583102085084E-005	5.2639115E-001	1.4793009E-001	5.4678237E-001	1.5696793E+001	1.6039552E+003	5.7074790E+003	5.9285737E+003	-7.4303207E+001	0.0000000E+000	0.0000000E+000	0.0000000E+000	7.4303207E+001	0.0000000E+000	0.0000000E+000	0.0000000E+000	-7.4303207E+001	0.0000000E+000	0.0000000E+000	0.0000000E+000	-1.5696793E+001	0.0000000E+000	0.0000000E+000	0.0000000E+000	1.5696793E+001	3.5583780E+000	7.4303207E+001	9.673369865288909E-006	1.5713973E-005	5.6668086E+003
1.0002226E+004	1.8696268E+000	5.6938362E-001	1.9544058E+000	-1.6937799E+001	5.114481256256113E+000	2.9840261E-001	5.8225926E-002	2.7945927E+001	2.3719141E+000	1.000000000000000E+000	9	4.9136374E-003	2.5141337E-003	0	5.749748315675404E-005	4.8946926E-001	1.4906493E-001	5.1166445E-001	1.6937799E+001	2.3719138E+003	7.7884121E+003	8.1415811E+003	-7.3062202E+001	0.0000000E+000	0.0000000E+000	0.0000000E+000	7.3062202E+001	0.0000000E+000	0.0000000E+000	0.0000000E+000	-7.3062202E+001	0.0000000E+000	0.0000000E+000	0.0000000E+000	-1.6937799E+001	0.0000000E+000	0.0000000E+000	0.0000000E+000	1.6937799E+001	3.2835977E+000	7.3062202E+001	4.631652135903198E-006	1.7374769E-005	5.1249097E+003
6.8110674E+003	2.0021067E+000	6.6538763E-001	2.1097801E+000	-1.8383905E+001	5.492519674211508E+000	2.9818386E-001	-6.5602675E-002	3.5118034E+001	3.4930539E+000	1.000000000000000E+000	9	4.6350560E-003	2.1969380E-003	0	5.223405380578090E-005	4.4979316E-001	1.4948595E-001	4.7398305E-001	1.8383905E+001	3.4930537E+003	1.0510364E+004	1.1075612E+004	-7.1616096E+001	0.0000000E+000	0.0000000E+000	0.0000000E+000	7.1616096E+001	0.0000000E+000	0.0000000E+000	0.0000000E+000	-7.1616096E+001	0.0000000E+000	0.0000000E+000	0.0000000E+000	-1.8383905E+001	0.0000000E+000	0.0000000E+000	0.0000000E+000	1.8383905E+001	3.0089328E+000	7.1616096E+001	-5.263429350973137E-006	-1.9561659E-005	4.5453003E+003
4.6414854E+003	2.1499610E+000	7.6890069E-001	2.2833178E+000	-1.9678816E+001	5.963713723285764E+000	2.9840904E-001	8.7251417E-002	4.4595688E+001	5.0570898E+000	1.000000000000000E+000	9	4.5014373E-003	1.9714457E-003	0	6.277777735161039E-005	4.1238025E-001	1.4748150E-001	4.3795919E-001	1.9678816E+001	5.0570908E+003	1.4140377E+004	1.5017471E+004	-7.0321182E+001	0.0000000E+000	0.0000000E+000	0.0000000E+000	7.0321182E+001	0.0000000E+000	0.0000000E+000	0.0000000E+000	-7.0321182E+001	0.0000000E+000	0.0000000E+000	0.0000000E+000	-1.9678816E+001	0.0000000E+000	0.0000000E+000	0.0000000E+000	1.9678816E+001	2.7961490E+000	7.0321182E+001	1.054372354582949E-005	2.6036612E-005	3.4201055E+003
3.1610117E+003	2.3204427E+000	8.8604897E-001	2.4838552E+000	-2.0899097E+001	6.653704209391435E+000	2.9840797E-001	8.4961399E-002	5.6824589E+001	7.2310138E+000	1.000000000000000E+000	9	4.9379370E-003	1.9880133E-003	0	7.775576582800648E-005	3.7611294E-001	1.4361678E-001	4.0259996E-001	2.0899097E+001	7.2310122E+003	1.8937049E+004	2.0270652E+004	-6.9100906E+001	0.0000000E+000	0.0000000E+000	0.0000000E+000	6.9100906E+001	0.0000000E+000	0.0000000E+000	0.0000000E+000	-6.9100906E+001	0.0000000E+000	0.0000000E+000	0.0000000E+000	-2.0899097E+001	0.0000000E+000	0.0000000E+000	0.0000000E+000	2.0899097E+001	2.6188650E+000	6.9100906E+001	1.497798847639609E-005	2.5353160E-005	3.5122771E+003
2.1556899E+003	2.5110834E+000	1.0241555E+000	2.7119060E+000	-2.2188292E+001	7.120693298238621E+000	2.9840139E-001	8.7567918E-002	7.2088821E+001	1.0281358E+001	1.000000000000000E+000	9	4.8999162E-003	1.8068164E-003	0	8.619318675243995E-005	3.4143800E-001	1.3925688E-001	3.6874434E-001	2.2188292E+001	1.0281360E+004	2.5208426E+004	2.7224457E+004	-6.7811707E+001	0.0000000E+000	0.0000000E+000	0.0000000E+000	6.7811707E+001	0.0000000E+000	0.0000000E+000	0.0000000E+000	-6.7811707E+001	0.0000000E+000	0.0000000E+000	0.0000000E+000	-2.2188292E+001	0.0000000E+000	0.0000000E+000	0.0000000E+000	2.2188292E+001	2.4518576E+000	6.7811707E+001	8.437420924433466E-006	2.6130389E-005	3.4076565E+003
1.4685898E+003	2.7133191E+000	1.1936479E+000	2.9642699E+000	-2.3745733E+001	7.587935107090743E+000	2.9841158E-001	8.4980011E-002	9.0791130E+001	1.4721782E+001	1.000000000000000E+000	9	4.8772031E-003	1.6453303E-003	0	9.650905982082865E-005	3.0879155E-001	1.3584408E-001	3.3735120E-001	2.3745733E+001	1.4721782E+004	3.3464551E+004	3.6559637E+004	-6.6254265E+001	0.0000000E+000	0.0000000E+000	0.0000000E+000	6.6254265E+001	0.0000000E+000	0.0000000E+000	0.0000000E+000	-6.6254265E+001	0.0000000E+000	0.0000000E+000	0.0000000E+000	-2.3745733E+001	0.0000000E+000	0.0000000E+000	0.0000000E+000	2.3745733E+001	2.2731318E+000	6.6254265E+001	1.031587306838870E-005	2.5359019E-005	3.5115503E+003
1.0003202E+003	2.9802191E+000	1.4082485E+000	3.2961903E+000	-2.5292229E+001	8.310708208089636E+000	2.9836702E-001	-1.4826980E-002	1.1298005E+002	2.0622240E+001	1.000000000000000E+000	10	4.9657696E-003	1.5065179E-003	0	9.985986105658554E-005	2.7429864E-001	1.2961486E-001	3.0338055E-001	2.5292229E+001	2.0622242E+004	4.3642012E+004	4.8269059E+004	-6.4707771E+001	0.0000000E+000	0.0000000E+000	0.0000000E+000	6.4707771E+001	0.0000000E+000	0.0000000E+000	0.0000000E+000	-6.4707771E+001	0.0000000E+000	0.0000000E+000	0.0000000E+000	-2.5292229E+001	0.0000000E+000	0.0000000E+000	0.0000000E+000	2.5292229E+001	2.1162593E+000	6.4707771E+001	3.350801235756887E-006	-4.4238818E-006	2.0123250E+004
6.8108978E+002	3.2499340E+000	1.6856171E+000	3.6610620E+000	-2.7414051E+001	8.776415963511681E+000	2.9836321E-001	-1.5498942E-002	1.3862988E+002	2.9387358E+001	1.000000000000000E+000	10	4.9303323E-003	1.3466945E-003	0	9.882028028353428E-005	2.4247131E-001	1.2576063E-001	2.7314478E-001	2.7414051E+001	2.9387355E+004	5.6659941E+004	6.3827625E+004	-6.2585949E+001	0.0000000E+000	0.0000000E+000	0.0000000E+000	6.2585949E+001	0.0000000E+000	0.0000000E+000	0.0000000E+000	-6.2585949E+001	0.0000000E+000	0.0000000E+000	0.0000000E+000	-2.7414051E+001	0.0000000E+000	0.0000000E+000	0.0000000E+000	2.7414051E+001	1.9280381E+000	6.2585953E+001	-1.039580773051261E-006	-4.6243140E-006	1.9250553E+004
4.6396069E+002	3.5594685E+000	2.0613949E+000	4.1132913E+000	-3.0076418E+001	9.245218465774087E+000	2.9836494E-001	-1.4856771E-002	1.6640935E+002	4.1794701E+001	1.000000000000000E+000	10	4.8950589E-003	1.1900589E-003	0	9.648467379427488E-005	2.1038087E-001	1.2183786E-001	2.4311432E-001	3.0076418E+001	4.1794695E+004	7.2168078E+004	8.3396813E+004	-5.9923584E+001	0.0000000E+000	0.0000000E+000	0.0000000E+000	5.9923584E+001	0.0000000E+000	0.0000000E+000	0.0000000E+000	-5.9923584E+001	0.0000000E+000	0.0000000E+000	0.0000000E+000	-3.0076418E+001	0.0000000E+000	0.0000000E+000	0.0000000E+000	3.0076418E+001	1.7267281E+000	5.9923584E+001	-2.335606489259391E-006	-4.4327394E-006	2.0082758E+004
3.1631589E+002	3.9586623E+000	2.5664108E+000	4.7177825E+000	-3.2955444E+001	9.711924354633084E+000	2.9836482E-001	-1.5418913E-002	1.9605275E+002	5.8016224E+001	1.000000000000000E+000	10	4.8778504E-003	1.0339286E-003	0	9.401421299119182E-005	1.7785768E-001	1.1530560E-001	2.1196400E-001	3.2955444E+001	5.8016230E+004	8.9489438E+004	1.0665009E+005	-5.7044556E+001	0.0000000E+000	0.0000000E+000	0.0000000E+000	5.7044556E+001	0.0000000E+000	0.0000000E+000	0.0000000E+000	-5.7044556E+001	0.0000000E+000	0.0000000E+000	0.0000000E+000	-3.2955444E+001	0.0000000E+000	0.0000000E+000	0.0000000E+000	3.2955444E+001	1.5424898E+000	5.7044556E+001	-2.470460803083064E-006	-4.6004611E-006	1.9350574E+004
2.1534457E+002	4.5165696E+000	3.2137365E+000	5.5432396E+000	-3.5433514E+001	1.017945061679347E+001	2.9835650E-001	-1.5387269E-002	2.2997252E+002	7.7298164E+001	1.000000000000000E+000	10	4.8705121E-003	8.7863998E-004	0	9.226328274902577E-005	1.4698784E-001	1.0458828E-001	1.8039992E-001	3.5433514E+001	7.7298164E+004	1.0863445E+005	1.3332836E+005	-5.4566486E+001	0.0000000E+000	0.0000000E+000	0.0000000E+000	5.4566486E+001	0.0000000E+000	0.0000000E+000	0.0000000E+000	-5.4566486E+001	0.0000000E+000	0.0000000E+000	0.0000000E+000	-3.5433514E+001	0.0000000E+000	0.0000000E+000	0.0000000E+000	3.5433514E+001	1.4053952E+000	5.4566483E+001	-1.750930242166055E-006	-4.5908919E-006	1.9389828E+004
1.4673740E+002	5.2857513E+000	3.9827046E+000	6.6182404E+000	-3.6997269E+001	1.064237493215478E+001	2.9835427E-001	-1.6738638E-002	2.7233359E+002	9.8621666E+001	1.000000000000000E+000	10	4.8548887E-003	7.3356187E-004	0	9.059587892040791E-005	1.2067622E-001	9.0927035E-002	1.5109757E-001	3.6997269E+001	9.8621672E+004	1.3088836E+005	1.6388409E+005	-5.3002731E+001	0.0000000E+000	0.0000000E+000	0.0000000E+000	5.3002731E+001	0.0000000E+000	0.0000000E+000	0.0000000E+000	-5.3002731E+001	0.0000000E+000	0.0000000E+000	0.0000000E+000	-3.6997269E+001	0.0000000E+000	0.0000000E+000	0.0000000E+000	3.6997269E+001	1.3271763E+000	5.3002731E+001	-1.667403828617853E-006	-4.9940440E-006	1.7824285E+004
1.0003201E+002	6.3585649E+000	4.8152890E+000	7.9761114E+000	-3.7136349E+001	1.110970884770359E+001	2.9836097E-001	-1.5444981E-002	3.3041425E+002	1.2042622E+002	1.000000000000000E+000	10	4.8509049E-003	6.0817919E-004	0	8.889750370501295E-005	9.9948592E-002	7.5690247E-002	1.2537438E-001	3.7136349E+001	1.2042622E+005	1.5902220E+005	1.9947566E+005	-5.2863651E+001	0.0000000E+000	0.0000000E+000	0.0000000E+000	5.2863651E+001	0.0000000E+000	0.0000000E+000	0.0000000E+000	-5.2863651E+001	0.0000000E+000	0.0000000E+000	0.0000000E+000	-3.7136349E+001	0.0000000E+000	0.0000000E+000	0.0000000E+000	3.7136349E+001	1.3204950E+000	5.2863647E+001	-1.698375215394965E-006	-4.6081796E-006	1.9317666E+004
6.8103981E+001	7.7322178E+000	5.6159673E+000	9.5564785E+000	-3.5991184E+001	1.158830513703288E+001	2.9836723E-001	-1.2725507E-002	4.1612430E+002	1.4370650E+002	1.000000000000000E+000	10	4.8426506E-003	5.0674006E-004	0	8.728550695845883E-005	8.4665857E-002	6.1493445E-002	1.0464106E-001	3.5991184E+001	1.4370652E+005	1.9785905E+005	2.4453991E+005	-5.4008816E+001	0.0000000E+000	0.0000000E+000	0.0000000E+000	5.4008816E+001	0.0000000E+000	0.0000000E+000	0.0000000E+000	-5.4008816E+001	0.0000000E+000	0.0000000E+000	0.0000000E+000	-3.5991184E+001	0.0000000E+000	0.0000000E+000	0.0000000E+000	3.5991184E+001	1.3768275E+000	5.4008820E+001	-1.611996746554118E-006	-3.7968744E-006	2.3446393E+004
4.6441547E+001	9.4481010E+000	6.2829747E+000	1.1346470E+001	-3.3623852E+001	1.204352907868451E+001	2.9835442E-001	-1.8343152E-002	5.4544147E+002	1.6724658E+002	1.000000000000000E+000	10	4.8523913E-003	4.2765646E-004	0	8.541566062709656E-005	7.3387653E-002	4.8802692E-002	8.8133141E-002	3.3623852E+001	1.6724656E+005	2.5149911E+005	3.0203181E+005	-5.6376148E+001	0.0000000E+000	0.0000000E+000	0.0000000E+000	5.6376148E+001	0.0000000E+000	0.0000000E+000	0.0000000E+000	-5.6376148E+001	0.0000000E+000	0.0000000E+000	0.0000000E+000	-3.3623852E+001	0.0000000E+000	0.0000000E+000	0.0000000E+000	3.3623852E+001	1.5037624E+000	5.6376144E+001	-1.869846331362270E-006	-5.4727607E-006	1.6265166E+004
3.1629555E+001	1.1361199E+001	6.6865139E+000	1.3182804E+001	-3.0478489E+001	1.248943261985551E+001	2.9834577E-001	-2.0193366E-002	7.5253601E+002	1.9360260E+002	1.000000000000000E+000	10	4.8476118E-003	3.6772236E-004	0	8.315385256815352E-005	6.5374531E-002	3.8475487E-002	7.5856395E-002	3.0478489E+001	1.9360263E+005	3.2895438E+005	3.8169747E+005	-5.9521511E+001	0.0000000E+000	0.0000000E+000	0.0000000E+000	5.9521511E+001	0.0000000E+000	0.0000000E+000	0.0000000E+000	-5.9521511E+001	0.0000000E+000	0.0000000E+000	0.0000000E+000	-3.0478489E+001	0.0000000E+000	0.0000000E+000	0.0000000E+000	3.0478489E+001	1.6991215E+000	5.9521515E+001	-2.261808058943039E-006	-6.0246057E-006	1.4774444E+004
2.1551722E+001	1.3362395E+001	6.7990971E+000	1.4992709E+001	-2.6968050E+001	1.292634120062576E+001	2.9835144E-001	-2.2484723E-002	1.0861427E+003	2.2337221E+002	1.000000000000000E+000	10	4.8473766E-003	3.2331559E-004	0	8.155507877946204E-005	5.9446197E-002	3.0247608E-002	6.6699088E-002	2.6968050E+001	2.2337222E+005	4.3899769E+005	4.9255875E+005	-6.3031952E+001	0.0000000E+000	0.0000000E+000	0.0000000E+000	6.3031952E+001	0.0000000E+000	0.0000000E+000	0.0000000E+000	-6.3031952E+001	0.0000000E+000	0.0000000E+000	0.0000000E+000	-2.6968050E+001	0.0000000E+000	0.0000000E+000	0.0000000E+000	2.6968050E+001	1.9653190E+000	6.3031952E+001	-1.598773788691481E-006	-6.7083497E-006	1.3269073E+004
1.4685154E+001	1.5376828E+001	6.6247702E+000	1.6743191E+001	-2.3307737E+001	1.366303208895260E+001	2.9839471E-001	-8.0637084E-003	1.6359529E+003	2.5611557E+002	1.000000000000000E+000	11	4.8439270E-003	2.8930730E-004	0	7.717123748979551E-005	5.4851729E-002	2.3631668E-002	5.9725773E-002	2.3307737E+001	2.5611563E+005	5.9447275E+005	6.4729675E+005	-6.6692261E+001	0.0000000E+000	0.0000000E+000	0.0000000E+000	6.6692261E+001	0.0000000E+000	0.0000000E+000	0.0000000E+000	-6.6692261E+001	0.0000000E+000	0.0000000E+000	0.0000000E+000	-2.3307737E+001	0.0000000E+000	0.0000000E+000	0.0000000E+000	2.3307737E+001	2.3211112E+000	6.6692261E+001	-4.383841289666527E-006	-2.4061681E-006	3.7004648E+004
