EC-Lab ASCII FILE
Nb header lines : 64                          

Potentio Electrochemical Impedance Spectroscopy

Run on channel : 8 (SN 65398)
User : 
CE vs. WE compliance from -10 V to 10 V
Electrode connection : standard
Potential control : Ewe
Ewe ctrl range : min = -10.00 V, max = 10.00 V
Safety Limits :
	Do not start on E overload
Acquisition started on : 09/11/2025 16:16:39.416
Technique started on : 09/11/2025 16:16:41.297
Loaded Setting File :  C:\Users\Celltest\OneDrive - store-dot.com\Documents\EC-Lab\Data\Charmaine\R279\17383_C02.mpr
Saved on :
	File : 17452_C08.mpr
	Directory : C:\Users\Celltest\OneDrive - store-dot.com\Documents\EC-Lab\Data\John\R281\
	Host : 169.254.61.224
Device : VMP-3e (SN .003165)
Address : USB
EC-LAB for windows v11.62 (software)
Internet server v27.00 (firmware)
Command interpretor v12.03 (firmware)
Electrode material : 
Initial state : 
Electrolyte : 
Comments : 
Electrode surface area : 0.001 cm²
Characteristic mass : 0.001 g
Equivalent Weight : 0.000 g/eq.
Density : 0.000 g/cm3
Volume (V) : 0.001 cm³
Cycle Definition : Charge/Discharge alternance
Mode                Single sine         
E (V)               0.0000              
vs.                 Eoc                 
tE (h:m:s)          0:00:0.0000         
record              0                   
dI                  0.000               
unit dI             mA                  
dt (s)              0.000               
fi                  100.000             
unit fi             kHz                 
ff                  10.000              
unit ff             mHz                 
Nd                  6                   
Points              per decade          
spacing             Logarithmic         
Va (mV)             5.0                 
pw                  0.10                
Na                  2                   
corr                0                   
E range min (V)     -10.000             
E range max (V)     10.000              
I Range             Auto                
Bandwidth           5                   
nc cycles           0                   
goto Ns'            0                   
nr cycles           0                   
inc. cycle          0                   

freq/Hz	Re(Z)/Ohm	-Im(Z)/Ohm	|Z|/Ohm	Phase(Z)/deg	time/s	<Ewe>/V	<I>/mA	Cs/µF	Cp/µF	cycle number	I Range	|Ewe|/V	|I|/A	Ns	(Q-Qo)/mA.h	Re(Y)/Ohm-1	Im(Y)/Ohm-1	|Y|/Ohm-1	Phase(Y)/deg	Re(C)/nF	Im(C)/nF	|C|/nF	Phase(C)/deg	Re(M)	Im(M)	|M|	Phase(M)/deg	Re(Permittivity)	Im(Permittivity)	|Permittivity|	Phase(Permittivity)/deg	Re(Resistivity)/Ohm.cm	Im(Resistivity)/Ohm.cm	|Resistivity|/Ohm.cm	Phase(Resistivity)/deg	Re(Conductivity)/mS/cm	Im(Conductivity)/mS/cm	|Conductivity|/mS/cm	Phase(Conductivity)/deg	Tan(Delta)	Loss Angle(Delta)/deg	dq/mA.h	Pwe/W	Rwe/Ohm	
1.0000371E+005	1.4524893E+000	2.5579166E-001	1.4748405E+000	-9.9877033E+000	1.881484702666057E+000	2.9999736E-001	2.5541747E-002	6.2218227E+000	1.8715450E-001	1.000000000000000E+000	9	4.7563179E-003	3.2249710E-003	0	-1.251720098448762E-006	6.6776377E-001	1.1759700E-001	6.7803943E-001	9.9877033E+000	1.8715445E+002	1.0627395E+003	1.0790931E+003	-8.0012299E+001	0.0000000E+000	0.0000000E+000	0.0000000E+000	8.0012299E+001	0.0000000E+000	0.0000000E+000	0.0000000E+000	-8.0012299E+001	0.0000000E+000	0.0000000E+000	0.0000000E+000	-9.9877033E+000	0.0000000E+000	0.0000000E+000	0.0000000E+000	9.9877033E+000	5.6784072E+000	8.0012299E+001	-1.251720098448762E-006	7.6624565E-006	1.1745374E+004
6.8132047E+004	1.5118902E+000	2.9366419E-001	1.5401462E+000	-1.0992058E+001	2.459488783468260E+000	2.9999313E-001	2.5076717E-002	7.9545879E+000	2.8919831E-001	1.000000000000000E+000	9	5.0450298E-003	3.2756822E-003	0	-2.826831646987961E-006	6.3737690E-001	1.2380183E-001	6.4928901E-001	1.0992058E+001	2.8919830E+002	1.4888982E+003	1.5167246E+003	-7.9007942E+001	0.0000000E+000	0.0000000E+000	0.0000000E+000	7.9007942E+001	0.0000000E+000	0.0000000E+000	0.0000000E+000	-7.9007942E+001	0.0000000E+000	0.0000000E+000	0.0000000E+000	-1.0992058E+001	0.0000000E+000	0.0000000E+000	0.0000000E+000	1.0992058E+001	5.1483641E+000	7.9007942E+001	-1.575111548539200E-006	7.5228427E-006	1.1963015E+004
4.6420355E+004	1.5847168E+000	3.2654312E-001	1.6180104E+000	-1.1643273E+001	3.037486810906557E+000	2.9999807E-001	2.2323754E-002	1.0499561E+001	4.2765111E-001	1.000000000000000E+000	9	5.0689359E-003	3.1328204E-003	0	1.201197831658646E-005	6.0532558E-001	1.2473202E-001	6.1804301E-001	1.1643273E+001	4.2765109E+002	2.0753948E+003	2.1189971E+003	-7.8356728E+001	0.0000000E+000	0.0000000E+000	0.0000000E+000	7.8356728E+001	0.0000000E+000	0.0000000E+000	0.0000000E+000	-7.8356728E+001	0.0000000E+000	0.0000000E+000	0.0000000E+000	-1.1643273E+001	0.0000000E+000	0.0000000E+000	0.0000000E+000	1.1643273E+001	4.8530092E+000	7.8356728E+001	1.483880996357443E-005	6.6970833E-006	1.3438514E+004
3.1621139E+004	1.6637310E+000	3.7836054E-001	1.7062114E+000	-1.2812120E+001	3.615493638353655E+000	2.9999560E-001	2.4927909E-002	1.3302608E+001	6.5415817E-001	1.000000000000000E+000	9	5.0889202E-003	2.9825848E-003	0	2.177480233556384E-005	5.7150155E-001	1.2996911E-001	5.8609384E-001	1.2812120E+001	6.5415808E+002	2.8764714E+003	2.9499170E+003	-7.7187881E+001	0.0000000E+000	0.0000000E+000	0.0000000E+000	7.7187881E+001	0.0000000E+000	0.0000000E+000	0.0000000E+000	-7.7187881E+001	0.0000000E+000	0.0000000E+000	0.0000000E+000	-1.2812120E+001	0.0000000E+000	0.0000000E+000	0.0000000E+000	1.2812120E+001	4.3972106E+000	7.7187881E+001	9.762824018977377E-006	7.4782629E-006	1.2034527E+004
2.1544684E+004	1.7519536E+000	4.3523967E-001	1.8052077E+000	-1.3951606E+001	4.052498965786071E+000	2.9999238E-001	2.3235215E-002	1.6972723E+001	9.8662961E-001	1.000000000000000E+000	9	5.0526951E-003	2.7989550E-003	0	2.818981106238466E-005	5.3761113E-001	1.3355929E-001	5.5395287E-001	1.3951606E+001	9.8662964E+002	3.9714424E+003	4.0921624E+003	-7.6048393E+001	0.0000000E+000	0.0000000E+000	0.0000000E+000	7.6048393E+001	0.0000000E+000	0.0000000E+000	0.0000000E+000	-7.6048393E+001	0.0000000E+000	0.0000000E+000	0.0000000E+000	-1.3951606E+001	0.0000000E+000	0.0000000E+000	0.0000000E+000	1.3951606E+001	4.0252619E+000	7.6048393E+001	6.415008726820816E-006	6.9703874E-006	1.2911108E+004
1.4678594E+004	1.8520865E+000	4.9211302E-001	1.9163506E+000	-1.4880090E+001	4.489497653237777E+000	2.9999188E-001	2.4648888E-002	2.2032856E+001	1.4529498E+000	1.000000000000000E+000	9	5.0244695E-003	2.6218947E-003	0	3.085725603816617E-005	5.0432599E-001	1.3400312E-001	5.2182519E-001	1.4880090E+001	1.4529496E+003	5.4682329E+003	5.6579707E+003	-7.5119911E+001	0.0000000E+000	0.0000000E+000	0.0000000E+000	7.5119911E+001	0.0000000E+000	0.0000000E+000	0.0000000E+000	-7.5119911E+001	0.0000000E+000	0.0000000E+000	0.0000000E+000	-1.4880090E+001	0.0000000E+000	0.0000000E+000	0.0000000E+000	1.4880090E+001	3.7635391E+000	7.5119911E+001	2.667444975781509E-006	7.3944661E-006	1.2170604E+004
1.0002226E+004	1.9571170E+000	5.6436712E-001	2.0368645E+000	-1.6085794E+001	4.785489000583766E+000	2.9998901E-001	2.6285773E-002	2.8194330E+001	2.1645164E+000	1.000000000000000E+000	9	4.5381729E-003	2.2280191E-003	0	3.180070633820207E-005	4.7172892E-001	1.3603087E-001	4.9095067E-001	1.6085794E+001	2.1645164E+003	7.5061284E+003	7.8119839E+003	-7.3914207E+001	0.0000000E+000	0.0000000E+000	0.0000000E+000	7.3914207E+001	0.0000000E+000	0.0000000E+000	0.0000000E+000	-7.3914207E+001	0.0000000E+000	0.0000000E+000	0.0000000E+000	-1.6085794E+001	0.0000000E+000	0.0000000E+000	0.0000000E+000	1.6085794E+001	3.4678082E+000	7.3914207E+001	9.434503000359007E-007	7.8854428E-006	1.1412600E+004
6.8110674E+003	2.0903451E+000	6.5696138E-001	2.1911507E+000	-1.7447083E+001	5.340503480314510E+000	2.9971755E-001	-1.0115048E-001	3.5568462E+001	3.1974247E+000	1.000000000000000E+000	9	4.8534172E-003	2.2150085E-003	0	1.490105002048141E-005	4.3538505E-001	1.3683441E-001	4.5638120E-001	1.7447083E+001	3.1974248E+003	1.0173690E+004	1.0664310E+004	-7.2552917E+001	0.0000000E+000	0.0000000E+000	0.0000000E+000	7.2552917E+001	0.0000000E+000	0.0000000E+000	0.0000000E+000	-7.2552917E+001	0.0000000E+000	0.0000000E+000	0.0000000E+000	-1.7447083E+001	0.0000000E+000	0.0000000E+000	0.0000000E+000	1.7447083E+001	3.1818388E+000	7.2552917E+001	-1.689965631772066E-005	-3.0316574E-005	2.9630857E+003
4.6414854E+003	2.2367563E+000	7.6380503E-001	2.3635728E+000	-1.8853954E+001	5.811707076063612E+000	3.0004701E-001	8.6590588E-002	4.4893208E+001	4.6882167E+000	1.000000000000000E+000	9	4.7412934E-003	2.0059857E-003	0	2.644518114731181E-005	4.0038764E-001	1.3672394E-001	4.2308828E-001	1.8853954E+001	4.6882178E+003	1.3729154E+004	1.4507552E+004	-7.1146042E+001	0.0000000E+000	0.0000000E+000	0.0000000E+000	7.1146042E+001	0.0000000E+000	0.0000000E+000	0.0000000E+000	-7.1146042E+001	0.0000000E+000	0.0000000E+000	0.0000000E+000	-1.8853954E+001	0.0000000E+000	0.0000000E+000	0.0000000E+000	1.8853954E+001	2.9284389E+000	7.1146042E+001	1.154413112683041E-005	2.5981248E-005	3.4651226E+003
3.1610117E+003	2.4053500E+000	8.7527037E-001	2.5596497E+000	-1.9995680E+001	6.278670751577010E+000	3.0004025E-001	8.7427624E-002	5.7524357E+001	6.7262836E+000	1.000000000000000E+000	9	4.6805674E-003	1.8285968E-003	0	3.489351043071494E-005	3.6712775E-001	1.3359222E-001	3.9067847E-001	1.9995680E+001	6.7262847E+003	1.8484650E+004	1.9670414E+004	-7.0004318E+001	0.0000000E+000	0.0000000E+000	0.0000000E+000	7.0004318E+001	0.0000000E+000	0.0000000E+000	0.0000000E+000	-7.0004318E+001	0.0000000E+000	0.0000000E+000	0.0000000E+000	-1.9995680E+001	0.0000000E+000	0.0000000E+000	0.0000000E+000	1.9995680E+001	2.7481222E+000	7.0004318E+001	8.448329283403127E-006	2.6231806E-005	3.4318701E+003
2.1556899E+003	2.5975039E+000	1.0140693E+000	2.7884338E+000	-2.1325747E+001	6.745680187093967E+000	3.0004272E-001	8.7483428E-002	7.2805832E+001	9.6289911E+000	1.000000000000000E+000	9	4.6521449E-003	1.6683720E-003	0	4.559910615227030E-005	3.3406851E-001	1.3042083E-001	3.5862425E-001	2.1325747E+001	9.6289902E+003	2.4664332E+004	2.6477287E+004	-6.8674255E+001	0.0000000E+000	0.0000000E+000	0.0000000E+000	6.8674255E+001	0.0000000E+000	0.0000000E+000	0.0000000E+000	-6.8674255E+001	0.0000000E+000	0.0000000E+000	0.0000000E+000	-2.1325747E+001	0.0000000E+000	0.0000000E+000	0.0000000E+000	2.1325747E+001	2.5614657E+000	6.8674255E+001	1.070559572155536E-005	2.6248767E-005	3.4297092E+003
1.4685898E+003	2.8131046E+000	1.1821597E+000	3.0514028E+000	-2.2793758E+001	7.212936102587264E+000	3.0003655E-001	8.6237147E-002	9.1673431E+001	1.3759311E+001	1.000000000000000E+000	9	4.6280627E-003	1.5167000E-003	0	5.682358114032670E-005	3.0212507E-001	1.2696296E-001	3.2771811E-001	2.2793758E+001	1.3759312E+004	3.2742088E+004	3.5515672E+004	-6.7206238E+001	0.0000000E+000	0.0000000E+000	0.0000000E+000	6.7206238E+001	0.0000000E+000	0.0000000E+000	0.0000000E+000	-6.7206238E+001	0.0000000E+000	0.0000000E+000	0.0000000E+000	-2.2793758E+001	0.0000000E+000	0.0000000E+000	0.0000000E+000	2.2793758E+001	2.3796318E+000	6.7206238E+001	1.122447498805640E-005	2.5874297E-005	3.4792031E+003
1.0003202E+003	3.0533540E+000	1.3854979E+000	3.3529949E+000	-2.4406771E+001	7.935711630278092E+000	2.9994822E-001	-1.2249577E-002	1.1483524E+002	1.9607452E+001	1.000000000000000E+000	10	4.7152233E-003	1.4062722E-003	0	5.857634657179005E-005	2.7158850E-001	1.2323671E-001	2.9824084E-001	2.4406771E+001	1.9607451E+004	4.3210816E+004	4.7451309E+004	-6.5593231E+001	0.0000000E+000	0.0000000E+000	0.0000000E+000	6.5593231E+001	0.0000000E+000	0.0000000E+000	0.0000000E+000	-6.5593231E+001	0.0000000E+000	0.0000000E+000	0.0000000E+000	-2.4406771E+001	0.0000000E+000	0.0000000E+000	0.0000000E+000	2.4406771E+001	2.2037954E+000	6.5593231E+001	1.752765431463356E-006	-3.6742388E-006	2.4486414E+004
6.8108978E+002	3.3234024E+000	1.6603408E+000	3.7150686E+000	-2.6546288E+001	8.401418825698784E+000	2.9994604E-001	-1.2703414E-002	1.4074033E+002	2.8111198E+001	1.000000000000000E+000	10	4.6861735E-003	1.2613962E-003	0	5.592143763666940E-005	2.4079598E-001	1.2029944E-001	2.6917404E-001	2.6546288E+001	2.8111197E+004	5.6268457E+004	6.2899750E+004	-6.3453712E+001	0.0000000E+000	0.0000000E+000	0.0000000E+000	6.3453712E+001	0.0000000E+000	0.0000000E+000	0.0000000E+000	-6.3453712E+001	0.0000000E+000	0.0000000E+000	0.0000000E+000	-2.6546288E+001	0.0000000E+000	0.0000000E+000	0.0000000E+000	2.6546288E+001	2.0016387E+000	6.3453712E+001	-2.654908935120656E-006	-3.8103387E-006	2.3611451E+004
4.6396069E+002	3.6354098E+000	2.0178545E+000	4.1578770E+000	-2.9032709E+001	8.870222474652110E+000	2.9995033E-001	-1.2400237E-002	1.7000006E+002	4.0039211E+001	1.000000000000000E+000	10	4.6570012E-003	1.1200431E-003	0	5.492282513593091E-005	2.1028589E-001	1.1672035E-001	2.4050736E-001	2.9032709E+001	4.0039211E+004	7.2135500E+004	8.2502539E+004	-6.0967293E+001	0.0000000E+000	0.0000000E+000	0.0000000E+000	6.0967293E+001	0.0000000E+000	0.0000000E+000	0.0000000E+000	-6.0967293E+001	0.0000000E+000	0.0000000E+000	0.0000000E+000	-2.9032709E+001	0.0000000E+000	0.0000000E+000	0.0000000E+000	2.9032709E+001	1.8016214E+000	6.0967293E+001	-9.986125007384892E-007	-3.7194552E-006	2.4189080E+004
3.1631589E+002	4.0297112E+000	2.5012801E+000	4.7428865E+000	-3.1828268E+001	9.336927696829662E+000	2.9994735E-001	-1.3268857E-002	2.0115776E+002	5.5946896E+001	1.000000000000000E+000	10	4.6355138E-003	9.7736134E-004	0	5.335689371786106E-005	1.7913830E-001	1.1119284E-001	2.1084207E-001	3.1828268E+001	5.5946898E+004	9.0133781E+004	1.0608559E+005	-5.8171730E+001	0.0000000E+000	0.0000000E+000	0.0000000E+000	5.8171730E+001	0.0000000E+000	0.0000000E+000	0.0000000E+000	-5.8171730E+001	0.0000000E+000	0.0000000E+000	0.0000000E+000	-3.1828268E+001	0.0000000E+000	0.0000000E+000	0.0000000E+000	3.1828268E+001	1.6110595E+000	5.8171730E+001	-1.565931418069845E-006	-3.9799584E-006	2.2605363E+004
2.1534457E+002	4.5757055E+000	3.1263278E+000	5.5417514E+000	-3.4342644E+001	9.804445425659651E+000	2.9994708E-001	-1.2792700E-002	2.3640230E+002	7.5236168E+001	1.000000000000000E+000	10	4.6248739E-003	8.3455094E-004	0	5.109439562105237E-005	1.4899236E-001	1.0179827E-001	1.8044837E-001	3.4342644E+001	7.5236164E+004	1.1011595E+005	1.3336417E+005	-5.5657356E+001	0.0000000E+000	0.0000000E+000	0.0000000E+000	5.5657356E+001	0.0000000E+000	0.0000000E+000	0.0000000E+000	-5.5657356E+001	0.0000000E+000	0.0000000E+000	0.0000000E+000	-3.4342644E+001	0.0000000E+000	0.0000000E+000	0.0000000E+000	3.4342644E+001	1.4636039E+000	5.5657356E+001	-2.262498096808692E-006	-3.8371331E-006	2.3446738E+004
1.4673740E+002	5.3502626E+000	3.8686035E+000	6.6023784E+000	-3.5869488E+001	1.026737672762829E+001	2.9994544E-001	-1.3970076E-002	2.8036584E+002	9.6257088E+001	1.000000000000000E+000	10	4.6210601E-003	6.9990841E-004	0	4.957678952160576E-005	1.2273665E-001	8.8746943E-002	1.5146057E-001	3.5869488E+001	9.6257086E+004	1.3312314E+005	1.6427781E+005	-5.4130512E+001	0.0000000E+000	0.0000000E+000	0.0000000E+000	5.4130512E+001	0.0000000E+000	0.0000000E+000	0.0000000E+000	-5.4130512E+001	0.0000000E+000	0.0000000E+000	0.0000000E+000	-3.5869488E+001	0.0000000E+000	0.0000000E+000	0.0000000E+000	3.5869488E+001	1.3829958E+000	5.4130508E+001	-1.517606099446612E-006	-4.1902608E-006	2.1470566E+004
1.0003201E+002	6.3885489E+000	4.6639719E+000	7.9098792E+000	-3.6131382E+001	1.073570288327755E+001	2.9995835E-001	-1.2614151E-002	3.4113416E+002	1.1860346E+002	1.000000000000000E+000	10	4.6108253E-003	5.8291981E-004	0	4.837990256796345E-005	1.0210864E-001	7.4544601E-002	1.2642418E-001	3.6131382E+001	1.1860345E+005	1.6245895E+005	2.0114594E+005	-5.3868618E+001	0.0000000E+000	0.0000000E+000	0.0000000E+000	5.3868618E+001	0.0000000E+000	0.0000000E+000	0.0000000E+000	-5.3868618E+001	0.0000000E+000	0.0000000E+000	0.0000000E+000	-3.6131382E+001	0.0000000E+000	0.0000000E+000	0.0000000E+000	3.6131382E+001	1.3697658E+000	5.3868622E+001	-1.196886953642307E-006	-3.7837196E-006	2.3779512E+004
6.8103981E+001	7.7452364E+000	5.3890085E+000	9.4355764E+000	-3.4829563E+001	1.121430175928981E+001	2.9996225E-001	-9.6251620E-003	4.3364941E+002	1.4145543E+002	1.000000000000000E+000	10	4.6038246E-003	4.8792191E-004	0	4.734782417470625E-005	8.6995706E-002	6.0530182E-002	1.0598186E-001	3.4829563E+001	1.4145544E+005	2.0330378E+005	2.4767331E+005	-5.5170437E+001	0.0000000E+000	0.0000000E+000	0.0000000E+000	5.5170437E+001	0.0000000E+000	0.0000000E+000	0.0000000E+000	-5.5170437E+001	0.0000000E+000	0.0000000E+000	0.0000000E+000	-3.4829563E+001	0.0000000E+000	0.0000000E+000	0.0000000E+000	3.4829563E+001	1.4372284E+000	5.5170441E+001	-1.032078393257204E-006	-2.8871852E-006	3.1164385E+004
4.6441547E+001	9.3969288E+000	5.9539175E+000	1.1124361E+001	-3.2358448E+001	1.166955042092013E+001	2.9995838E-001	-1.4991213E-002	5.7558655E+002	1.6487929E+002	1.000000000000000E+000	10	4.6068509E-003	4.1412274E-004	0	4.547675475848761E-005	7.5933918E-002	4.8111916E-002	8.9892805E-002	3.2358448E+001	1.6487930E+005	2.6022516E+005	3.0806219E+005	-5.7641552E+001	0.0000000E+000	0.0000000E+000	0.0000000E+000	5.7641552E+001	0.0000000E+000	0.0000000E+000	0.0000000E+000	-5.7641552E+001	0.0000000E+000	0.0000000E+000	0.0000000E+000	-3.2358448E+001	0.0000000E+000	0.0000000E+000	0.0000000E+000	3.2358448E+001	1.5782766E+000	5.7641556E+001	-1.871069416218639E-006	-4.4967396E-006	2.0008947E+004
3.1629555E+001	1.1233675E+001	6.2692842E+000	1.2864656E+001	-2.9164993E+001	1.211644550881465E+001	2.9994410E-001	-1.7504053E-002	8.0261835E+002	1.9061128E+002	1.000000000000000E+000	10	4.6034064E-003	3.5783360E-004	0	4.343309706411350E-005	6.7877449E-002	3.7881017E-002	7.7732354E-002	2.9164993E+001	1.9061130E+005	3.4154863E+005	3.9113697E+005	-6.0835007E+001	0.0000000E+000	0.0000000E+000	0.0000000E+000	6.0835007E+001	0.0000000E+000	0.0000000E+000	0.0000000E+000	-6.0835007E+001	0.0000000E+000	0.0000000E+000	0.0000000E+000	-2.9164993E+001	0.0000000E+000	0.0000000E+000	0.0000000E+000	2.9164993E+001	1.7918593E+000	6.0835007E+001	-2.043657694374108E-006	-5.2502373E-006	1.7135693E+004
2.1551722E+001	1.3063482E+001	6.3231487E+000	1.4513331E+001	-2.5828485E+001	1.255533651632140E+001	2.9994628E-001	-2.0355405E-002	1.1678976E+003	2.2168552E+002	1.000000000000000E+000	10	4.6040458E-003	3.1722873E-004	0	4.025081741567798E-005	6.2018994E-002	3.0019203E-002	6.8902165E-002	2.5828485E+001	2.2168552E+005	4.5799734E+005	5.0882809E+005	-6.4171516E+001	0.0000000E+000	0.0000000E+000	0.0000000E+000	6.4171516E+001	0.0000000E+000	0.0000000E+000	0.0000000E+000	-6.4171516E+001	0.0000000E+000	0.0000000E+000	0.0000000E+000	-2.5828485E+001	0.0000000E+000	0.0000000E+000	0.0000000E+000	2.5828485E+001	2.0659773E+000	6.4171516E+001	-3.182279648435523E-006	-6.1055280E-006	1.4735461E+004
1.4685154E+001	1.4928196E+001	6.1149449E+000	1.6132067E+001	-2.2275177E+001	1.329202532468480E+001	2.9998586E-001	-8.1238458E-003	1.7723481E+003	2.5465614E+002	1.000000000000000E+000	11	4.6031969E-003	2.8534452E-004	0	4.112342080541324E-005	5.7362400E-002	2.3497008E-002	6.1988339E-002	2.2275177E+001	2.5465616E+005	6.2168294E+005	6.7181800E+005	-6.7724823E+001	0.0000000E+000	0.0000000E+000	0.0000000E+000	6.7724823E+001	0.0000000E+000	0.0000000E+000	0.0000000E+000	-6.7724823E+001	0.0000000E+000	0.0000000E+000	0.0000000E+000	-2.2275177E+001	0.0000000E+000	0.0000000E+000	0.0000000E+000	2.2275177E+001	2.4412642E+000	6.7724823E+001	8.726033897352587E-007	-2.4370388E-006	3.6926582E+004
