EC-Lab ASCII FILE
Nb header lines : 63                          

Potentio Electrochemical Impedance Spectroscopy

Run on channel : 3 (SN 65921)
User : 
CE vs. WE compliance from -10 V to 10 V
Electrode connection : standard
Potential control : Ewe
Ewe ctrl range : min = -10.00 V, max = 10.00 V
Safety Limits :
	Do not start on E overload
Acquisition started on : 09/11/2025 16:15:48.615
Loaded Setting File :  C:\Users\Celltest\OneDrive - store-dot.com\Documents\EC-Lab\Data\Charmaine\R279\17382_C01.mpr
Saved on :
	File : 17456_C03.mpr
	Directory : C:\Users\Celltest\OneDrive - store-dot.com\Documents\EC-Lab\Data\John\R281\
	Host : 169.254.61.224
Device : VMP-3e (SN .003165)
Address : USB
EC-LAB for windows v11.62 (software)
Internet server v27.00 (firmware)
Command interpretor v12.03 (firmware)
Electrode material : 
Initial state : 
Electrolyte : 
Comments : 
Electrode surface area : 0.001 cm²
Characteristic mass : 0.001 g
Equivalent Weight : 0.000 g/eq.
Density : 0.000 g/cm3
Volume (V) : 0.001 cm³
Cycle Definition : Charge/Discharge alternance
Mode                Single sine         
E (V)               0.0000              
vs.                 Eoc                 
tE (h:m:s)          0:00:0.0000         
record              0                   
dI                  0.000               
unit dI             mA                  
dt (s)              0.000               
fi                  100.000             
unit fi             kHz                 
ff                  10.000              
unit ff             mHz                 
Nd                  6                   
Points              per decade          
spacing             Logarithmic         
Va (mV)             5.0                 
pw                  0.10                
Na                  2                   
corr                0                   
E range min (V)     -10.000             
E range max (V)     10.000              
I Range             Auto                
Bandwidth           5                   
nc cycles           0                   
goto Ns'            0                   
nr cycles           0                   
inc. cycle          0                   

freq/Hz	Re(Z)/Ohm	-Im(Z)/Ohm	|Z|/Ohm	Phase(Z)/deg	time/s	<Ewe>/V	<I>/mA	Cs/µF	Cp/µF	cycle number	I Range	|Ewe|/V	|I|/A	Ns	(Q-Qo)/mA.h	Re(Y)/Ohm-1	Im(Y)/Ohm-1	|Y|/Ohm-1	Phase(Y)/deg	Re(C)/nF	Im(C)/nF	|C|/nF	Phase(C)/deg	Re(M)	Im(M)	|M|	Phase(M)/deg	Re(Permittivity)	Im(Permittivity)	|Permittivity|	Phase(Permittivity)/deg	Re(Resistivity)/Ohm.cm	Im(Resistivity)/Ohm.cm	|Resistivity|/Ohm.cm	Phase(Resistivity)/deg	Re(Conductivity)/mS/cm	Im(Conductivity)/mS/cm	|Conductivity|/mS/cm	Phase(Conductivity)/deg	Tan(Delta)	Loss Angle(Delta)/deg	dq/mA.h	Pwe/W	Rwe/Ohm	
1.0000371E+005	2.4864683E+000	3.4987539E-001	2.5109634E+000	-8.0096045E+000	2.024495189456502E+000	2.9113725E-001	4.6424072E-002	4.5487347E+000	8.8315435E-002	1.000000000000000E+000	9	4.8982045E-003	1.9507271E-003	0	6.494772165282888E-006	3.9436844E-001	5.5492282E-002	3.9825350E-001	8.0096045E+000	8.8315453E+001	6.2763361E+002	6.3381665E+002	-8.1990395E+001	0.0000000E+000	0.0000000E+000	0.0000000E+000	8.1990395E+001	0.0000000E+000	0.0000000E+000	0.0000000E+000	-8.1990395E+001	0.0000000E+000	0.0000000E+000	0.0000000E+000	-8.0096045E+000	0.0000000E+000	0.0000000E+000	0.0000000E+000	8.0096045E+000	7.1067252E+000	8.1990395E+001	6.494772165282888E-006	1.3515777E-005	6.2712563E+003
6.8132047E+004	2.5680263E+000	3.9915660E-001	2.5988622E+000	-8.8349705E+000	2.462481583614135E+000	2.9114002E-001	4.6013847E-002	5.8522840E+000	1.3805290E-001	1.000000000000000E+000	9	5.2737724E-003	2.0292620E-003	0	1.116775121372727E-005	3.8021824E-001	5.9098545E-002	3.8478377E-001	8.8349705E+000	1.3805284E+002	8.8818127E+002	8.9884625E+002	-8.1165031E+001	0.0000000E+000	0.0000000E+000	0.0000000E+000	8.1165031E+001	0.0000000E+000	0.0000000E+000	0.0000000E+000	-8.1165031E+001	0.0000000E+000	0.0000000E+000	0.0000000E+000	-8.8349705E+000	0.0000000E+000	0.0000000E+000	0.0000000E+000	8.8349705E+000	6.4336309E+000	8.1165031E+001	4.672979048444377E-006	1.3396472E-005	6.3272261E+003
4.6420355E+004	2.6562834E+000	4.4940850E-001	2.6940322E+000	-9.6027632E+000	2.900486537750112E+000	2.9112494E-001	4.2564187E-002	7.6290483E+000	2.1229874E-001	1.000000000000000E+000	9	5.3086090E-003	1.9705070E-003	0	1.708259299506770E-005	3.6598969E-001	6.1920676E-002	3.7119082E-001	9.6027632E+000	2.1229865E+002	1.2548173E+003	1.2726497E+003	-8.0397240E+001	0.0000000E+000	0.0000000E+000	0.0000000E+000	8.0397240E+001	0.0000000E+000	0.0000000E+000	0.0000000E+000	-8.0397240E+001	0.0000000E+000	0.0000000E+000	0.0000000E+000	-9.6027632E+000	0.0000000E+000	0.0000000E+000	0.0000000E+000	9.6027632E+000	5.9106212E+000	8.0397240E+001	5.914841781340430E-006	1.2391496E-005	6.8396689E+003
3.1621139E+004	2.7521524E+000	5.2448845E-001	2.8016837E+000	-1.0789701E+001	3.337476798478747E+000	2.9113841E-001	4.2359065E-002	9.5963640E+000	3.3631045E-001	1.000000000000000E+000	9	5.2931127E-003	1.8892613E-003	0	1.902900540955145E-005	3.5061806E-001	6.6818662E-002	3.5692823E-001	1.0789701E+001	3.3631055E+002	1.7647245E+003	1.7964847E+003	-7.9210297E+001	0.0000000E+000	0.0000000E+000	0.0000000E+000	7.9210297E+001	0.0000000E+000	0.0000000E+000	0.0000000E+000	-7.9210297E+001	0.0000000E+000	0.0000000E+000	0.0000000E+000	-1.0789701E+001	0.0000000E+000	0.0000000E+000	0.0000000E+000	1.0789701E+001	5.2473078E+000	7.9210297E+001	1.946412414483753E-006	1.2332351E-005	6.8731074E+003
2.1544684E+004	2.8735175E+000	5.8898890E-001	2.9332595E+000	-1.1583553E+001	3.774499699269654E+000	2.9113841E-001	4.6013836E-002	1.2542176E+001	5.0569212E-001	1.000000000000000E+000	9	5.3077419E-003	1.8095031E-003	0	2.196263665659353E-005	3.3397418E-001	6.8455152E-002	3.4091768E-001	1.1583553E+001	5.0569232E+002	2.4671353E+003	2.5184282E+003	-7.8416443E+001	0.0000000E+000	0.0000000E+000	0.0000000E+000	7.8416443E+001	0.0000000E+000	0.0000000E+000	0.0000000E+000	-7.8416443E+001	0.0000000E+000	0.0000000E+000	0.0000000E+000	-1.1583553E+001	0.0000000E+000	0.0000000E+000	0.0000000E+000	1.1583553E+001	4.8787293E+000	7.8416443E+001	2.933631247042082E-006	1.3396395E-005	6.3271929E+003
1.4678594E+004	3.0080132E+000	6.7957711E-001	3.0838237E+000	-1.2730668E+001	4.211495746654691E+000	2.9114276E-001	4.6442706E-002	1.5955005E+001	7.7481019E-001	1.000000000000000E+000	9	5.3074458E-003	1.7210600E-003	0	2.388997517504160E-005	3.1630108E-001	7.1459450E-002	3.2427275E-001	1.2730668E+001	7.7481012E+002	3.4295435E+003	3.5159778E+003	-7.7269333E+001	0.0000000E+000	0.0000000E+000	0.0000000E+000	7.7269333E+001	0.0000000E+000	0.0000000E+000	0.0000000E+000	-7.7269333E+001	0.0000000E+000	0.0000000E+000	0.0000000E+000	-1.2730668E+001	0.0000000E+000	0.0000000E+000	0.0000000E+000	1.2730668E+001	4.4263015E+000	7.7269333E+001	1.927338518448072E-006	1.3521458E-005	6.2688589E+003
1.0002226E+004	3.1565819E+000	7.7739024E-001	3.2508991E+000	-1.3835247E+001	4.648479474097257E+000	2.9113731E-001	4.0624905E-002	2.0468424E+001	1.1704574E+000	1.000000000000000E+000	9	5.2738073E-003	1.6222611E-003	0	2.818612338455083E-005	2.9868272E-001	7.3558368E-002	3.0760720E-001	1.3835247E+001	1.1704576E+003	4.7526255E+003	4.8946318E+003	-7.6164749E+001	0.0000000E+000	0.0000000E+000	0.0000000E+000	7.6164749E+001	0.0000000E+000	0.0000000E+000	0.0000000E+000	-7.6164749E+001	0.0000000E+000	0.0000000E+000	0.0000000E+000	-1.3835247E+001	0.0000000E+000	0.0000000E+000	0.0000000E+000	1.3835247E+001	4.0604854E+000	7.6164749E+001	4.296148209509231E-006	1.1827426E-005	7.1664736E+003
6.8110674E+003	3.3451202E+000	9.0173900E-001	3.4645293E+000	-1.5086529E+001	5.203500327101210E+000	2.9112583E-001	2.8392609E-002	2.5913382E+001	1.7554859E+000	1.000000000000000E+000	9	5.1917108E-003	1.4985328E-003	0	3.462658188006026E-005	2.7869120E-001	7.5126365E-002	2.8863949E-001	1.5086529E+001	1.7554865E+003	6.5122075E+003	6.7446704E+003	-7.4913467E+001	0.0000000E+000	0.0000000E+000	0.0000000E+000	7.4913467E+001	0.0000000E+000	0.0000000E+000	0.0000000E+000	-7.4913467E+001	0.0000000E+000	0.0000000E+000	0.0000000E+000	-1.5086529E+001	0.0000000E+000	0.0000000E+000	0.0000000E+000	1.5086529E+001	3.7096324E+000	7.4913467E+001	6.440458495509425E-006	8.2658216E-006	1.0253578E+004
4.6414854E+003	3.5522387E+000	1.0235850E+000	3.6967723E+000	-1.6074446E+001	5.896670146765246E+000	2.9115361E-001	4.8214134E-002	3.3499573E+001	2.5682757E+000	1.000000000000000E+000	9	5.1164725E-003	1.3840378E-003	0	4.522385034437239E-005	2.5993019E-001	7.4899420E-002	2.7050623E-001	1.6074446E+001	2.5682759E+003	8.9129170E+003	9.2755664E+003	-7.3925552E+001	0.0000000E+000	0.0000000E+000	0.0000000E+000	7.3925552E+001	0.0000000E+000	0.0000000E+000	0.0000000E+000	-7.3925552E+001	0.0000000E+000	0.0000000E+000	0.0000000E+000	-1.6074446E+001	0.0000000E+000	0.0000000E+000	0.0000000E+000	1.6074446E+001	3.4703896E+000	7.3925552E+001	1.059726846431214E-005	1.4037719E-005	6.0387607E+003
3.1610117E+003	3.7530365E+000	1.1896008E+000	3.9370589E+000	-1.7587065E+001	6.840690858269227E+000	2.9117405E-001	-5.1949443E-003	4.2324589E+001	3.8641274E+000	1.000000000000000E+000	10	4.8462539E-003	1.2309325E-003	0	4.838530936603719E-005	2.4212462E-001	7.6746292E-002	2.5399670E-001	1.7587065E+001	3.8641277E+003	1.2190821E+004	1.2788573E+004	-7.2412933E+001	0.0000000E+000	0.0000000E+000	0.0000000E+000	7.2412933E+001	0.0000000E+000	0.0000000E+000	0.0000000E+000	-7.2412933E+001	0.0000000E+000	0.0000000E+000	0.0000000E+000	-1.7587065E+001	0.0000000E+000	0.0000000E+000	0.0000000E+000	1.7587065E+001	3.1548705E+000	7.2412933E+001	3.161459021664793E-006	-1.5126330E-006	5.6049504E+004
2.1556899E+003	4.0178537E+000	1.3825433E+000	4.2490673E+000	-1.8988338E+001	7.307675547119288E+000	2.9116490E-001	-5.6964830E-003	5.3401703E+001	5.6536036E+000	1.000000000000000E+000	10	5.0664176E-003	1.1923600E-003	0	4.822250913862889E-005	2.2253938E-001	7.6575793E-002	2.3534577E-001	1.8988338E+001	5.6536040E+003	1.6430117E+004	1.7375615E+004	-7.1011658E+001	0.0000000E+000	0.0000000E+000	0.0000000E+000	7.1011658E+001	0.0000000E+000	0.0000000E+000	0.0000000E+000	-7.1011658E+001	0.0000000E+000	0.0000000E+000	0.0000000E+000	-1.8988338E+001	0.0000000E+000	0.0000000E+000	0.0000000E+000	1.8988338E+001	2.9061322E+000	7.1011658E+001	-1.628002274082932E-007	-1.6586159E-006	5.1113102E+004
1.4685898E+003	4.3340468E+000	1.6062465E+000	4.6221194E+000	-2.0335274E+001	7.774927649297751E+000	2.9116675E-001	-5.0812149E-003	6.7469490E+001	8.1479712E+000	1.000000000000000E+000	10	5.0844480E-003	1.1000253E-003	0	4.833259147357118E-005	2.0286694E-001	7.5184770E-002	2.1635097E-001	2.0335274E+001	8.1479717E+003	2.1985223E+004	2.3446523E+004	-6.9664726E+001	0.0000000E+000	0.0000000E+000	0.0000000E+000	6.9664726E+001	0.0000000E+000	0.0000000E+000	0.0000000E+000	-6.9664726E+001	0.0000000E+000	0.0000000E+000	0.0000000E+000	-2.0335274E+001	0.0000000E+000	0.0000000E+000	0.0000000E+000	2.0335274E+001	2.6982453E+000	6.9664726E+001	1.100823349422874E-007	-1.4794808E-006	5.7302586E+004
1.0003202E+003	4.6905441E+000	1.8711057E+000	5.0499744E+000	-2.1747559E+001	8.243693191579951E+000	2.9116768E-001	-4.8500313E-003	8.5032074E+001	1.1673499E+001	1.000000000000000E+000	10	5.0376770E-003	9.9756487E-004	0	4.695924016049442E-005	1.8392673E-001	7.3370241E-002	1.9802080E-001	2.1747559E+001	1.1673500E+004	2.9263482E+004	3.1505904E+004	-6.8252441E+001	0.0000000E+000	0.0000000E+000	0.0000000E+000	6.8252441E+001	0.0000000E+000	0.0000000E+000	0.0000000E+000	-6.8252441E+001	0.0000000E+000	0.0000000E+000	0.0000000E+000	-2.1747559E+001	0.0000000E+000	0.0000000E+000	0.0000000E+000	2.1747559E+001	2.5068302E+000	6.8252441E+001	-1.373351313076763E-006	-1.4121723E-006	6.0034184E+004
6.8108978E+002	5.0932684E+000	2.1810825E+000	5.5406232E+000	-2.3181986E+001	8.709428227011813E+000	2.9116312E-001	-5.2303770E-003	1.0713804E+002	1.6602392E+001	1.000000000000000E+000	10	4.9835262E-003	8.9945231E-004	0	4.569673717433600E-005	1.6591260E-001	7.1048491E-002	1.8048511E-001	2.3181986E+001	1.6602389E+004	3.8769938E+004	4.2175199E+004	-6.6818016E+001	0.0000000E+000	0.0000000E+000	0.0000000E+000	6.6818016E+001	0.0000000E+000	0.0000000E+000	0.0000000E+000	-6.6818016E+001	0.0000000E+000	0.0000000E+000	0.0000000E+000	-2.3181986E+001	0.0000000E+000	0.0000000E+000	0.0000000E+000	2.3181986E+001	2.3352020E+000	6.6818016E+001	-1.262502986158423E-006	-1.5228928E-006	5.5667711E+004
4.6396069E+002	5.5464525E+000	2.5796406E+000	6.1169991E+000	-2.4943016E+001	9.178184809250524E+000	2.9116750E-001	-4.9898690E-003	1.3297798E+002	2.3649464E+001	1.000000000000000E+000	10	4.9385382E-003	8.0734654E-004	0	4.532074802661211E-005	1.4823079E-001	6.8941757E-002	1.6347885E-001	2.4943016E+001	2.3649463E+004	5.0848410E+004	5.6079031E+004	-6.5056984E+001	0.0000000E+000	0.0000000E+000	0.0000000E+000	6.5056984E+001	0.0000000E+000	0.0000000E+000	0.0000000E+000	-6.5056984E+001	0.0000000E+000	0.0000000E+000	0.0000000E+000	-2.4943016E+001	0.0000000E+000	0.0000000E+000	0.0000000E+000	2.4943016E+001	2.1500874E+000	6.5056984E+001	-3.759891477238820E-007	-1.4528877E-006	5.8351730E+004
3.1631589E+002	6.0814228E+000	3.0675290E+000	6.8112726E+000	-2.6766823E+001	9.644941098114941E+000	2.9116985E-001	-4.6095299E-003	1.6402516E+002	3.3268353E+001	1.000000000000000E+000	10	4.9034241E-003	7.1989838E-004	0	4.447471738767733E-005	1.3108370E-001	6.6119894E-002	1.4681545E-001	2.6766823E+001	3.3268348E+004	6.5955008E+004	7.3870469E+004	-6.3233177E+001	0.0000000E+000	0.0000000E+000	0.0000000E+000	6.3233177E+001	0.0000000E+000	0.0000000E+000	0.0000000E+000	-6.3233177E+001	0.0000000E+000	0.0000000E+000	0.0000000E+000	-2.6766823E+001	0.0000000E+000	0.0000000E+000	0.0000000E+000	2.6766823E+001	1.9825152E+000	6.3233177E+001	-8.460306389347877E-007	-1.3421561E-006	6.3166930E+004
2.1534457E+002	6.7492466E+000	3.7122371E+000	7.7027941E+000	-2.8811781E+001	1.011241288026213E+001	2.9116321E-001	-5.0793695E-003	1.9909050E+002	4.6240803E+001	1.000000000000000E+000	10	4.8834258E-003	6.3398108E-004	0	4.326273067644474E-005	1.1375191E-001	6.2566102E-002	1.2982301E-001	2.8811781E+001	4.6240801E+004	8.4070750E+004	9.5948438E+004	-6.1188217E+001	0.0000000E+000	0.0000000E+000	0.0000000E+000	6.1188217E+001	0.0000000E+000	0.0000000E+000	0.0000000E+000	-6.1188217E+001	0.0000000E+000	0.0000000E+000	0.0000000E+000	-2.8811781E+001	0.0000000E+000	0.0000000E+000	0.0000000E+000	2.8811781E+001	1.8181076E+000	6.1188217E+001	-1.211986711232590E-006	-1.4789255E-006	5.7322707E+004
1.4673740E+002	7.6206307E+000	4.5023060E+000	8.8512583E+000	-3.0574802E+001	1.057538618225954E+001	2.9117197E-001	-5.2844617E-003	2.4090417E+002	6.2331028E+001	1.000000000000000E+000	10	4.8663476E-003	5.4979161E-004	0	4.289352085101160E-005	9.7270444E-002	5.7467856E-002	1.1297829E-001	3.0574802E+001	6.2331035E+004	1.0550189E+005	1.2253900E+005	-5.9425198E+001	0.0000000E+000	0.0000000E+000	0.0000000E+000	5.9425198E+001	0.0000000E+000	0.0000000E+000	0.0000000E+000	-5.9425198E+001	0.0000000E+000	0.0000000E+000	0.0000000E+000	-3.0574802E+001	0.0000000E+000	0.0000000E+000	0.0000000E+000	3.0574802E+001	1.6926061E+000	5.9425201E+001	-3.692098254331406E-007	-1.5386871E-006	5.5099645E+004
1.0003201E+002	8.7502737E+000	5.3883901E+000	1.0276285E+001	-3.1624626E+001	1.104369593790034E+001	2.9116255E-001	-4.8425891E-003	2.9527188E+002	8.1183517E+001	1.000000000000000E+000	10	4.8601683E-003	4.7294993E-004	0	4.273104013200080E-005	8.2860842E-002	5.1025435E-002	9.7311430E-002	3.1624626E+001	8.1183516E+004	1.3183492E+005	1.5482639E+005	-5.8375374E+001	0.0000000E+000	0.0000000E+000	0.0000000E+000	5.8375374E+001	0.0000000E+000	0.0000000E+000	0.0000000E+000	-5.8375374E+001	0.0000000E+000	0.0000000E+000	0.0000000E+000	-3.1624626E+001	0.0000000E+000	0.0000000E+000	0.0000000E+000	3.1624626E+001	1.6239125E+000	5.8375374E+001	-1.624807190107977E-007	-1.4099807E-006	6.0125387E+004
6.8103981E+001	1.0241975E+001	6.3218002E+000	1.2035913E+001	-3.1684721E+001	1.152130177387153E+001	2.9116845E-001	-4.3969899E-003	3.6966373E+002	1.0198359E+002	1.000000000000000E+000	10	4.8518414E-003	4.0311369E-004	0	4.248790916276468E-005	7.0701011E-002	4.3639790E-002	8.3084680E-002	3.1684721E+001	1.0198359E+005	1.6522403E+005	1.9416394E+005	-5.8315277E+001	0.0000000E+000	0.0000000E+000	0.0000000E+000	5.8315277E+001	0.0000000E+000	0.0000000E+000	0.0000000E+000	-5.8315277E+001	0.0000000E+000	0.0000000E+000	0.0000000E+000	-3.1684721E+001	0.0000000E+000	0.0000000E+000	0.0000000E+000	3.1684721E+001	1.6201042E+000	5.8315277E+001	-2.431309692361183E-007	-1.2802648E-006	6.6219953E+004
4.6441547E+001	1.2087257E+001	7.1246233E+000	1.4030754E+001	-3.0516483E+001	1.197656411546632E+001	2.9116181E-001	-5.3646355E-003	4.8100717E+002	1.2402617E+002	1.000000000000000E+000	10	4.8479238E-003	3.4552126E-004	0	4.194919643415293E-005	6.1399631E-002	3.6190942E-002	7.1272008E-002	3.0516483E+001	1.2402617E+005	2.1041622E+005	2.4424880E+005	-5.9483517E+001	0.0000000E+000	0.0000000E+000	0.0000000E+000	5.9483517E+001	0.0000000E+000	0.0000000E+000	0.0000000E+000	-5.9483517E+001	0.0000000E+000	0.0000000E+000	0.0000000E+000	-3.0516483E+001	0.0000000E+000	0.0000000E+000	0.0000000E+000	3.0516483E+001	1.6965469E+000	5.9483521E+001	-5.387127286117459E-007	-1.5619770E-006	5.4274293E+004
3.1629555E+001	1.4225681E+001	7.7481527E+000	1.6198885E+001	-2.8575340E+001	1.242443139009993E+001	2.9115868E-001	-6.0563446E-003	6.4942480E+002	1.4857816E+002	1.000000000000000E+000	10	4.8418995E-003	2.9890327E-004	0	4.117419692967087E-005	5.4212924E-002	2.9527582E-002	6.1732642E-002	2.8575340E+001	1.4857817E+005	2.7279091E+005	3.1062897E+005	-6.1424660E+001	0.0000000E+000	0.0000000E+000	0.0000000E+000	6.1424660E+001	0.0000000E+000	0.0000000E+000	0.0000000E+000	-6.1424660E+001	0.0000000E+000	0.0000000E+000	0.0000000E+000	-2.8575340E+001	0.0000000E+000	0.0000000E+000	0.0000000E+000	2.8575340E+001	1.8360094E+000	6.1424660E+001	-7.749995044820652E-007	-1.7633573E-006	4.8074984E+004
2.1551722E+001	1.6581585E+001	8.0555935E+000	1.8434792E+001	-2.5911207E+001	1.310433536904748E+001	2.9116857E-001	-8.7131001E-003	9.1672815E+002	1.7504883E+002	1.000000000000000E+000	11	4.8467400E-003	2.6291265E-004	0	3.958027993575444E-005	4.8792105E-002	2.3703970E-002	5.4245256E-002	2.5911207E+001	1.7504888E+005	3.6031950E+005	4.0058988E+005	-6.4088791E+001	0.0000000E+000	0.0000000E+000	0.0000000E+000	6.4088791E+001	0.0000000E+000	0.0000000E+000	0.0000000E+000	-6.4088791E+001	0.0000000E+000	0.0000000E+000	0.0000000E+000	-2.5911207E+001	0.0000000E+000	0.0000000E+000	0.0000000E+000	2.5911207E+001	2.0583940E+000	6.4088791E+001	-1.593916993916431E-006	-2.5369809E-006	3.3417332E+004
1.4685154E+001	1.8934078E+001	8.0075626E+000	2.0557734E+001	-2.2924377E+001	1.358202011178946E+001	2.9117599E-001	-8.3032809E-003	1.3534470E+003	2.0534848E+002	1.000000000000000E+000	11	4.8453812E-003	2.3569628E-004	0	3.854907286474110E-005	4.4801623E-002	1.8947413E-002	4.8643496E-002	2.2924377E+001	2.0534850E+005	4.8555153E+005	5.2718906E+005	-6.7075623E+001	0.0000000E+000	0.0000000E+000	0.0000000E+000	6.7075623E+001	0.0000000E+000	0.0000000E+000	0.0000000E+000	-6.7075623E+001	0.0000000E+000	0.0000000E+000	0.0000000E+000	-2.2924377E+001	0.0000000E+000	0.0000000E+000	0.0000000E+000	2.2924377E+001	2.3645246E+000	6.7075623E+001	-1.031207071013342E-006	-2.4177161E-006	3.5067582E+004
1.0003201E+001	2.1158850E+001	7.6132832E+000	2.2486862E+001	-1.9789520E+001	1.405070642739156E+001	2.9117790E-001	-8.2152765E-003	2.0898213E+003	2.3954958E+002	1.000000000000000E+000	11	4.8447340E-003	2.1544732E-004	0	3.874739862766162E-005	4.1844107E-002	1.5056161E-002	4.4470411E-002	1.9789520E+001	2.3954956E+005	6.6575656E+005	7.0754206E+005	-7.0210480E+001	0.0000000E+000	0.0000000E+000	0.0000000E+000	7.0210480E+001	0.0000000E+000	0.0000000E+000	0.0000000E+000	-7.0210480E+001	0.0000000E+000	0.0000000E+000	0.0000000E+000	-1.9789520E+001	0.0000000E+000	0.0000000E+000	0.0000000E+000	1.9789520E+001	2.7792017E+000	7.0210480E+001	1.983257629205253E-007	-2.3921070E-006	3.5443469E+004
