EC-Lab ASCII FILE
Nb header lines : 63                          

Potentio Electrochemical Impedance Spectroscopy

Run on channel : 2 (SN 66139)
User : 
CE vs. WE compliance from -10 V to 10 V
Electrode connection : standard
Potential control : Ewe
Ewe ctrl range : min = -10.00 V, max = 10.00 V
Safety Limits :
	Do not start on E overload
Acquisition started on : 09/11/2025 16:15:40.713
Loaded Setting File :  C:\Users\Celltest\OneDrive - store-dot.com\Documents\EC-Lab\Data\Charmaine\R279\17382_C01.mpr
Saved on :
	File : 17455_C02.mpr
	Directory : C:\Users\Celltest\OneDrive - store-dot.com\Documents\EC-Lab\Data\John\R281\
	Host : 169.254.61.224
Device : VMP-3e (SN .003165)
Address : USB
EC-LAB for windows v11.62 (software)
Internet server v27.00 (firmware)
Command interpretor v12.03 (firmware)
Electrode material : 
Initial state : 
Electrolyte : 
Comments : 
Electrode surface area : 0.001 cm²
Characteristic mass : 0.001 g
Equivalent Weight : 0.000 g/eq.
Density : 0.000 g/cm3
Volume (V) : 0.001 cm³
Cycle Definition : Charge/Discharge alternance
Mode                Single sine         
E (V)               0.0000              
vs.                 Eoc                 
tE (h:m:s)          0:00:0.0000         
record              0                   
dI                  0.000               
unit dI             mA                  
dt (s)              0.000               
fi                  100.000             
unit fi             kHz                 
ff                  10.000              
unit ff             mHz                 
Nd                  6                   
Points              per decade          
spacing             Logarithmic         
Va (mV)             5.0                 
pw                  0.10                
Na                  2                   
corr                0                   
E range min (V)     -10.000             
E range max (V)     10.000              
I Range             Auto                
Bandwidth           5                   
nc cycles           0                   
goto Ns'            0                   
nr cycles           0                   
inc. cycle          0                   

freq/Hz	Re(Z)/Ohm	-Im(Z)/Ohm	|Z|/Ohm	Phase(Z)/deg	time/s	<Ewe>/V	<I>/mA	Cs/µF	Cp/µF	cycle number	I Range	|Ewe|/V	|I|/A	Ns	(Q-Qo)/mA.h	Re(Y)/Ohm-1	Im(Y)/Ohm-1	|Y|/Ohm-1	Phase(Y)/deg	Re(C)/nF	Im(C)/nF	|C|/nF	Phase(C)/deg	Re(M)	Im(M)	|M|	Phase(M)/deg	Re(Permittivity)	Im(Permittivity)	|Permittivity|	Phase(Permittivity)/deg	Re(Resistivity)/Ohm.cm	Im(Resistivity)/Ohm.cm	|Resistivity|/Ohm.cm	Phase(Resistivity)/deg	Re(Conductivity)/mS/cm	Im(Conductivity)/mS/cm	|Conductivity|/mS/cm	Phase(Conductivity)/deg	Tan(Delta)	Loss Angle(Delta)/deg	dq/mA.h	Pwe/W	Rwe/Ohm	
1.0000371E+005	2.0222890E+000	3.3247334E-001	2.0494368E+000	-9.3361645E+000	1.865498301893240E+000	2.9431385E-001	-1.3853202E-002	4.7868209E+000	1.2597714E-001	1.000000000000000E+000	9	4.5917886E-003	2.2405125E-003	0	-6.821651293010089E-006	4.8147547E-001	7.9156712E-002	4.8793894E-001	9.3361645E+000	1.2597717E+002	7.6626355E+002	7.7655011E+002	-8.0663834E+001	0.0000000E+000	0.0000000E+000	0.0000000E+000	8.0663834E+001	0.0000000E+000	0.0000000E+000	0.0000000E+000	-8.0663834E+001	0.0000000E+000	0.0000000E+000	0.0000000E+000	-9.3361645E+000	0.0000000E+000	0.0000000E+000	0.0000000E+000	9.3361645E+000	6.0825601E+000	8.0663834E+001	-6.821651293010089E-006	-4.0771893E-006	2.1245186E+004
6.8132047E+004	2.1035316E+000	3.8098854E-001	2.1377552E+000	-1.0266037E+001	2.443480222689686E+000	2.9431447E-001	-1.6944606E-002	6.1313596E+000	1.9474426E-001	1.000000000000000E+000	9	5.0642295E-003	2.3689475E-003	0	-1.428071719777977E-005	4.6029165E-001	8.3367340E-002	4.6778041E-001	1.0266037E+001	1.9474428E+002	1.0752312E+003	1.0927247E+003	-7.9733963E+001	0.0000000E+000	0.0000000E+000	0.0000000E+000	7.9733963E+001	0.0000000E+000	0.0000000E+000	0.0000000E+000	-7.9733963E+001	0.0000000E+000	0.0000000E+000	0.0000000E+000	-1.0266037E+001	0.0000000E+000	0.0000000E+000	0.0000000E+000	1.0266037E+001	5.5212464E+000	7.9733963E+001	-7.459065904769684E-006	-4.9870428E-006	1.7369213E+004
4.6420355E+004	2.1952181E+000	4.3018070E-001	2.2369707E+000	-1.1087334E+001	3.021495743509149E+000	2.9431778E-001	-1.3294511E-002	7.9700451E+000	2.9474199E-001	1.000000000000000E+000	9	5.0810752E-003	2.2714089E-003	0	-2.137869441938690E-005	4.3868935E-001	8.5966721E-002	4.4703314E-001	1.1087334E+001	2.9474200E+002	1.5040725E+003	1.5326797E+003	-7.8912666E+001	0.0000000E+000	0.0000000E+000	0.0000000E+000	7.8912666E+001	0.0000000E+000	0.0000000E+000	0.0000000E+000	-7.8912666E+001	0.0000000E+000	0.0000000E+000	0.0000000E+000	-1.1087334E+001	0.0000000E+000	0.0000000E+000	0.0000000E+000	1.1087334E+001	5.1030140E+000	7.8912666E+001	-7.097977221607127E-006	-3.9128108E-006	2.2138293E+004
3.1621139E+004	2.2872591E+000	4.8571739E-001	2.3382633E+000	-1.1989106E+001	3.599477770942030E+000	2.9432172E-001	-1.1711564E-002	1.0362368E+001	4.4713584E-001	1.000000000000000E+000	9	5.1128771E-003	2.1866132E-003	0	-2.022427942707307E-005	4.1833916E-001	8.8837601E-002	4.2766783E-001	1.1989106E+001	4.4713580E+002	2.1055771E+003	2.1525300E+003	-7.8010895E+001	0.0000000E+000	0.0000000E+000	0.0000000E+000	7.8010895E+001	0.0000000E+000	0.0000000E+000	0.0000000E+000	-7.8010895E+001	0.0000000E+000	0.0000000E+000	0.0000000E+000	-1.1989106E+001	0.0000000E+000	0.0000000E+000	0.0000000E+000	1.1989106E+001	4.7090330E+000	7.8010895E+001	1.154414992313831E-006	-3.4469676E-006	2.5130863E+004
2.1544684E+004	2.3954973E+000	5.5587244E-001	2.4591465E+000	-1.3064209E+001	3.895474371645832E+000	2.9431736E-001	-1.1543972E-002	1.3289385E+001	6.7902595E-001	1.000000000000000E+000	9	4.7874502E-003	1.9467934E-003	0	-2.265773328058680E-005	3.9612010E-001	9.1919228E-002	4.0664515E-001	1.3064209E+001	6.7902600E+002	2.9262195E+003	3.0039702E+003	-7.6935791E+001	0.0000000E+000	0.0000000E+000	0.0000000E+000	7.6935791E+001	0.0000000E+000	0.0000000E+000	0.0000000E+000	-7.6935791E+001	0.0000000E+000	0.0000000E+000	0.0000000E+000	-1.3064209E+001	0.0000000E+000	0.0000000E+000	0.0000000E+000	1.3064209E+001	4.3094373E+000	7.6935791E+001	-2.433453853513736E-006	-3.3975916E-006	2.5495328E+004
1.4678594E+004	2.5216236E+000	6.3570625E-001	2.6005208E+000	-1.4149536E+001	4.332490472443169E+000	2.9432097E-001	-1.2493744E-002	1.7056078E+001	1.0192282E+000	1.000000000000000E+000	9	4.8604747E-003	1.8690389E-003	0	-2.429349569100628E-005	3.7287185E-001	9.4001725E-002	3.8453835E-001	1.4149536E+001	1.0192283E+003	4.0429211E+003	4.1694170E+003	-7.5850464E+001	0.0000000E+000	0.0000000E+000	0.0000000E+000	7.5850464E+001	0.0000000E+000	0.0000000E+000	0.0000000E+000	-7.5850464E+001	0.0000000E+000	0.0000000E+000	0.0000000E+000	-1.4149536E+001	0.0000000E+000	0.0000000E+000	0.0000000E+000	1.4149536E+001	3.9666491E+000	7.5850464E+001	-1.635762410419476E-006	-3.6771708E-006	2.3557469E+004
1.0002226E+004	2.6646357E+000	7.1975052E-001	2.7601311E+000	-1.5115565E+001	4.628484273125650E+000	2.9432082E-001	-7.1862000E-003	2.2107595E+001	1.5033014E+000	1.000000000000000E+000	9	4.5135785E-003	1.6352768E-003	0	-2.497750491703240E-005	3.4976664E-001	9.4476230E-002	3.6230162E-001	1.5115565E+001	1.5033010E+003	5.5654702E+003	5.7649263E+003	-7.4884438E+001	0.0000000E+000	0.0000000E+000	0.0000000E+000	7.4884438E+001	0.0000000E+000	0.0000000E+000	0.0000000E+000	-7.4884438E+001	0.0000000E+000	0.0000000E+000	0.0000000E+000	-1.5115565E+001	0.0000000E+000	0.0000000E+000	0.0000000E+000	1.5115565E+001	3.7021656E+000	7.4884438E+001	-6.840092260261174E-007	-2.1150483E-006	4.0956391E+004
6.8110674E+003	2.8258929E+000	8.2864594E-001	2.9448812E+000	-1.6342894E+001	5.183524032850983E+000	2.9422241E-001	-2.5380827E-002	2.8199146E+001	2.2327414E+000	1.000000000000000E+000	9	4.8510996E-003	1.6472989E-003	0	-3.005005870701279E-005	3.2585183E-001	9.5550604E-002	3.3957228E-001	1.6342894E+001	2.2327415E+003	7.6142144E+003	7.9348218E+003	-7.3657104E+001	0.0000000E+000	0.0000000E+000	0.0000000E+000	7.3657104E+001	0.0000000E+000	0.0000000E+000	0.0000000E+000	-7.3657104E+001	0.0000000E+000	0.0000000E+000	0.0000000E+000	-1.6342894E+001	0.0000000E+000	0.0000000E+000	0.0000000E+000	1.6342894E+001	3.4102538E+000	7.3657104E+001	-5.072553789980397E-006	-7.4676082E-006	1.1592310E+004
4.6414854E+003	3.0172067E+000	9.6023297E-001	3.1663201E+000	-1.7653791E+001	5.654670348609216E+000	2.9441985E-001	4.2108759E-002	3.5709728E+001	3.2842040E+000	1.000000000000000E+000	9	4.7751800E-003	1.5081166E-003	0	-2.479600184692147E-005	3.0095074E-001	9.5778264E-002	3.1582403E-001	1.7653791E+001	3.2842043E+003	1.0319498E+004	1.0829498E+004	-7.2346207E+001	0.0000000E+000	0.0000000E+000	0.0000000E+000	7.2346207E+001	0.0000000E+000	0.0000000E+000	0.0000000E+000	-7.2346207E+001	0.0000000E+000	0.0000000E+000	0.0000000E+000	-1.7653791E+001	0.0000000E+000	0.0000000E+000	0.0000000E+000	1.7653791E+001	3.1421611E+000	7.2346207E+001	5.254056860091319E-006	1.2397655E-005	6.9918911E+003
3.1610117E+003	3.2292066E+000	1.1038131E+000	3.4126496E+000	-1.8871544E+001	6.121685517457081E+000	2.9440907E-001	4.6168566E-002	4.5614037E+001	4.7720628E+000	1.000000000000000E+000	9	4.7313413E-003	1.3864129E-003	0	-2.060668775048624E-005	2.7727607E-001	9.4778992E-002	2.9302743E-001	1.8871544E+001	4.7720630E+003	1.3960677E+004	1.4753748E+004	-7.1128456E+001	0.0000000E+000	0.0000000E+000	0.0000000E+000	7.1128456E+001	0.0000000E+000	0.0000000E+000	0.0000000E+000	-7.1128456E+001	0.0000000E+000	0.0000000E+000	0.0000000E+000	-1.8871544E+001	0.0000000E+000	0.0000000E+000	0.0000000E+000	1.8871544E+001	2.9255013E+000	7.1128456E+001	4.189314096435232E-006	1.3592445E-005	6.3768296E+003
2.1556899E+003	3.4788558E+000	1.2963903E+000	3.7125552E+000	-2.0437832E+001	6.842700351699023E+000	2.9434800E-001	-1.6241688E-002	5.6950569E+001	6.9442248E+000	1.000000000000000E+000	10	4.8335576E-003	1.3019490E-003	0	-2.014852087922918E-005	2.5240073E-001	9.4056748E-002	2.6935628E-001	2.0437832E+001	6.9442261E+003	1.8634787E+004	1.9886617E+004	-6.9562164E+001	0.0000000E+000	0.0000000E+000	0.0000000E+000	6.9562164E+001	0.0000000E+000	0.0000000E+000	0.0000000E+000	-6.9562164E+001	0.0000000E+000	0.0000000E+000	0.0000000E+000	-2.0437832E+001	0.0000000E+000	0.0000000E+000	0.0000000E+000	2.0437832E+001	2.6834941E+000	6.9562164E+001	4.581668712570617E-007	-4.7807084E-006	1.8122992E+004
1.4685898E+003	3.7637947E+000	1.5002949E+000	4.0517941E+000	-2.1732836E+001	7.309949200542178E+000	2.9434600E-001	-1.6100142E-002	7.2234222E+001	9.9037924E+000	1.000000000000000E+000	10	4.7860639E-003	1.1812209E-003	0	-2.223224837268289E-005	2.2926153E-001	9.1386475E-002	2.4680425E-001	2.1732836E+001	9.9037920E+003	2.4845676E+004	2.6746826E+004	-6.8267166E+001	0.0000000E+000	0.0000000E+000	0.0000000E+000	6.8267166E+001	0.0000000E+000	0.0000000E+000	0.0000000E+000	-6.8267166E+001	0.0000000E+000	0.0000000E+000	0.0000000E+000	-2.1732836E+001	0.0000000E+000	0.0000000E+000	0.0000000E+000	2.1732836E+001	2.5087032E+000	6.8267166E+001	-2.083727493453706E-006	-4.7390126E-006	1.8282199E+004
1.0003202E+003	4.0905724E+000	1.7462217E+000	4.4477043E+000	-2.3117119E+001	7.778666289486864E+000	2.9434657E-001	-1.6327377E-002	9.1113289E+001	1.4044577E+001	1.000000000000000E+000	10	4.7516478E-003	1.0683371E-003	0	-2.392778590596815E-005	2.0678177E-001	8.8272937E-002	2.2483508E-001	2.3117119E+001	1.4044576E+004	3.2899809E+004	3.5772160E+004	-6.6882881E+001	0.0000000E+000	0.0000000E+000	0.0000000E+000	6.6882881E+001	0.0000000E+000	0.0000000E+000	0.0000000E+000	-6.6882881E+001	0.0000000E+000	0.0000000E+000	0.0000000E+000	-2.3117119E+001	0.0000000E+000	0.0000000E+000	0.0000000E+000	2.3117119E+001	2.3425276E+000	6.6882881E+001	-1.695537533285258E-006	-4.8059073E-006	1.8027793E+004
6.8108978E+002	4.4505453E+000	2.0537620E+000	4.9015603E+000	-2.4771574E+001	8.244445191550767E+000	2.9434213E-001	-1.6372085E-002	1.1377994E+002	1.9975479E+001	1.000000000000000E+000	10	4.7227326E-003	9.6351613E-004	0	-2.509878136452689E-005	1.8524417E-001	8.5483320E-002	2.0401667E-001	2.4771574E+001	1.9975479E+004	4.3287281E+004	4.7673980E+004	-6.5228424E+001	0.0000000E+000	0.0000000E+000	0.0000000E+000	6.5228424E+001	0.0000000E+000	0.0000000E+000	0.0000000E+000	-6.5228424E+001	0.0000000E+000	0.0000000E+000	0.0000000E+000	-2.4771574E+001	0.0000000E+000	0.0000000E+000	0.0000000E+000	2.4771574E+001	2.1670210E+000	6.5228424E+001	-1.170995458558741E-006	-4.8189941E-006	1.7978293E+004
4.6396069E+002	4.8667684E+000	2.4509220E+000	5.4490781E+000	-2.6729990E+001	8.713219960482093E+000	2.9433829E-001	-1.6660791E-002	1.3996178E+002	2.8315378E+001	1.000000000000000E+000	10	4.7077280E-003	8.6394948E-004	0	-2.746906463254709E-005	1.6390590E-001	8.2543604E-002	1.8351728E-001	2.6729990E+001	2.8315377E+004	5.6225531E+004	6.2952926E+004	-6.3270012E+001	0.0000000E+000	0.0000000E+000	0.0000000E+000	6.3270012E+001	0.0000000E+000	0.0000000E+000	0.0000000E+000	-6.3270012E+001	0.0000000E+000	0.0000000E+000	0.0000000E+000	-2.6729990E+001	0.0000000E+000	0.0000000E+000	0.0000000E+000	2.6729990E+001	1.9856888E+000	6.3270012E+001	-2.370283268020202E-006	-4.9039086E-006	1.7666525E+004
3.1631589E+002	5.3575625E+000	2.9597883E+000	6.1207700E+000	-2.8918478E+001	9.179926462704316E+000	2.9434082E-001	-1.6839609E-002	1.6999591E+002	3.9750965E+001	1.000000000000000E+000	10	4.6978123E-003	7.6751981E-004	0	-2.972313712143578E-005	1.4300629E-001	7.9003900E-002	1.6337813E-001	2.8918478E+001	3.9750965E+004	7.1953891E+004	8.2204023E+004	-6.1081520E+001	0.0000000E+000	0.0000000E+000	0.0000000E+000	6.1081520E+001	0.0000000E+000	0.0000000E+000	0.0000000E+000	-6.1081520E+001	0.0000000E+000	0.0000000E+000	0.0000000E+000	-2.8918478E+001	0.0000000E+000	0.0000000E+000	0.0000000E+000	2.8918478E+001	1.8101168E+000	6.1081520E+001	-2.254072488888697E-006	-4.9565842E-006	1.7479078E+004
2.1534457E+002	5.9828987E+000	3.6364245E+000	7.0013328E+000	-3.1291365E+001	9.647448244882980E+000	2.9433939E-001	-1.6360922E-002	2.0324115E+002	5.4827614E+001	1.000000000000000E+000	10	4.6897526E-003	6.6983711E-004	0	-3.130397032940851E-005	1.2205350E-001	7.4184500E-002	1.4282995E-001	3.1291365E+001	5.4827617E+004	9.0206203E+004	1.0556148E+005	-5.8708633E+001	0.0000000E+000	0.0000000E+000	0.0000000E+000	5.8708633E+001	0.0000000E+000	0.0000000E+000	0.0000000E+000	-5.8708633E+001	0.0000000E+000	0.0000000E+000	0.0000000E+000	-3.1291365E+001	0.0000000E+000	0.0000000E+000	0.0000000E+000	3.1291365E+001	1.6452696E+000	5.8708633E+001	-1.580833207972722E-006	-4.8156639E-006	1.7990391E+004
1.4673740E+002	6.8039522E+000	4.4620509E+000	8.1365633E+000	-3.3256977E+001	1.011037810685229E+001	2.9433531E-001	-1.7167429E-002	2.4307751E+002	7.3102432E+001	1.000000000000000E+000	10	4.6743741E-003	5.7449000E-004	0	-3.340507290603839E-005	1.0277305E-001	6.7398854E-002	1.2290201E-001	3.3256977E+001	7.3102438E+004	1.1147015E+005	1.3330252E+005	-5.6743023E+001	0.0000000E+000	0.0000000E+000	0.0000000E+000	5.6743023E+001	0.0000000E+000	0.0000000E+000	0.0000000E+000	-5.6743023E+001	0.0000000E+000	0.0000000E+000	0.0000000E+000	-3.3256977E+001	0.0000000E+000	0.0000000E+000	0.0000000E+000	3.3256977E+001	1.5248486E+000	5.6743027E+001	-2.101102576629881E-006	-5.0529802E-006	1.7144984E+004
1.0003201E+002	7.9582520E+000	5.3981285E+000	9.6163177E+000	-3.4149273E+001	1.057770887576771E+001	2.9434508E-001	-1.6044280E-002	2.9473923E+002	9.2876694E+001	1.000000000000000E+000	10	4.6788994E-003	4.8655833E-004	0	-3.555182875022163E-005	8.6059749E-002	5.8374826E-002	1.0398991E-001	3.4149273E+001	9.2876695E+004	1.3692452E+005	1.6545213E+005	-5.5850727E+001	0.0000000E+000	0.0000000E+000	0.0000000E+000	5.5850727E+001	0.0000000E+000	0.0000000E+000	0.0000000E+000	-5.5850727E+001	0.0000000E+000	0.0000000E+000	0.0000000E+000	-3.4149273E+001	0.0000000E+000	0.0000000E+000	0.0000000E+000	3.4149273E+001	1.4742613E+000	5.5850723E+001	-2.146755844183238E-006	-4.7225549E-006	1.8345797E+004
6.8103981E+001	9.4601974E+000	6.3722720E+000	1.1406191E+001	-3.3963718E+001	1.105530449838261E+001	2.9434422E-001	-1.3334186E-002	3.6673581E+002	1.1446182E+002	1.000000000000000E+000	10	4.6724356E-003	4.0964031E-004	0	-3.744931319248766E-005	7.2714157E-002	4.8979353E-002	8.7671690E-002	3.3963718E+001	1.1446183E+005	1.6992864E+005	2.0488352E+005	-5.6036282E+001	0.0000000E+000	0.0000000E+000	0.0000000E+000	5.6036282E+001	0.0000000E+000	0.0000000E+000	0.0000000E+000	-5.6036282E+001	0.0000000E+000	0.0000000E+000	0.0000000E+000	-3.3963718E+001	0.0000000E+000	0.0000000E+000	0.0000000E+000	3.3963718E+001	1.4845878E+000	5.6036285E+001	-1.897484442266032E-006	-3.9248403E-006	2.2074404E+004
4.6441547E+001	1.1322871E+001	7.2529454E+000	1.3446659E+001	-3.2641880E+001	1.151053281335044E+001	2.9433140E-001	-1.8599784E-002	4.7249698E+002	1.3746719E+002	1.000000000000000E+000	10	4.6689757E-003	3.4722200E-004	0	-3.981469001822148E-005	6.2622130E-002	4.0113047E-002	7.4367918E-002	3.2641880E+001	1.3746719E+005	2.1460569E+005	2.5485845E+005	-5.7358120E+001	0.0000000E+000	0.0000000E+000	0.0000000E+000	5.7358120E+001	0.0000000E+000	0.0000000E+000	0.0000000E+000	-5.7358120E+001	0.0000000E+000	0.0000000E+000	0.0000000E+000	-3.2641880E+001	0.0000000E+000	0.0000000E+000	0.0000000E+000	3.2641880E+001	1.5611411E+000	5.7358124E+001	-2.365376825733820E-006	-5.4745005E-006	1.5824453E+004
3.1629555E+001	1.3541711E+001	7.8821430E+000	1.5668634E+001	-3.0202147E+001	1.195645120789413E+001	2.9432264E-001	-2.0527586E-002	6.3838507E+002	1.6155078E+002	1.000000000000000E+000	10	4.6691941E-003	2.9799624E-004	0	-4.207134403895341E-005	5.5158347E-002	3.2105692E-002	6.3821770E-002	3.0202147E+001	1.6155078E+005	2.7754809E+005	3.2114109E+005	-5.9797852E+001	0.0000000E+000	0.0000000E+000	0.0000000E+000	5.9797852E+001	0.0000000E+000	0.0000000E+000	0.0000000E+000	-5.9797852E+001	0.0000000E+000	0.0000000E+000	0.0000000E+000	-3.0202147E+001	0.0000000E+000	0.0000000E+000	0.0000000E+000	3.0202147E+001	1.7180240E+000	5.9797852E+001	-2.256654020731933E-006	-6.0417333E-006	1.4337908E+004
2.1551722E+001	1.5965707E+001	8.1575422E+000	1.7929007E+001	-2.7064375E+001	1.263535897343536E+001	2.9435563E-001	-1.3128826E-002	9.0527136E+002	1.8740666E+002	1.000000000000000E+000	11	4.6752584E-003	2.6076505E-004	0	-4.463905334833706E-005	4.9667887E-002	2.5377385E-002	5.5775538E-002	2.7064375E+001	1.8740669E+005	3.6678694E+005	4.1189066E+005	-6.2935623E+001	0.0000000E+000	0.0000000E+000	0.0000000E+000	6.2935623E+001	0.0000000E+000	0.0000000E+000	0.0000000E+000	-6.2935623E+001	0.0000000E+000	0.0000000E+000	0.0000000E+000	-2.7064375E+001	0.0000000E+000	0.0000000E+000	0.0000000E+000	2.7064375E+001	1.9571712E+000	6.2935623E+001	-2.567709309383646E-006	-3.8645439E-006	2.2420559E+004
1.4685154E+001	1.8330267E+001	8.0814610E+000	2.0032690E+001	-2.3791758E+001	1.311406587623060E+001	2.9436612E-001	-1.1920041E-002	1.3410709E+003	2.1824934E+002	1.000000000000000E+000	11	4.6695243E-003	2.3309521E-004	0	-4.626345979651443E-005	4.5676228E-002	2.0137768E-002	4.9918409E-002	2.3791758E+001	2.1824933E+005	4.9503038E+005	5.4100631E+005	-6.6208244E+001	0.0000000E+000	0.0000000E+000	0.0000000E+000	6.6208244E+001	0.0000000E+000	0.0000000E+000	0.0000000E+000	-6.6208244E+001	0.0000000E+000	0.0000000E+000	0.0000000E+000	-2.3791758E+001	0.0000000E+000	0.0000000E+000	0.0000000E+000	2.3791758E+001	2.2681873E+000	6.6208244E+001	-1.624406448177371E-006	-3.5088563E-006	2.4695059E+004
