EC-Lab ASCII FILE
Nb header lines : 64                          

Potentio Electrochemical Impedance Spectroscopy

Run on channel : 6 (SN 65795)
User : 
CE vs. WE compliance from -10 V to 10 V
Electrode connection : standard
Potential control : Ewe
Ewe ctrl range : min = -10.00 V, max = 10.00 V
Safety Limits :
	Do not start on E overload
Acquisition started on : 09/11/2025 16:16:20.400
Technique started on : 09/11/2025 16:16:22.264
Loaded Setting File :  C:\Users\Celltest\OneDrive - store-dot.com\Documents\EC-Lab\Data\Charmaine\R279\17383.mps
Saved on :
	File : 17450_C06.mpr
	Directory : C:\Users\Celltest\OneDrive - store-dot.com\Documents\EC-Lab\Data\John\R281\
	Host : 169.254.61.224
Device : VMP-3e (SN .003165)
Address : USB
EC-LAB for windows v11.62 (software)
Internet server v27.00 (firmware)
Command interpretor v12.03 (firmware)
Electrode material : 
Initial state : 
Electrolyte : 
Comments : 
Electrode surface area : 0.001 cm²
Characteristic mass : 0.001 g
Equivalent Weight : 0.000 g/eq.
Density : 0.000 g/cm3
Volume (V) : 0.001 cm³
Cycle Definition : Charge/Discharge alternance
Mode                Single sine         
E (V)               0.0000              
vs.                 Eoc                 
tE (h:m:s)          0:00:0.0000         
record              0                   
dI                  0.000               
unit dI             mA                  
dt (s)              0.000               
fi                  100.000             
unit fi             kHz                 
ff                  10.000              
unit ff             mHz                 
Nd                  6                   
Points              per decade          
spacing             Logarithmic         
Va (mV)             5.0                 
pw                  0.10                
Na                  2                   
corr                0                   
E range min (V)     -10.000             
E range max (V)     10.000              
I Range             Auto                
Bandwidth           5                   
nc cycles           0                   
goto Ns'            0                   
nr cycles           0                   
inc. cycle          0                   

freq/Hz	Re(Z)/Ohm	-Im(Z)/Ohm	|Z|/Ohm	Phase(Z)/deg	time/s	<Ewe>/V	<I>/mA	Cs/µF	Cp/µF	cycle number	I Range	|Ewe|/V	|I|/A	Ns	(Q-Qo)/mA.h	Re(Y)/Ohm-1	Im(Y)/Ohm-1	|Y|/Ohm-1	Phase(Y)/deg	Re(C)/nF	Im(C)/nF	|C|/nF	Phase(C)/deg	Re(M)	Im(M)	|M|	Phase(M)/deg	Re(Permittivity)	Im(Permittivity)	|Permittivity|	Phase(Permittivity)/deg	Re(Resistivity)/Ohm.cm	Im(Resistivity)/Ohm.cm	|Resistivity|/Ohm.cm	Phase(Resistivity)/deg	Re(Conductivity)/mS/cm	Im(Conductivity)/mS/cm	|Conductivity|/mS/cm	Phase(Conductivity)/deg	Tan(Delta)	Loss Angle(Delta)/deg	dq/mA.h	Pwe/W	Rwe/Ohm	
1.0000371E+005	1.4251097E+000	2.2873411E-001	1.4433492E+000	-9.1183643E+000	1.864488755207276E+000	2.1898572E-001	3.8919389E-002	6.9578180E+000	1.7473990E-001	1.000000000000000E+000	9	4.5349929E-003	3.1419927E-003	0	-6.350217833649367E-006	6.8407774E-001	1.0979640E-001	6.9283301E-001	9.1183643E+000	1.7473987E+002	1.0887031E+003	1.1026371E+003	-8.0881638E+001	0.0000000E+000	0.0000000E+000	0.0000000E+000	8.0881638E+001	0.0000000E+000	0.0000000E+000	0.0000000E+000	-8.0881638E+001	0.0000000E+000	0.0000000E+000	0.0000000E+000	-9.1183643E+000	0.0000000E+000	0.0000000E+000	0.0000000E+000	9.1183643E+000	6.2304211E+000	8.0881638E+001	-6.350217833649367E-006	8.5227903E-006	5.6266484E+003
6.8132047E+004	1.4843081E+000	2.5415570E-001	1.5059103E+000	-9.7164354E+000	2.442487929336494E+000	2.1895954E-001	3.2288902E-002	9.1911287E+000	2.6180041E-001	1.000000000000000E+000	9	5.0393390E-003	3.3463740E-003	0	2.519495210177007E-006	6.5452445E-001	1.1207315E-001	6.6405016E-001	9.7164354E+000	2.6180051E+002	1.5289546E+003	1.5512065E+003	-8.0283562E+001	0.0000000E+000	0.0000000E+000	0.0000000E+000	8.0283562E+001	0.0000000E+000	0.0000000E+000	0.0000000E+000	-8.0283562E+001	0.0000000E+000	0.0000000E+000	0.0000000E+000	-9.7164354E+000	0.0000000E+000	0.0000000E+000	0.0000000E+000	9.7164354E+000	5.8401527E+000	8.0283562E+001	8.869713043826374E-006	7.0699630E-006	6.7812632E+003
4.6420355E+004	1.5443423E+000	2.8475958E-001	1.5703762E+000	-1.0447360E+001	3.020491983421380E+000	2.1896178E-001	3.4244526E-002	1.2040190E+001	3.9589739E-001	1.000000000000000E+000	9	5.0418284E-003	3.2105865E-003	0	1.261252960911952E-005	6.2623334E-001	1.1547048E-001	6.3679010E-001	1.0447360E+001	3.9589731E+002	2.1470784E+003	2.1832727E+003	-7.9552643E+001	0.0000000E+000	0.0000000E+000	0.0000000E+000	7.9552643E+001	0.0000000E+000	0.0000000E+000	0.0000000E+000	-7.9552643E+001	0.0000000E+000	0.0000000E+000	0.0000000E+000	-1.0447360E+001	0.0000000E+000	0.0000000E+000	0.0000000E+000	1.0447360E+001	5.4233198E+000	7.9552643E+001	1.009303439894251E-005	7.4982422E-006	6.3940664E+003
3.1621139E+004	1.6055716E+000	3.3104667E-001	1.6393450E+000	-1.1650332E+001	3.598479504202260E+000	2.1895909E-001	3.6833391E-002	1.5203844E+001	6.1999917E-001	1.000000000000000E+000	9	5.0786012E-003	3.0979451E-003	0	1.297361650345718E-005	5.9743267E-001	1.2318235E-001	6.0999972E-001	1.1650332E+001	6.1999902E+002	3.0069871E+003	3.0702395E+003	-7.8349670E+001	0.0000000E+000	0.0000000E+000	0.0000000E+000	7.8349670E+001	0.0000000E+000	0.0000000E+000	0.0000000E+000	-7.8349670E+001	0.0000000E+000	0.0000000E+000	0.0000000E+000	-1.1650332E+001	0.0000000E+000	0.0000000E+000	0.0000000E+000	1.1650332E+001	4.8499856E+000	7.8349670E+001	3.610868943376560E-007	8.0650061E-006	5.9445815E+003
2.1544684E+004	1.6860851E+000	3.7897012E-001	1.7281497E+000	-1.2667477E+001	4.035496511642123E+000	2.1895450E-001	3.3797521E-002	1.9492838E+001	9.3739426E-001	1.000000000000000E+000	9	5.2316883E-003	3.0273353E-003	0	1.899076385004446E-005	5.6456870E-001	1.2689434E-001	5.7865357E-001	1.2667477E+001	9.3739453E+002	4.1705835E+003	4.2746313E+003	-7.7332520E+001	0.0000000E+000	0.0000000E+000	0.0000000E+000	7.7332520E+001	0.0000000E+000	0.0000000E+000	0.0000000E+000	-7.7332520E+001	0.0000000E+000	0.0000000E+000	0.0000000E+000	-1.2667477E+001	0.0000000E+000	0.0000000E+000	0.0000000E+000	1.2667477E+001	4.4491243E+000	7.7332520E+001	6.017147346587282E-006	7.4001196E-006	6.4784189E+003
1.4678594E+004	1.7736566E+000	4.3372750E-001	1.8259182E+000	-1.3741359E+001	4.331484579044627E+000	2.1895239E-001	3.2512378E-002	2.4998774E+001	1.4105549E+000	1.000000000000000E+000	9	4.8662848E-003	2.6651165E-003	0	2.271657177451481E-005	5.3199422E-001	1.3009311E-001	5.4766965E-001	1.3741359E+001	1.4105547E+003	5.7682305E+003	5.9381938E+003	-7.6258644E+001	0.0000000E+000	0.0000000E+000	0.0000000E+000	7.6258644E+001	0.0000000E+000	0.0000000E+000	0.0000000E+000	-7.6258644E+001	0.0000000E+000	0.0000000E+000	0.0000000E+000	-1.3741359E+001	0.0000000E+000	0.0000000E+000	0.0000000E+000	1.3741359E+001	4.0893340E+000	7.6258644E+001	3.725807924470349E-006	7.1186628E-006	6.7344316E+003
1.0002226E+004	1.8656912E+000	4.9998456E-001	1.9315249E+000	-1.5002123E+001	4.627475393092027E+000	2.1895869E-001	3.4486614E-002	3.1824888E+001	2.1324530E+000	1.000000000000000E+000	9	4.5081833E-003	2.3340022E-003	0	2.419510546186939E-005	5.0007963E-001	1.3401578E-001	5.1772565E-001	1.5002123E+001	2.1324526E+003	7.9572437E+003	8.2380264E+003	-7.4997879E+001	0.0000000E+000	0.0000000E+000	0.0000000E+000	7.4997879E+001	0.0000000E+000	0.0000000E+000	0.0000000E+000	-7.4997879E+001	0.0000000E+000	0.0000000E+000	0.0000000E+000	-1.5002123E+001	0.0000000E+000	0.0000000E+000	0.0000000E+000	1.5002123E+001	3.7314975E+000	7.4997879E+001	1.478533687354582E-006	7.5511439E-006	6.3490923E+003
6.8110674E+003	1.9844419E+000	5.8039367E-001	2.0675750E+000	-1.6302721E+001	5.182516459462931E+000	2.1873546E-001	-7.4935131E-002	4.0260792E+001	3.1725252E+000	1.000000000000000E+000	9	4.8409356E-003	2.3413592E-003	0	1.086838964776446E-005	4.6421143E-001	1.3576886E-001	4.8365840E-001	1.6302721E+001	3.1725249E+003	1.0847278E+004	1.1301697E+004	-7.3697281E+001	0.0000000E+000	0.0000000E+000	0.0000000E+000	7.3697281E+001	0.0000000E+000	0.0000000E+000	0.0000000E+000	-7.3697281E+001	0.0000000E+000	0.0000000E+000	0.0000000E+000	-1.6302721E+001	0.0000000E+000	0.0000000E+000	0.0000000E+000	1.6302721E+001	3.4191308E+000	7.3697281E+001	-1.332671581410492E-005	-1.6390970E-005	2.9189976E+003
4.6414854E+003	2.1171491E+000	6.7644835E-001	2.2225893E+000	-1.7719152E+001	5.653688535225228E+000	2.1896932E-001	7.0470065E-002	5.0690727E+001	4.6954732E+000	1.000000000000000E+000	9	4.7298199E-003	2.1280674E-003	0	2.057599177073118E-005	4.2858112E-001	1.3693556E-001	4.4992569E-001	1.7719152E+001	4.6954736E+003	1.4695898E+004	1.5427797E+004	-7.2280846E+001	0.0000000E+000	0.0000000E+000	0.0000000E+000	7.2280846E+001	0.0000000E+000	0.0000000E+000	0.0000000E+000	-7.2280846E+001	0.0000000E+000	0.0000000E+000	0.0000000E+000	-1.7719152E+001	0.0000000E+000	0.0000000E+000	0.0000000E+000	1.7719152E+001	3.1298015E+000	7.2280846E+001	9.707602122966718E-006	1.5430782E-005	3.1072671E+003
3.1610117E+003	2.2713232E+000	7.8638721E-001	2.4036043E+000	-1.9097095E+001	6.120677277409413E+000	2.1897306E-001	7.0972934E-002	6.4026176E+001	6.8533754E+000	1.000000000000000E+000	9	4.6624457E-003	1.9397726E-003	0	2.836528751238560E-005	3.9314520E-001	1.3611642E-001	4.1604185E-001	1.9097095E+001	6.8533745E+003	1.9794613E+004	2.0947445E+004	-7.0902908E+001	0.0000000E+000	0.0000000E+000	0.0000000E+000	7.0902908E+001	0.0000000E+000	0.0000000E+000	0.0000000E+000	-7.0902908E+001	0.0000000E+000	0.0000000E+000	0.0000000E+000	-1.9097095E+001	0.0000000E+000	0.0000000E+000	0.0000000E+000	1.9097095E+001	2.8883014E+000	7.0902908E+001	7.789295741654415E-006	1.5541160E-005	3.0853037E+003
2.1556899E+003	2.4377623E+000	9.1705698E-001	2.6045496E+000	-2.0615698E+001	6.587687006256601E+000	2.1897610E-001	7.2500177E-002	8.0507721E+001	9.9807892E+000	1.000000000000000E+000	9	4.6241037E-003	1.7753947E-003	0	3.708934101565844E-005	3.5935697E-001	1.3518578E-001	3.8394353E-001	2.0615698E+001	9.9807900E+003	2.6531385E+004	2.8346615E+004	-6.9384300E+001	0.0000000E+000	0.0000000E+000	0.0000000E+000	6.9384300E+001	0.0000000E+000	0.0000000E+000	0.0000000E+000	-6.9384300E+001	0.0000000E+000	0.0000000E+000	0.0000000E+000	-2.0615698E+001	0.0000000E+000	0.0000000E+000	0.0000000E+000	2.0615698E+001	2.6582451E+000	6.9384300E+001	8.724053503272847E-006	1.5875805E-005	3.0203525E+003
1.4685898E+003	2.6468484E+000	1.0644130E+000	2.8528550E+000	-2.1907207E+001	7.054936841770541E+000	2.1898414E-001	7.4772425E-002	1.0181446E+002	1.4173281E+001	1.000000000000000E+000	9	4.5994418E-003	1.6122242E-003	0	4.695669642297111E-005	3.2521436E-001	1.3078286E-001	3.5052606E-001	2.1907207E+001	1.4173284E+004	3.5244336E+004	3.7987434E+004	-6.8092789E+001	0.0000000E+000	0.0000000E+000	0.0000000E+000	6.8092789E+001	0.0000000E+000	0.0000000E+000	0.0000000E+000	-6.8092789E+001	0.0000000E+000	0.0000000E+000	0.0000000E+000	-2.1907207E+001	0.0000000E+000	0.0000000E+000	0.0000000E+000	2.1907207E+001	2.4866743E+000	6.8092789E+001	9.867355407312669E-006	1.6373975E-005	2.9286750E+003
1.0003202E+003	2.8606355E+000	1.2371484E+000	3.1166925E+000	-2.3387192E+001	7.523680837381107E+000	2.1897903E-001	7.3617667E-002	1.2860542E+002	2.0263523E+001	1.000000000000000E+000	9	4.5880782E-003	1.4720984E-003	0	5.432278257321256E-005	2.9449278E-001	1.2736025E-001	3.2085297E-001	2.3387192E+001	2.0263523E+004	4.6854977E+004	5.1048988E+004	-6.6612808E+001	0.0000000E+000	0.0000000E+000	0.0000000E+000	6.6612808E+001	0.0000000E+000	0.0000000E+000	0.0000000E+000	-6.6612808E+001	0.0000000E+000	0.0000000E+000	0.0000000E+000	-2.3387192E+001	0.0000000E+000	0.0000000E+000	0.0000000E+000	2.3387192E+001	2.3122816E+000	6.6612808E+001	7.366086150241445E-006	1.6120724E-005	2.9745447E+003
6.8108978E+002	3.1270900E+000	1.4774749E+000	3.4585581E+000	-2.5289610E+001	8.244450578204123E+000	2.1892846E-001	-1.4444791E-002	1.5815964E+002	2.8863285E+001	1.000000000000000E+000	10	4.6432642E-003	1.3425434E-003	0	5.722748957667500E-005	2.6142687E-001	1.2351792E-001	2.8913784E-001	2.5289610E+001	2.8863289E+004	6.1089422E+004	6.7564836E+004	-6.4710388E+001	0.0000000E+000	0.0000000E+000	0.0000000E+000	6.4710388E+001	0.0000000E+000	0.0000000E+000	0.0000000E+000	-6.4710388E+001	0.0000000E+000	0.0000000E+000	0.0000000E+000	-2.5289610E+001	0.0000000E+000	0.0000000E+000	0.0000000E+000	2.5289610E+001	2.1165097E+000	6.4710388E+001	2.904707003462439E-006	-3.1623758E-006	1.5156222E+004
4.6396069E+002	3.4196825E+000	1.7825965E+000	3.8564074E+000	-2.7531923E+001	8.713219027180457E+000	2.1892340E-001	-1.5096945E-002	1.9243581E+002	4.1117447E+001	1.000000000000000E+000	10	4.6145702E-003	1.1965982E-003	0	5.493196317898886E-005	2.2994287E-001	1.1986356E-001	2.5930870E-001	2.7531923E+001	4.1117449E+004	7.8878555E+004	8.8952070E+004	-6.2468079E+001	0.0000000E+000	0.0000000E+000	0.0000000E+000	6.2468079E+001	0.0000000E+000	0.0000000E+000	0.0000000E+000	-6.2468079E+001	0.0000000E+000	0.0000000E+000	0.0000000E+000	-2.7531923E+001	0.0000000E+000	0.0000000E+000	0.0000000E+000	2.7531923E+001	1.9183717E+000	6.2468079E+001	-2.295526397686139E-006	-3.3050746E-006	1.4501173E+004
3.1631589E+002	3.7943130E+000	2.1797278E+000	4.3758454E+000	-2.9876177E+001	9.179924489348195E+000	2.1891592E-001	-1.5982004E-002	2.3083244E+002	5.7276630E+001	1.000000000000000E+000	10	4.5978227E-003	1.0507279E-003	0	5.291610995516789E-005	1.9815689E-001	1.1383566E-001	2.2852726E-001	2.9876177E+001	5.7276629E+004	9.9703023E+004	1.1498394E+005	-6.0123825E+001	0.0000000E+000	0.0000000E+000	0.0000000E+000	6.0123825E+001	0.0000000E+000	0.0000000E+000	0.0000000E+000	-6.0123825E+001	0.0000000E+000	0.0000000E+000	0.0000000E+000	-2.9876177E+001	0.0000000E+000	0.0000000E+000	0.0000000E+000	2.9876177E+001	1.7407279E+000	6.0123825E+001	-2.015853223820969E-006	-3.4987152E-006	1.3697651E+004
2.1534457E+002	4.2986741E+000	2.6739197E+000	5.0624547E+000	-3.1882999E+001	9.647442244895501E+000	2.1891868E-001	-1.5199427E-002	2.7639987E+002	7.7110275E+001	1.000000000000000E+000	10	4.5855017E-003	9.0578623E-004	0	5.167301566825093E-005	1.6773058E-001	1.0433406E-001	1.9753264E-001	3.1882999E+001	7.7110281E+004	1.2396482E+005	1.4599066E+005	-5.8117001E+001	0.0000000E+000	0.0000000E+000	0.0000000E+000	5.8117001E+001	0.0000000E+000	0.0000000E+000	0.0000000E+000	-5.8117001E+001	0.0000000E+000	0.0000000E+000	0.0000000E+000	-3.1882999E+001	0.0000000E+000	0.0000000E+000	0.0000000E+000	3.1882999E+001	1.6076303E+000	5.8117004E+001	-1.243094286916960E-006	-3.3274384E-006	1.4403088E+004
1.4673740E+002	4.9971776E+000	3.2377551E+000	5.9543967E+000	-3.2939877E+001	1.011037560019759E+001	2.1892180E-001	-1.5253469E-002	3.3499268E+002	9.9048470E+001	1.000000000000000E+000	10	4.5784353E-003	7.6891674E-004	0	4.979085781672944E-005	1.4094485E-001	9.1320530E-002	1.6794312E-001	3.2939877E+001	9.9048469E+004	1.5287223E+005	1.8215520E+005	-5.7060123E+001	0.0000000E+000	0.0000000E+000	0.0000000E+000	5.7060123E+001	0.0000000E+000	0.0000000E+000	0.0000000E+000	-5.7060123E+001	0.0000000E+000	0.0000000E+000	0.0000000E+000	-3.2939877E+001	0.0000000E+000	0.0000000E+000	0.0000000E+000	3.2939877E+001	1.5434082E+000	5.7060120E+001	-1.882157851521493E-006	-3.3393169E-006	1.4352263E+004
1.0003201E+002	5.9170809E+000	3.7938910E+000	7.0289016E+000	-3.2667023E+001	1.057867343581893E+001	2.1893087E-001	-1.4282707E-002	4.1936896E+002	1.2217745E+002	1.000000000000000E+000	10	4.5716357E-003	6.5040542E-004	0	4.795327450901904E-005	1.1976574E-001	7.6790936E-002	1.4226975E-001	3.2667023E+001	1.2217745E+005	1.9055211E+005	2.2635688E+005	-5.7332977E+001	0.0000000E+000	0.0000000E+000	0.0000000E+000	5.7332977E+001	0.0000000E+000	0.0000000E+000	0.0000000E+000	-5.7332977E+001	0.0000000E+000	0.0000000E+000	0.0000000E+000	-3.2667023E+001	0.0000000E+000	0.0000000E+000	0.0000000E+000	3.2667023E+001	1.5596339E+000	5.7332977E+001	-1.837583307710398E-006	-3.1269255E-006	1.5328388E+004
6.8103981E+001	7.0712256E+000	4.2764149E+000	8.2637739E+000	-3.1163992E+001	1.105732345851720E+001	2.1892190E-001	-1.3175923E-002	5.4647186E+002	1.4634254E+002	1.000000000000000E+000	10	4.5648124E-003	5.5238837E-004	0	4.628740635128795E-005	1.0354708E-001	6.2621430E-002	1.2101009E-001	3.1163992E+001	1.4634256E+005	2.4198336E+005	2.8279338E+005	-5.8836006E+001	0.0000000E+000	0.0000000E+000	0.0000000E+000	5.8836006E+001	0.0000000E+000	0.0000000E+000	0.0000000E+000	-5.8836006E+001	0.0000000E+000	0.0000000E+000	0.0000000E+000	-3.1163992E+001	0.0000000E+000	0.0000000E+000	0.0000000E+000	3.1163992E+001	1.6535406E+000	5.8836006E+001	-1.665868157731087E-006	-2.8844981E-006	1.6615299E+004
4.6441547E+001	8.4101954E+000	4.5647554E+000	9.5691366E+000	-2.8491539E+001	1.151255228012451E+001	2.1891595E-001	-1.7096261E-002	7.5075110E+002	1.7083839E+002	1.000000000000000E+000	10	4.5665405E-003	4.7721551E-004	0	4.456468356056091E-005	9.1846064E-002	4.9850784E-002	1.0450263E-001	2.8491539E+001	1.7083839E+005	3.1475600E+005	3.5813000E+005	-6.1508461E+001	0.0000000E+000	0.0000000E+000	0.0000000E+000	6.1508461E+001	0.0000000E+000	0.0000000E+000	0.0000000E+000	-6.1508461E+001	0.0000000E+000	0.0000000E+000	0.0000000E+000	-2.8491539E+001	0.0000000E+000	0.0000000E+000	0.0000000E+000	2.8491539E+001	1.8424197E+000	6.1508461E+001	-1.722722790727045E-006	-3.7426441E-006	1.2804902E+004
3.1629555E+001	9.8211946E+000	4.5673656E+000	1.0831284E+001	-2.4940874E+001	1.195845472798101E+001	2.1891047E-001	-1.8659553E-002	1.1016947E+003	1.9589934E+002	1.000000000000000E+000	10	4.5640306E-003	4.2137486E-004	0	4.243157183239560E-005	8.3715230E-002	3.8931929E-002	9.2325158E-002	2.4940874E+001	1.9589934E+005	4.2124188E+005	4.6456569E+005	-6.5059128E+001	0.0000000E+000	0.0000000E+000	0.0000000E+000	6.5059128E+001	0.0000000E+000	0.0000000E+000	0.0000000E+000	-6.5059128E+001	0.0000000E+000	0.0000000E+000	0.0000000E+000	-2.4940874E+001	0.0000000E+000	0.0000000E+000	0.0000000E+000	2.4940874E+001	2.1502974E+000	6.5059128E+001	-2.133111728165309E-006	-4.0847713E-006	1.1731817E+004
2.1551722E+001	1.1189472E+001	4.3505363E+000	1.2005476E+001	-2.1246391E+001	1.239733808216988E+001	2.1890637E-001	-2.0526560E-002	1.6974436E+003	2.2290622E+002	1.000000000000000E+000	10	4.5692716E-003	3.8059894E-004	0	4.127559422998941E-005	7.7633798E-002	3.0184504E-002	8.3295323E-002	2.1246391E+001	2.2290623E+005	5.7330931E+005	6.1511850E+005	-6.8753609E+001	0.0000000E+000	0.0000000E+000	0.0000000E+000	6.8753609E+001	0.0000000E+000	0.0000000E+000	0.0000000E+000	-6.8753609E+001	0.0000000E+000	0.0000000E+000	0.0000000E+000	-2.1246391E+001	0.0000000E+000	0.0000000E+000	0.0000000E+000	2.1246391E+001	2.5719752E+000	6.8753609E+001	-1.155977602406184E-006	-4.4933950E-006	1.0664543E+004
1.4685154E+001	1.2326546E+001	3.9540980E+000	1.2945216E+001	-1.7785154E+001	1.287604301157990E+001	2.1893178E-001	-1.2477198E-002	2.7409063E+003	2.5572337E+002	1.000000000000000E+000	10	4.5643379E-003	3.5258877E-004	0	3.955634926291370E-005	7.3556788E-002	2.3595480E-002	7.7248611E-002	1.7785154E+001	2.5572341E+005	7.9719469E+005	8.3720594E+005	-7.2214844E+001	0.0000000E+000	0.0000000E+000	0.0000000E+000	7.2214844E+001	0.0000000E+000	0.0000000E+000	0.0000000E+000	-7.2214844E+001	0.0000000E+000	0.0000000E+000	0.0000000E+000	-1.7785154E+001	0.0000000E+000	0.0000000E+000	0.0000000E+000	1.7785154E+001	3.1174102E+000	7.2214844E+001	-1.719244967075713E-006	-2.7316551E-006	1.7546551E+004
