
EC-Lab ASCII FILE
Nb header lines : 63                          

Potentio Electrochemical Impedance Spectroscopy

Run on channel : 4 (SN 66756)
User : 
CE vs. WE compliance from -10 V to 10 V
Electrode connection : standard
Potential control : Ewe
Ewe ctrl range : min = -10.00 V, max = 10.00 V
Safety Limits :
	Do not start on E overload
Acquisition started on : 09/11/2025 16:15:59.049
Loaded Setting File :  C:\Users\Celltest\OneDrive - store-dot.com\Documents\EC-Lab\Data\Charmaine\R279\17382.mps
Saved on :
	File : 17457_C04.mpr
	Directory : C:\Users\Celltest\OneDrive - store-dot.com\Documents\EC-Lab\Data\John\R281\
	Host : 169.254.61.224
Device : VMP-3e (SN .003165)
Address : USB
EC-LAB for windows v11.62 (software)
Internet server v27.00 (firmware)
Command interpretor v12.03 (firmware)
Electrode material : 
Initial state : 
Electrolyte : 
Comments : 
Electrode surface area : 0.001 cm²
Characteristic mass : 0.001 g
Equivalent Weight : 0.000 g/eq.
Density : 0.000 g/cm3
Volume (V) : 0.001 cm³
Cycle Definition : Charge/Discharge alternance
Mode                Single sine         
E (V)               0.0000              
vs.                 Eoc                 
tE (h:m:s)          0:00:0.0000         
record              0                   
dI                  0.000               
unit dI             mA                  
dt (s)              0.000               
fi                  100.000             
unit fi             kHz                 
ff                  10.000              
unit ff             mHz                 
Nd                  6                   
Points              per decade          
spacing             Logarithmic         
Va (mV)             5.0                 
pw                  0.10                
Na                  2                   
corr                0                   
E range min (V)     -10.000             
E range max (V)     10.000              
I Range             Auto                
Bandwidth           5                   
nc cycles           0                   
goto Ns'            0                   
nr cycles           0                   
inc. cycle          0                   

freq/Hz	Re(Z)/Ohm	-Im(Z)/Ohm	|Z|/Ohm	Phase(Z)/deg	time/s	<Ewe>/V	<I>/mA	Cs/µF	Cp/µF	cycle number	I Range	|Ewe|/V	|I|/A	Ns	(Q-Qo)/mA.h	Re(Y)/Ohm-1	Im(Y)/Ohm-1	|Y|/Ohm-1	Phase(Y)/deg	Re(C)/nF	Im(C)/nF	|C|/nF	Phase(C)/deg	Re(M)	Im(M)	|M|	Phase(M)/deg	Re(Permittivity)	Im(Permittivity)	|Permittivity|	Phase(Permittivity)/deg	Re(Resistivity)/Ohm.cm	Im(Resistivity)/Ohm.cm	|Resistivity|/Ohm.cm	Phase(Resistivity)/deg	Re(Conductivity)/mS/cm	Im(Conductivity)/mS/cm	|Conductivity|/mS/cm	Phase(Conductivity)/deg	Tan(Delta)	Loss Angle(Delta)/deg	dq/mA.h	Pwe/W	Rwe/Ohm	
1.0000371E+005	1.9189489E+000	3.1844240E-001	1.9451916E+000	-9.4221573E+000	2.066474124818342E+000	2.8600225E-001	-4.9945042E-002	4.9977336E+000	1.3393994E-001	1.000000000000000E+000	9	4.5549506E-003	2.3416462E-003	0	-1.178587871762769E-005	5.0715256E-001	8.4160075E-002	5.1408815E-001	9.4221573E+000	1.3393996E+002	8.0712848E+002	8.1816644E+002	-8.0577843E+001	0.0000000E+000	0.0000000E+000	0.0000000E+000	8.0577843E+001	0.0000000E+000	0.0000000E+000	0.0000000E+000	-8.0577843E+001	0.0000000E+000	0.0000000E+000	0.0000000E+000	-9.4221573E+000	0.0000000E+000	0.0000000E+000	0.0000000E+000	9.4221573E+000	6.0260468E+000	8.0577843E+001	-1.178587871762769E-005	-1.4284394E-005	5.7263394E+003
6.8132047E+004	1.9883499E+000	3.5392898E-001	2.0196042E+000	-1.0093015E+001	2.644495138927596E+000	2.8599986E-001	-4.8322611E-002	6.6001310E+000	2.0269932E-001	1.000000000000000E+000	9	5.0465642E-003	2.4987888E-003	0	-2.527075016271232E-005	4.8748389E-001	8.6772792E-002	4.9514651E-001	1.0093015E+001	2.0269937E+002	1.1387516E+003	1.1566512E+003	-7.9906982E+001	0.0000000E+000	0.0000000E+000	0.0000000E+000	7.9906982E+001	0.0000000E+000	0.0000000E+000	0.0000000E+000	-7.9906982E+001	0.0000000E+000	0.0000000E+000	0.0000000E+000	-1.0093015E+001	0.0000000E+000	0.0000000E+000	0.0000000E+000	1.0093015E+001	5.6179347E+000	7.9906982E+001	-1.348487144508464E-005	-1.3820260E-005	5.9185518E+003
4.6420355E+004	2.0781705E+000	3.9018762E-001	2.1144831E+000	-1.0633788E+001	3.222489913023310E+000	2.8600404E-001	-4.6588287E-002	8.7869511E+000	2.9921043E-001	1.000000000000000E+000	9	5.1338044E-003	2.4279240E-003	0	-2.900586852195880E-005	4.6480706E-001	8.7270014E-002	4.7292882E-001	1.0633788E+001	2.9921045E+002	1.5936185E+003	1.6214645E+003	-7.9366211E+001	0.0000000E+000	0.0000000E+000	0.0000000E+000	7.9366211E+001	0.0000000E+000	0.0000000E+000	0.0000000E+000	-7.9366211E+001	0.0000000E+000	0.0000000E+000	0.0000000E+000	-1.0633788E+001	0.0000000E+000	0.0000000E+000	0.0000000E+000	1.0633788E+001	5.3260803E+000	7.9366211E+001	-3.735118359246473E-006	-1.3324438E-005	6.1389688E+003
3.1621139E+004	2.1645801E+000	4.6049660E-001	2.2130215E+000	-1.2010153E+001	3.800488687149482E+000	2.8600830E-001	-4.9180444E-002	1.0929901E+001	4.7325781E-001	1.000000000000000E+000	9	5.1202667E-003	2.3136993E-003	0	-3.306974095717952E-005	4.4197977E-001	9.4027564E-002	4.5187089E-001	1.2010153E+001	4.7325790E+002	2.2245647E+003	2.2743484E+003	-7.7989845E+001	0.0000000E+000	0.0000000E+000	0.0000000E+000	7.7989845E+001	0.0000000E+000	0.0000000E+000	0.0000000E+000	-7.7989845E+001	0.0000000E+000	0.0000000E+000	0.0000000E+000	-1.2010153E+001	0.0000000E+000	0.0000000E+000	0.0000000E+000	1.2010153E+001	4.7005343E+000	7.7989845E+001	-4.063872435220724E-006	-1.4066015E-005	5.8154883E+003
2.1544684E+004	2.2645893E+000	5.1983702E-001	2.3234878E+000	-1.2928288E+001	4.096479847881710E+000	2.8600806E-001	-4.9217746E-002	1.4210614E+001	7.1132237E-001	1.000000000000000E+000	9	5.1529328E-003	2.2177577E-003	0	-3.634568559737333E-005	4.1947752E-001	9.6291162E-002	4.3038747E-001	1.2928288E+001	7.1132214E+002	3.0987654E+003	3.1793594E+003	-7.7071716E+001	0.0000000E+000	0.0000000E+000	0.0000000E+000	7.7071716E+001	0.0000000E+000	0.0000000E+000	0.0000000E+000	-7.7071716E+001	0.0000000E+000	0.0000000E+000	0.0000000E+000	-1.2928288E+001	0.0000000E+000	0.0000000E+000	0.0000000E+000	1.2928288E+001	4.3563447E+000	7.7071716E+001	-3.275944640193804E-006	-1.4076672E-005	5.8110762E+003
1.4678594E+004	2.3791623E+000	5.9670365E-001	2.4528491E+000	-1.4079596E+001	4.392499301960925E+000	2.8600454E-001	-4.5096409E-002	1.8170923E+001	1.0753571E+000	1.000000000000000E+000	9	4.5088856E-003	1.8382238E-003	0	-4.085129479267764E-005	3.9544165E-001	9.9178381E-002	4.0768915E-001	1.4079596E+001	1.0753572E+003	4.2876377E+003	4.4204331E+003	-7.5920403E+001	0.0000000E+000	0.0000000E+000	0.0000000E+000	7.5920403E+001	0.0000000E+000	0.0000000E+000	0.0000000E+000	-7.5920403E+001	0.0000000E+000	0.0000000E+000	0.0000000E+000	-1.4079596E+001	0.0000000E+000	0.0000000E+000	0.0000000E+000	1.4079596E+001	3.9871757E+000	7.5920403E+001	-4.505609195304314E-006	-1.2897778E-005	6.3420693E+003
1.0002226E+004	2.5056112E+000	6.7187488E-001	2.5941286E+000	-1.5010633E+001	4.829493536002701E+000	2.8601632E-001	-4.5916948E-002	2.3682911E+001	1.5886524E+000	1.000000000000000E+000	9	4.8670485E-003	1.8761785E-003	0	-4.592989336430199E-005	3.7233225E-001	9.9840194E-002	3.8548589E-001	1.5010633E+001	1.5886527E+003	5.9245332E+003	6.1338335E+003	-7.4989365E+001	0.0000000E+000	0.0000000E+000	0.0000000E+000	7.4989365E+001	0.0000000E+000	0.0000000E+000	0.0000000E+000	-7.4989365E+001	0.0000000E+000	0.0000000E+000	0.0000000E+000	-1.5010633E+001	0.0000000E+000	0.0000000E+000	0.0000000E+000	1.5010633E+001	3.7292824E+000	7.4989365E+001	-5.078598571624349E-006	-1.3132996E-005	6.2289922E+003
6.8110674E+003	2.6618998E+000	7.8921926E-001	2.7764325E+000	-1.6514418E+001	5.207493020658148E+000	2.8590915E-001	-6.2868580E-002	2.9607876E+001	2.3923702E+000	1.000000000000000E+000	9	4.6903682E-003	1.6893507E-003	0	-5.335967736586463E-005	3.4531659E-001	1.0238196E-001	3.6017442E-001	1.6514418E+001	2.3923706E+003	8.0690498E+003	8.4162344E+003	-7.3485580E+001	0.0000000E+000	0.0000000E+000	0.0000000E+000	7.3485580E+001	0.0000000E+000	0.0000000E+000	0.0000000E+000	-7.3485580E+001	0.0000000E+000	0.0000000E+000	0.0000000E+000	-1.6514418E+001	0.0000000E+000	0.0000000E+000	0.0000000E+000	1.6514418E+001	3.3728268E+000	7.3485580E+001	-7.429784001562638E-006	-1.7974702E-005	4.5477271E+003
4.6414854E+003	2.8368421E+000	9.0880334E-001	2.9788582E+000	-1.7763247E+001	5.678688749743742E+000	2.8610018E-001	1.2005744E-002	3.7730560E+001	3.5118294E+000	1.000000000000000E+000	9	4.6085669E-003	1.5470918E-003	0	-5.391295264527435E-005	3.1969473E-001	1.0241658E-001	3.3569908E-001	1.7763247E+001	3.5118291E+003	1.0962223E+004	1.1511007E+004	-7.2236755E+001	0.0000000E+000	0.0000000E+000	0.0000000E+000	7.2236755E+001	0.0000000E+000	0.0000000E+000	0.0000000E+000	-7.2236755E+001	0.0000000E+000	0.0000000E+000	0.0000000E+000	-1.7763247E+001	0.0000000E+000	0.0000000E+000	0.0000000E+000	1.7763247E+001	3.1215136E+000	7.2236755E+001	-5.532752794097201E-007	3.4348454E-006	2.3830275E+004
3.1610117E+003	3.0414641E+000	1.0648512E+000	3.2224853E+000	-1.9295731E+001	6.145672798593296E+000	2.8609878E-001	8.2760099E-003	4.7283009E+001	5.1629872E+000	1.000000000000000E+000	9	4.5575015E-003	1.4142815E-003	0	-5.305140753872305E-005	2.9288748E-001	1.0254323E-001	3.1031948E-001	1.9295731E+001	5.1629873E+003	1.4746700E+004	1.5624392E+004	-7.0704269E+001	0.0000000E+000	0.0000000E+000	0.0000000E+000	7.0704269E+001	0.0000000E+000	0.0000000E+000	0.0000000E+000	-7.0704269E+001	0.0000000E+000	0.0000000E+000	0.0000000E+000	-1.9295731E+001	0.0000000E+000	0.0000000E+000	0.0000000E+000	1.9295731E+001	2.8562341E+000	7.0704269E+001	8.615451065512982E-007	2.3677562E-006	3.4569652E+004
2.1556899E+003	3.2819400E+000	1.2409147E+000	3.5087035E+000	-2.0711805E+001	6.612679354111606E+000	2.8609705E-001	1.1054656E-002	5.9496567E+001	7.4418759E+000	1.000000000000000E+000	9	4.5330608E-003	1.2919476E-003	0	-5.272032491763174E-005	2.6658601E-001	1.0079723E-001	2.8500557E-001	2.0711805E+001	7.4418765E+003	1.9682088E+004	2.1042008E+004	-6.9288193E+001	0.0000000E+000	0.0000000E+000	0.0000000E+000	6.9288193E+001	0.0000000E+000	0.0000000E+000	0.0000000E+000	-6.9288193E+001	0.0000000E+000	0.0000000E+000	0.0000000E+000	-2.0711805E+001	0.0000000E+000	0.0000000E+000	0.0000000E+000	2.0711805E+001	2.6447749E+000	6.9288193E+001	3.310826210913047E-007	3.1627046E-006	2.5880230E+004
1.4685898E+003	3.5729835E+000	1.4511108E+000	3.8564146E+000	-2.2103754E+001	7.333955148351379E+000	2.8603643E-001	-1.2127168E-002	7.4682533E+001	1.0574328E+001	1.000000000000000E+000	10	4.6191690E-003	1.1977885E-003	0	-5.417280433353476E-005	2.4025010E-001	9.7573787E-002	2.5930822E-001	2.2103754E+001	1.0574326E+004	2.6036533E+004	2.8101912E+004	-6.7896248E+001	0.0000000E+000	0.0000000E+000	0.0000000E+000	6.7896248E+001	0.0000000E+000	0.0000000E+000	0.0000000E+000	-6.7896248E+001	0.0000000E+000	0.0000000E+000	0.0000000E+000	-2.2103754E+001	0.0000000E+000	0.0000000E+000	0.0000000E+000	2.2103754E+001	2.4622402E+000	6.7896248E+001	-1.452479415903019E-006	-3.4688121E-006	2.3586416E+004
1.0003202E+003	3.8867226E+000	1.7006686E+000	4.2425094E+000	-2.3632191E+001	7.802698770632560E+000	2.8603205E-001	-1.2746380E-002	9.3553787E+001	1.5033329E+001	1.000000000000000E+000	10	4.5813806E-003	1.0798752E-003	0	-5.482701318537713E-005	2.1594241E-001	9.4487436E-002	2.3570956E-001	2.3632191E+001	1.5033325E+004	3.4357301E+004	3.7502332E+004	-6.6367813E+001	0.0000000E+000	0.0000000E+000	0.0000000E+000	6.6367813E+001	0.0000000E+000	0.0000000E+000	0.0000000E+000	-6.6367813E+001	0.0000000E+000	0.0000000E+000	0.0000000E+000	-2.3632191E+001	0.0000000E+000	0.0000000E+000	0.0000000E+000	2.3632191E+001	2.2854085E+000	6.6367813E+001	-6.542088518423663E-007	-3.6458732E-006	2.2440258E+004
6.8108978E+002	4.2322464E+000	2.0046616E+000	4.6830096E+000	-2.5345217E+001	8.268449726019753E+000	2.8604141E-001	-1.3290984E-002	1.1656676E+002	2.1360271E+001	1.000000000000000E+000	10	4.5484314E-003	9.7126246E-004	0	-5.601731695148757E-005	1.9298379E-001	9.1409422E-002	2.1353789E-001	2.5345217E+001	2.1360270E+004	4.5095855E+004	4.9898871E+004	-6.4654785E+001	0.0000000E+000	0.0000000E+000	0.0000000E+000	6.4654785E+001	0.0000000E+000	0.0000000E+000	0.0000000E+000	-6.4654785E+001	0.0000000E+000	0.0000000E+000	0.0000000E+000	-2.5345217E+001	0.0000000E+000	0.0000000E+000	0.0000000E+000	2.5345217E+001	2.1112025E+000	6.4654785E+001	-1.190303766110444E-006	-3.8017718E-006	2.1521463E+004
4.6396069E+002	4.6284528E+000	2.3891499E+000	5.2087054E+000	-2.7302223E+001	8.737199321651133E+000	2.8603643E-001	-1.3169757E-002	1.4358052E+002	3.0208054E+001	1.000000000000000E+000	10	4.5266789E-003	8.6906028E-004	0	-5.759714818484564E-005	1.7059889E-001	8.8061042E-002	1.9198628E-001	2.7302223E+001	3.0208057E+004	5.8521465E+004	6.5858094E+004	-6.2697777E+001	0.0000000E+000	0.0000000E+000	0.0000000E+000	6.2697777E+001	0.0000000E+000	0.0000000E+000	0.0000000E+000	-6.2697777E+001	0.0000000E+000	0.0000000E+000	0.0000000E+000	-2.7302223E+001	0.0000000E+000	0.0000000E+000	0.0000000E+000	2.7302223E+001	1.9372802E+000	6.2697777E+001	-1.579831233358064E-006	-3.7670304E-006	2.1719188E+004
3.1631589E+002	5.1210842E+000	2.9043875E+000	5.8873568E+000	-2.9559441E+001	9.203899797168560E+000	2.8603926E-001	-1.3540927E-002	1.7323857E+002	4.2161201E+001	1.000000000000000E+000	10	4.5227231E-003	7.6820946E-004	0	-5.873962676853666E-005	1.4774786E-001	8.3794177E-002	1.6985551E-001	2.9559441E+001	4.2161203E+004	7.4339617E+004	8.5463125E+004	-6.0440559E+001	0.0000000E+000	0.0000000E+000	0.0000000E+000	6.0440559E+001	0.0000000E+000	0.0000000E+000	0.0000000E+000	-6.0440559E+001	0.0000000E+000	0.0000000E+000	0.0000000E+000	-2.9559441E+001	0.0000000E+000	0.0000000E+000	0.0000000E+000	2.9559441E+001	1.7632235E+000	6.0440559E+001	-1.142478583691018E-006	-3.8732369E-006	2.1124053E+004
2.1534457E+002	5.7288671E+000	3.5576882E+000	6.7436686E+000	-3.1840727E+001	9.671446939319139E+000	2.8603503E-001	-1.2649411E-002	2.0773914E+002	5.7817814E+001	1.000000000000000E+000	10	4.5135329E-003	6.6929933E-004	0	-5.973762927703663E-005	1.2597266E-001	7.8230381E-002	1.4828724E-001	3.1840727E+001	5.7817820E+004	9.3102758E+004	1.0959481E+005	-5.8159271E+001	0.0000000E+000	0.0000000E+000	0.0000000E+000	5.8159271E+001	0.0000000E+000	0.0000000E+000	0.0000000E+000	-5.8159271E+001	0.0000000E+000	0.0000000E+000	0.0000000E+000	-3.1840727E+001	0.0000000E+000	0.0000000E+000	0.0000000E+000	3.1840727E+001	1.6102780E+000	5.8159271E+001	-9.980025084999720E-007	-3.6181748E-006	2.2612518E+004
1.4673740E+002	6.5617027E+000	4.3648596E+000	7.8808594E+000	-3.3631939E+001	1.013438088135445E+001	2.8603655E-001	-1.4066883E-002	2.4849007E+002	7.6225876E+001	1.000000000000000E+000	10	4.5023849E-003	5.7130633E-004	0	-6.170654988281765E-005	1.0564999E-001	7.0278600E-002	1.2688972E-001	3.3631939E+001	7.6225867E+004	1.1459052E+005	1.3762766E+005	-5.6368061E+001	0.0000000E+000	0.0000000E+000	0.0000000E+000	5.6368061E+001	0.0000000E+000	0.0000000E+000	0.0000000E+000	-5.6368061E+001	0.0000000E+000	0.0000000E+000	0.0000000E+000	-3.3631939E+001	0.0000000E+000	0.0000000E+000	0.0000000E+000	3.3631939E+001	1.5033021E+000	5.6368057E+001	-1.968920605781019E-006	-4.0236428E-006	2.0334039E+004
1.0003201E+002	7.6843963E+000	5.2699289E+000	9.3178377E+000	-3.4442177E+001	1.082568630087917E+001	2.8604013E-001	-1.3695730E-002	3.0190924E+002	9.6572975E+001	1.000000000000000E+000	10	4.8723337E-003	5.2290392E-004	0	-6.440811272184429E-005	8.8507384E-002	6.0698014E-002	1.0732104E-001	3.4442177E+001	9.6572977E+004	1.4081880E+005	1.7075208E+005	-5.5557823E+001	0.0000000E+000	0.0000000E+000	0.0000000E+000	5.5557823E+001	0.0000000E+000	0.0000000E+000	0.0000000E+000	-5.5557823E+001	0.0000000E+000	0.0000000E+000	0.0000000E+000	-3.4442177E+001	0.0000000E+000	0.0000000E+000	0.0000000E+000	3.4442177E+001	1.4581593E+000	5.5557823E+001	-2.701562839026647E-006	-3.9175284E-006	2.0885352E+004
6.8103981E+001	9.1854696E+000	6.1777401E+000	1.1069658E+001	-3.3923031E+001	1.130334659016808E+001	2.8602925E-001	-1.0842147E-002	3.7828400E+002	1.1781724E+002	1.000000000000000E+000	10	4.8852894E-003	4.4132251E-004	0	-6.563620433019241E-005	7.4960582E-002	5.0415169E-002	9.0337023E-002	3.3923031E+001	1.1781724E+005	1.7517841E+005	2.1111223E+005	-5.6076969E+001	0.0000000E+000	0.0000000E+000	0.0000000E+000	5.6076969E+001	0.0000000E+000	0.0000000E+000	0.0000000E+000	-5.6076969E+001	0.0000000E+000	0.0000000E+000	0.0000000E+000	-3.3923031E+001	0.0000000E+000	0.0000000E+000	0.0000000E+000	3.3923031E+001	1.4868656E+000	5.6076965E+001	-1.228091608348114E-006	-3.1011712E-006	2.6381236E+004
4.6441547E+001	1.0993624E+001	6.9770522E+000	1.3020715E+001	-3.2401066E+001	1.175856397181633E+001	2.8601855E-001	-1.7498650E-002	4.9118091E+002	1.4103139E+002	1.000000000000000E+000	10	4.8780679E-003	3.7463903E-004	0	-6.744341064105862E-005	6.4844206E-002	4.1153077E-002	7.6800697E-002	3.2401066E+001	1.4103139E+005	2.2222077E+005	2.6319559E+005	-5.7598934E+001	0.0000000E+000	0.0000000E+000	0.0000000E+000	5.7598934E+001	0.0000000E+000	0.0000000E+000	0.0000000E+000	-5.7598934E+001	0.0000000E+000	0.0000000E+000	0.0000000E+000	-3.2401066E+001	0.0000000E+000	0.0000000E+000	0.0000000E+000	3.2401066E+001	1.5756831E+000	5.7598938E+001	-1.807206310866209E-006	-5.0049384E-006	1.6345179E+004
3.1629555E+001	1.3109815E+001	7.5221019E+000	1.5114538E+001	-2.9846186E+001	1.220543575301417E+001	2.8602031E-001	-1.9070921E-002	6.6894104E+002	1.6568245E+002	1.000000000000000E+000	10	4.8678513E-003	3.2206418E-004	0	-6.978717538078329E-005	5.7386115E-002	3.2926798E-002	6.6161469E-002	2.9846186E+001	1.6568245E+005	2.8875791E+005	3.3291409E+005	-6.0153816E+001	0.0000000E+000	0.0000000E+000	0.0000000E+000	6.0153816E+001	0.0000000E+000	0.0000000E+000	0.0000000E+000	-6.0153816E+001	0.0000000E+000	0.0000000E+000	0.0000000E+000	-2.9846186E+001	0.0000000E+000	0.0000000E+000	0.0000000E+000	2.9846186E+001	1.7428393E+000	6.0153816E+001	-2.343764739724672E-006	-5.4546708E-006	1.4997719E+004
2.1551722E+001	1.5485745E+001	7.7946129E+000	1.7336790E+001	-2.6717995E+001	1.288534341202467E+001	2.8605106E-001	-6.0713217E-003	9.4742224E+002	1.9151170E+002	1.000000000000000E+000	11	4.8722806E-003	2.8103706E-004	0	-7.171426886340002E-005	5.1522236E-002	2.5933264E-002	5.7680804E-002	2.6717995E+001	1.9151170E+005	3.8048091E+005	4.2596063E+005	-6.3282005E+001	0.0000000E+000	0.0000000E+000	0.0000000E+000	6.3282005E+001	0.0000000E+000	0.0000000E+000	0.0000000E+000	-6.3282005E+001	0.0000000E+000	0.0000000E+000	0.0000000E+000	-2.6717995E+001	0.0000000E+000	0.0000000E+000	0.0000000E+000	2.6717995E+001	1.9867241E+000	6.3282005E+001	-1.927093482616732E-006	-1.7367080E-006	4.7115121E+004
1.4685154E+001	1.7751909E+001	7.6431851E+000	1.9327404E+001	-2.3294569E+001	1.336302412804798E+001	2.8606683E-001	-4.9533937E-003	1.4179706E+003	2.2175272E+002	1.000000000000000E+000	11	4.8668142E-003	2.5180899E-004	0	-7.199097048604745E-005	4.7522362E-002	2.0461023E-002	5.1740006E-002	2.3294569E+001	2.2175275E+005	5.1503844E+005	5.6074850E+005	-6.6705429E+001	0.0000000E+000	0.0000000E+000	0.0000000E+000	6.6705429E+001	0.0000000E+000	0.0000000E+000	0.0000000E+000	-6.6705429E+001	0.0000000E+000	0.0000000E+000	0.0000000E+000	-2.3294569E+001	0.0000000E+000	0.0000000E+000	0.0000000E+000	2.3294569E+001	2.3225801E+000	6.6705429E+001	-2.767016226474275E-007	-1.4170016E-006	5.7751684E+004
