
EC-Lab ASCII FILE
Nb header lines : 63                          

Potentio Electrochemical Impedance Spectroscopy

Run on channel : 7 (SN 66126)
User : 
CE vs. WE compliance from -10 V to 10 V
Electrode connection : standard
Potential control : Ewe
Ewe ctrl range : min = -10.00 V, max = 10.00 V
Safety Limits :
	Do not start on E overload
Acquisition started on : 09/12/2025 10:01:06.780
Loaded Setting File :  C:\Users\Celltest\OneDrive - store-dot.com\Documents\EC-Lab\Data\Charmaine\R279\17382_C01.mpr
Saved on :
	File : 17466_C07.mpr
	Directory : C:\Users\Celltest\OneDrive - store-dot.com\Documents\EC-Lab\Data\Gyutae\R277\
	Host : 169.254.61.224
Device : VMP-3e (SN .003165)
Address : USB
EC-LAB for windows v11.62 (software)
Internet server v27.00 (firmware)
Command interpretor v12.03 (firmware)
Electrode material : 
Initial state : 
Electrolyte : 
Comments : 
Electrode surface area : 0.001 cm²
Characteristic mass : 0.001 g
Equivalent Weight : 0.000 g/eq.
Density : 0.000 g/cm3
Volume (V) : 0.001 cm³
Cycle Definition : Charge/Discharge alternance
Mode                Single sine         
E (V)               0.0000              
vs.                 Eoc                 
tE (h:m:s)          0:00:0.0000         
record              0                   
dI                  0.000               
unit dI             mA                  
dt (s)              0.000               
fi                  100.000             
unit fi             kHz                 
ff                  10.000              
unit ff             mHz                 
Nd                  6                   
Points              per decade          
spacing             Logarithmic         
Va (mV)             5.0                 
pw                  0.10                
Na                  2                   
corr                0                   
E range min (V)     -10.000             
E range max (V)     10.000              
I Range             Auto                
Bandwidth           5                   
nc cycles           0                   
goto Ns'            0                   
nr cycles           0                   
inc. cycle          0                   

freq/Hz	Re(Z)/Ohm	-Im(Z)/Ohm	|Z|/Ohm	Phase(Z)/deg	time/s	<Ewe>/V	<I>/mA	Cs/µF	Cp/µF	cycle number	I Range	|Ewe|/V	|I|/A	Ns	(Q-Qo)/mA.h	Re(Y)/Ohm-1	Im(Y)/Ohm-1	|Y|/Ohm-1	Phase(Y)/deg	Re(C)/nF	Im(C)/nF	|C|/nF	Phase(C)/deg	Re(M)	Im(M)	|M|	Phase(M)/deg	Re(Permittivity)	Im(Permittivity)	|Permittivity|	Phase(Permittivity)/deg	Re(Resistivity)/Ohm.cm	Im(Resistivity)/Ohm.cm	|Resistivity|/Ohm.cm	Phase(Resistivity)/deg	Re(Conductivity)/mS/cm	Im(Conductivity)/mS/cm	|Conductivity|/mS/cm	Phase(Conductivity)/deg	Tan(Delta)	Loss Angle(Delta)/deg	dq/mA.h	Pwe/W	Rwe/Ohm	
1.0000371E+005	1.5677447E+000	2.3223850E-001	1.5848528E+000	-8.4262543E+000	1.917479077732423E+000	2.7829412E-001	6.1446849E-002	6.8528271E+000	1.4715002E-001	1.000000000000000E+000	9	4.7409614E-003	2.9914207E-003	0	8.093163279234431E-006	6.2416220E-001	9.2460521E-002	6.3097340E-001	8.4262543E+000	1.4715002E+002	9.9334821E+002	1.0041881E+003	-8.1573746E+001	0.0000000E+000	0.0000000E+000	0.0000000E+000	8.1573746E+001	0.0000000E+000	0.0000000E+000	0.0000000E+000	-8.1573746E+001	0.0000000E+000	0.0000000E+000	0.0000000E+000	-8.4262543E+000	0.0000000E+000	0.0000000E+000	0.0000000E+000	8.4262543E+000	6.7505808E+000	8.1573746E+001	8.093163279234431E-006	1.7100296E-005	4.5290220E+003
6.8132047E+004	1.6182909E+000	2.8174037E-001	1.6426330E+000	-9.8760643E+000	2.354492645157734E+000	2.7830222E-001	6.9080248E-002	8.2912426E+000	2.4391398E-001	1.000000000000000E+000	9	5.3285835E-003	3.2439283E-003	0	1.695656743917304E-005	5.9975725E-001	1.0441624E-001	6.0877872E-001	9.8760643E+000	2.4391409E+002	1.4010195E+003	1.4220935E+003	-8.0123932E+001	0.0000000E+000	0.0000000E+000	0.0000000E+000	8.0123932E+001	0.0000000E+000	0.0000000E+000	0.0000000E+000	-8.0123932E+001	0.0000000E+000	0.0000000E+000	0.0000000E+000	-9.8760643E+000	0.0000000E+000	0.0000000E+000	0.0000000E+000	9.8760643E+000	5.7439084E+000	8.0123932E+001	8.863404159938606E-006	1.9225186E-005	4.0286802E+003
4.6420355E+004	1.6883566E+000	3.2948592E-001	1.7202061E+000	-1.1042590E+001	2.791493332566461E+000	2.7831599E-001	6.1391000E-002	1.0405785E+001	3.8175750E-001	1.000000000000000E+000	9	5.2425130E-003	3.0476074E-003	0	1.928981458465892E-005	5.7056242E-001	1.1134631E-001	5.8132565E-001	1.1042590E+001	3.8175739E+002	1.9562074E+003	1.9931096E+003	-7.8957413E+001	0.0000000E+000	0.0000000E+000	0.0000000E+000	7.8957413E+001	0.0000000E+000	0.0000000E+000	0.0000000E+000	-7.8957413E+001	0.0000000E+000	0.0000000E+000	0.0000000E+000	-1.1042590E+001	0.0000000E+000	0.0000000E+000	0.0000000E+000	1.1042590E+001	5.1242146E+000	7.8957413E+001	2.333247145485883E-006	1.7086097E-005	4.5334980E+003
3.1621139E+004	1.7713572E+000	3.7504324E-001	1.8106252E+000	-1.1954489E+001	3.228482153295772E+000	2.7832887E-001	6.5505579E-002	1.3420271E+001	5.7579362E-001	1.000000000000000E+000	9	4.6936860E-003	2.5923012E-003	0	2.106189876623426E-005	5.4031754E-001	1.1439953E-001	5.5229545E-001	1.1954489E+001	5.7579370E+002	2.7195161E+003	2.7798032E+003	-7.8045509E+001	0.0000000E+000	0.0000000E+000	0.0000000E+000	7.8045509E+001	0.0000000E+000	0.0000000E+000	0.0000000E+000	-7.8045509E+001	0.0000000E+000	0.0000000E+000	0.0000000E+000	-1.1954489E+001	0.0000000E+000	0.0000000E+000	0.0000000E+000	1.1954489E+001	4.7230744E+000	7.8045509E+001	1.772084181575338E-006	1.8232093E-005	4.2489336E+003
2.1544684E+004	1.8535197E+000	4.7144869E-001	1.9125373E+000	-1.4270751E+001	4.370484234212199E+000	2.7833992E-001	4.1823439E-002	1.5669156E+001	9.5212644E-001	1.000000000000000E+000	9	5.1090871E-003	2.6713659E-003	0	2.315635753083819E-004	5.0673085E-001	1.2888862E-001	5.2286559E-001	1.4270751E+001	9.5212653E+002	3.7433237E+003	3.8625144E+003	-7.5729248E+001	0.0000000E+000	0.0000000E+000	0.0000000E+000	7.5729248E+001	0.0000000E+000	0.0000000E+000	0.0000000E+000	-7.5729248E+001	0.0000000E+000	0.0000000E+000	0.0000000E+000	-1.4270751E+001	0.0000000E+000	0.0000000E+000	0.0000000E+000	1.4270751E+001	3.9315407E+000	7.5729248E+001	2.105016765421476E-004	1.1641133E-005	6.6551182E+003
1.4678594E+004	1.9605371E+000	5.3235626E-001	2.0315287E+000	-1.5191566E+001	4.667475394991925E+000	2.7833578E-001	4.7930147E-002	2.0367292E+001	1.3985955E+000	1.000000000000000E+000	9	4.9567134E-003	2.4398933E-003	0	2.333373046246383E-004	4.7503886E-001	1.2899013E-001	4.9224016E-001	1.5191566E+001	1.3985956E+003	5.1506831E+003	5.3371909E+003	-7.4808434E+001	0.0000000E+000	0.0000000E+000	0.0000000E+000	7.4808434E+001	0.0000000E+000	0.0000000E+000	0.0000000E+000	-7.4808434E+001	0.0000000E+000	0.0000000E+000	0.0000000E+000	-1.5191566E+001	0.0000000E+000	0.0000000E+000	0.0000000E+000	1.5191566E+001	3.6827538E+000	7.4808434E+001	1.773729316256419E-006	1.3340675E-005	5.8071128E+003
1.0002226E+004	2.0817201E+000	6.0384864E-001	2.1675313E+000	-1.6175962E+001	4.963494395749876E+000	2.7833903E-001	4.7055081E-002	2.6350897E+001	2.0451295E+000	1.000000000000000E+000	9	4.6767029E-003	2.1576174E-003	0	2.375329405181110E-004	4.4308966E-001	1.2852789E-001	4.6135437E-001	1.6175962E+001	2.0451300E+003	7.0504219E+003	7.3410493E+003	-7.3824036E+001	0.0000000E+000	0.0000000E+000	0.0000000E+000	7.3824036E+001	0.0000000E+000	0.0000000E+000	0.0000000E+000	-7.3824036E+001	0.0000000E+000	0.0000000E+000	0.0000000E+000	-1.6175962E+001	0.0000000E+000	0.0000000E+000	0.0000000E+000	1.6175962E+001	3.4474204E+000	7.3824036E+001	4.195635893472694E-006	1.3097266E-005	5.9151748E+003
6.8110674E+003	2.2251608E+000	6.9406366E-001	2.3308935E+000	-1.7323545E+001	5.518501328740967E+000	2.7820557E-001	-4.7216835E-003	3.3667095E+001	2.9851034E+000	1.000000000000000E+000	9	5.0231237E-003	2.1550206E-003	0	2.414952191203807E-004	4.0955904E-001	1.2774809E-001	4.2902002E-001	1.7323545E+001	2.9851038E+003	9.5702100E+003	1.0024957E+004	-7.2676453E+001	0.0000000E+000	0.0000000E+000	0.0000000E+000	7.2676453E+001	0.0000000E+000	0.0000000E+000	0.0000000E+000	-7.2676453E+001	0.0000000E+000	0.0000000E+000	0.0000000E+000	-1.7323545E+001	0.0000000E+000	0.0000000E+000	0.0000000E+000	1.7323545E+001	3.2059896E+000	7.2676453E+001	3.962278602269686E-006	-1.3135987E-006	5.8920844E+004
4.6414854E+003	2.3800409E+000	7.8706098E-001	2.5068026E+000	-1.8298649E+001	5.989669591181155E+000	2.7833882E-001	6.7553535E-002	4.3566711E+001	4.2946844E+000	1.000000000000000E+000	9	4.9087363E-003	1.9581662E-003	0	2.477870437334738E-004	3.7874258E-001	1.2524723E-001	3.9891455E-001	1.8298649E+001	4.2946836E+003	1.2986954E+004	1.3678644E+004	-7.1701355E+001	0.0000000E+000	0.0000000E+000	0.0000000E+000	7.1701355E+001	0.0000000E+000	0.0000000E+000	0.0000000E+000	-7.1701355E+001	0.0000000E+000	0.0000000E+000	0.0000000E+000	-1.8298649E+001	0.0000000E+000	0.0000000E+000	0.0000000E+000	1.8298649E+001	3.0239599E+000	7.1701355E+001	6.291824613093098E-006	1.8802772E-005	4.1202700E+003
3.1610117E+003	2.5634980E+000	9.0028447E-001	2.7169900E+000	-1.9350956E+001	6.456676493362465E+000	2.7835214E-001	6.6250265E-002	5.5926064E+001	6.1404147E+000	1.000000000000000E+000	9	4.8426562E-003	1.7823607E-003	0	2.560667146044305E-004	3.4726173E-001	1.2195615E-001	3.6805436E-001	1.9350956E+001	6.1404141E+003	1.7484410E+004	1.8531305E+004	-7.0649048E+001	0.0000000E+000	0.0000000E+000	0.0000000E+000	7.0649048E+001	0.0000000E+000	0.0000000E+000	0.0000000E+000	-7.0649048E+001	0.0000000E+000	0.0000000E+000	0.0000000E+000	-1.9350956E+001	0.0000000E+000	0.0000000E+000	0.0000000E+000	1.9350956E+001	2.8474312E+000	7.0649048E+001	8.279670870956694E-006	1.8440904E-005	4.2015249E+003
2.1556899E+003	2.7582381E+000	1.0322001E+000	2.9450490E+000	-2.0517078E+001	6.923685048881453E+000	2.7834842E-001	6.4034715E-002	7.1526985E+001	8.7864342E+000	1.000000000000000E+000	9	4.7980100E-003	1.6291783E-003	0	2.642420056231009E-004	3.1801429E-001	1.1900873E-001	3.3955291E-001	2.0517078E+001	8.7864326E+003	2.3479051E+004	2.5069248E+004	-6.9482925E+001	0.0000000E+000	0.0000000E+000	0.0000000E+000	6.9482925E+001	0.0000000E+000	0.0000000E+000	0.0000000E+000	-6.9482925E+001	0.0000000E+000	0.0000000E+000	0.0000000E+000	-2.0517078E+001	0.0000000E+000	0.0000000E+000	0.0000000E+000	2.0517078E+001	2.6721933E+000	6.9482925E+001	8.175291018670447E-006	1.7823962E-005	4.3468359E+003
1.4685898E+003	2.9887438E+000	1.1914703E+000	3.2174821E+000	-2.1734823E+001	7.390928057720885E+000	2.7834719E-001	5.7332218E-002	9.0957062E+001	1.2472989E+001	1.000000000000000E+000	9	4.7743749E-003	1.4838855E-003	0	2.705835789889485E-004	2.8870639E-001	1.1509354E-001	3.1080204E-001	2.1734823E+001	1.2472990E+004	3.1287871E+004	3.3682434E+004	-6.8265175E+001	0.0000000E+000	0.0000000E+000	0.0000000E+000	6.8265175E+001	0.0000000E+000	0.0000000E+000	0.0000000E+000	-6.8265175E+001	0.0000000E+000	0.0000000E+000	0.0000000E+000	-2.1734823E+001	0.0000000E+000	0.0000000E+000	0.0000000E+000	2.1734823E+001	2.5084503E+000	6.8265175E+001	6.341573365847624E-006	1.5958261E-005	4.8549873E+003
1.0003202E+003	3.2717748E+000	1.3798730E+000	3.5508533E+000	-2.2867615E+001	8.113698465400375E+000	2.7832922E-001	-1.2005134E-002	1.1530337E+002	1.7412245E+001	1.000000000000000E+000	10	4.8378496E-003	1.3624470E-003	0	2.749209207133132E-004	2.5948837E-001	1.0943938E-001	2.8162244E-001	2.2867615E+001	1.7412246E+004	4.1285645E+004	4.4807262E+004	-6.7132385E+001	0.0000000E+000	0.0000000E+000	0.0000000E+000	6.7132385E+001	0.0000000E+000	0.0000000E+000	0.0000000E+000	-6.7132385E+001	0.0000000E+000	0.0000000E+000	0.0000000E+000	-2.2867615E+001	0.0000000E+000	0.0000000E+000	0.0000000E+000	2.2867615E+001	2.3710694E+000	6.7132385E+001	4.337341724364608E-006	-3.3413794E-006	2.3184184E+004
6.8108978E+002	3.5706286E+000	1.6026424E+000	3.9138026E+000	-2.4172472E+001	8.579434087470872E+000	2.7832559E-001	-1.2353218E-002	1.4580727E+002	2.4448633E+001	1.000000000000000E+000	10	4.8020883E-003	1.2269623E-003	0	2.737204271863059E-004	2.3310244E-001	1.0462581E-001	2.5550598E-001	2.4172472E+001	2.4448631E+004	5.4470656E+004	5.9705844E+004	-6.5827530E+001	0.0000000E+000	0.0000000E+000	0.0000000E+000	6.5827530E+001	0.0000000E+000	0.0000000E+000	0.0000000E+000	-6.5827530E+001	0.0000000E+000	0.0000000E+000	0.0000000E+000	-2.4172472E+001	0.0000000E+000	0.0000000E+000	0.0000000E+000	2.4172472E+001	2.2279634E+000	6.5827530E+001	-1.200493527007214E-006	-3.4382167E-006	2.2530613E+004
4.6396069E+002	3.9228711E+000	1.8935291E+000	4.3559580E+000	-2.5766121E+001	9.048188936401857E+000	2.7831933E-001	-1.1657059E-002	1.8116194E+002	3.4232887E+001	1.000000000000000E+000	10	4.7834278E-003	1.0981346E-003	0	2.723917088071434E-004	2.0674579E-001	9.9794045E-002	2.2957063E-001	2.5766121E+001	3.4232891E+004	7.0921125E+004	7.8750852E+004	-6.4233879E+001	0.0000000E+000	0.0000000E+000	0.0000000E+000	6.4233879E+001	0.0000000E+000	0.0000000E+000	0.0000000E+000	-6.4233879E+001	0.0000000E+000	0.0000000E+000	0.0000000E+000	-2.5766121E+001	0.0000000E+000	0.0000000E+000	0.0000000E+000	2.5766121E+001	2.0717249E+000	6.4233879E+001	-1.328718379162510E-006	-3.2443850E-006	2.3875604E+004
3.1631589E+002	4.3424287E+000	2.2514417E+000	4.8913879E+000	-2.7405622E+001	9.514944451948395E+000	2.7832416E-001	-1.2624980E-002	2.2347987E+002	4.7347343E+001	1.000000000000000E+000	10	4.7602667E-003	9.7319344E-004	0	2.715743372777684E-004	1.8149659E-001	9.4101496E-002	2.0444095E-001	2.7405622E+001	4.7347348E+004	9.1320352E+004	1.0286485E+005	-6.2594376E+001	0.0000000E+000	0.0000000E+000	0.0000000E+000	6.2594376E+001	0.0000000E+000	0.0000000E+000	0.0000000E+000	-6.2594376E+001	0.0000000E+000	0.0000000E+000	0.0000000E+000	-2.7405622E+001	0.0000000E+000	0.0000000E+000	0.0000000E+000	2.7405622E+001	1.9287324E+000	6.2594376E+001	-8.173715293750437E-007	-3.5138369E-006	2.2045514E+004
2.1534457E+002	4.8918209E+000	2.6832454E+000	5.5794010E+000	-2.8745502E+001	9.982432207470993E+000	2.7831998E-001	-1.2541222E-002	2.7543924E+002	6.3704697E+001	1.000000000000000E+000	10	4.7518271E-003	8.5167331E-004	0	2.707164718095188E-004	1.5714312E-001	8.6195618E-002	1.7923070E-001	2.8745502E+001	6.3704684E+004	1.1613992E+005	1.3246422E+005	-6.1254498E+001	0.0000000E+000	0.0000000E+000	0.0000000E+000	6.1254498E+001	0.0000000E+000	0.0000000E+000	0.0000000E+000	-6.1254498E+001	0.0000000E+000	0.0000000E+000	0.0000000E+000	-2.8745502E+001	0.0000000E+000	0.0000000E+000	0.0000000E+000	2.8745502E+001	1.8230985E+000	6.1254501E+001	-8.578654682496337E-007	-3.4904729E-006	2.2192412E+004
1.4673740E+002	5.5919104E+000	3.1518390E+000	6.4189992E+000	-2.9407461E+001	1.044538468276733E+001	2.7831879E-001	-1.3153622E-002	3.4412424E+002	8.2967636E+001	1.000000000000000E+000	10	4.7381911E-003	7.3815108E-004	0	2.688048873691425E-004	1.3571429E-001	7.6494358E-002	1.5578753E-001	2.9407461E+001	8.2967641E+004	1.4719902E+005	1.6897094E+005	-6.0592537E+001	0.0000000E+000	0.0000000E+000	0.0000000E+000	6.0592537E+001	0.0000000E+000	0.0000000E+000	0.0000000E+000	-6.0592537E+001	0.0000000E+000	0.0000000E+000	0.0000000E+000	-2.9407461E+001	0.0000000E+000	0.0000000E+000	0.0000000E+000	2.9407461E+001	1.7741739E+000	6.0592537E+001	-1.911584440376251E-006	-3.6609001E-006	2.1159100E+004
1.0003201E+002	6.4907417E+000	3.6055541E+000	7.4249411E+000	-2.9051813E+001	1.091366766505962E+001	2.7832210E-001	-1.1243851E-002	4.4127478E+002	1.0405600E+002	1.000000000000000E+000	10	4.7347229E-003	6.3767820E-004	0	2.667793633992227E-004	1.1773574E-001	6.5401241E-002	1.3468121E-001	2.9051813E+001	1.0405598E+005	1.8732228E+005	2.1428319E+005	-6.0948189E+001	0.0000000E+000	0.0000000E+000	0.0000000E+000	6.0948189E+001	0.0000000E+000	0.0000000E+000	0.0000000E+000	-6.0948189E+001	0.0000000E+000	0.0000000E+000	0.0000000E+000	-2.9051813E+001	0.0000000E+000	0.0000000E+000	0.0000000E+000	2.9051813E+001	1.8002064E+000	6.0948189E+001	-2.025523969919761E-006	-3.1294121E-006	2.4753271E+004
6.8103981E+001	7.5678544E+000	3.9890363E+000	8.5548134E+000	-2.7793835E+001	1.139231342109269E+001	2.7832589E-001	-9.4010839E-003	5.8584082E+002	1.2737803E+002	1.000000000000000E+000	10	4.7329571E-003	5.5325078E-004	0	2.652144087656860E-004	1.0340741E-001	5.4506324E-002	1.1689325E-001	2.7793835E+001	1.2737803E+005	2.4165695E+005	2.7317256E+005	-6.2206165E+001	0.0000000E+000	0.0000000E+000	0.0000000E+000	6.2206165E+001	0.0000000E+000	0.0000000E+000	0.0000000E+000	-6.2206165E+001	0.0000000E+000	0.0000000E+000	0.0000000E+000	-2.7793835E+001	0.0000000E+000	0.0000000E+000	0.0000000E+000	2.7793835E+001	1.8971636E+000	6.2206161E+001	-1.564954633536731E-006	-2.6165651E-006	2.9605723E+004
4.6441547E+001	8.7863941E+000	4.1964397E+000	9.7370853E+000	-2.5529448E+001	1.184754466937738E+001	2.7831024E-001	-1.4581302E-002	8.1664337E+002	1.5168286E+002	1.000000000000000E+000	10	4.7368775E-003	4.8647795E-004	0	2.632808067141288E-004	9.2672899E-002	4.4261184E-002	1.0270014E-001	2.5529448E+001	1.5168284E+005	3.1758950E+005	3.5195281E+005	-6.4470551E+001	0.0000000E+000	0.0000000E+000	0.0000000E+000	6.4470551E+001	0.0000000E+000	0.0000000E+000	0.0000000E+000	-6.4470551E+001	0.0000000E+000	0.0000000E+000	0.0000000E+000	-2.5529448E+001	0.0000000E+000	0.0000000E+000	0.0000000E+000	2.5529448E+001	2.0937734E+000	6.4470551E+001	-1.933602051557178E-006	-4.0581258E-006	1.9086789E+004
3.1629555E+001	1.0057688E+001	4.1960182E+000	1.0897874E+001	-2.2645658E+001	1.229646679732832E+001	2.7831024E-001	-1.6090883E-002	1.1991946E+003	1.7777916E+002	1.000000000000000E+000	10	4.7362573E-003	4.3460380E-004	0	2.616337570302712E-004	8.4686577E-002	3.5330825E-002	9.1761015E-002	2.2645658E+001	1.7777917E+005	4.2612953E+005	4.6172700E+005	-6.7354340E+001	0.0000000E+000	0.0000000E+000	0.0000000E+000	6.7354340E+001	0.0000000E+000	0.0000000E+000	0.0000000E+000	-6.7354340E+001	0.0000000E+000	0.0000000E+000	0.0000000E+000	-2.2645658E+001	0.0000000E+000	0.0000000E+000	0.0000000E+000	2.2645658E+001	2.3969600E+000	6.7354340E+001	-1.647049683857634E-006	-4.4782573E-006	1.7296145E+004
2.1551722E+001	1.1208235E+001	3.9932885E+000	1.1898356E+001	-1.9610050E+001	1.273535556488787E+001	2.7830905E-001	-1.7311951E-002	1.8493004E+003	2.0830269E+002	1.000000000000000E+000	10	4.7293757E-003	3.9748143E-004	0	2.594295450605520E-004	7.9170480E-002	2.8206989E-002	8.4045224E-002	1.9610050E+001	2.0830266E+005	5.8465738E+005	6.2065631E+005	-7.0389954E+001	0.0000000E+000	0.0000000E+000	0.0000000E+000	7.0389954E+001	0.0000000E+000	0.0000000E+000	0.0000000E+000	-7.0389954E+001	0.0000000E+000	0.0000000E+000	0.0000000E+000	-1.9610050E+001	0.0000000E+000	0.0000000E+000	0.0000000E+000	1.9610050E+001	2.8067682E+000	7.0389954E+001	-2.204211969719183E-006	-4.8180727E-006	1.6076122E+004
1.4685154E+001	1.2275697E+001	3.6709113E+000	1.2812819E+001	-1.6648712E+001	1.321304038757808E+001	2.7832791E-001	-9.3824780E-003	2.9523491E+003	2.4234059E+002	1.000000000000000E+000	10	4.7310446E-003	3.6924309E-004	0	2.578230452210086E-004	7.4775070E-002	2.2360656E-002	7.8046843E-002	1.6648712E+001	2.4234058E+005	8.1039813E+005	8.4585700E+005	-7.3351288E+001	0.0000000E+000	0.0000000E+000	0.0000000E+000	7.3351288E+001	0.0000000E+000	0.0000000E+000	0.0000000E+000	-7.3351288E+001	0.0000000E+000	0.0000000E+000	0.0000000E+000	-1.6648712E+001	0.0000000E+000	0.0000000E+000	0.0000000E+000	1.6648712E+001	3.3440461E+000	7.3351288E+001	-1.606499839543424E-006	-2.6114055E-006	2.9664648E+004
1.0003201E+001	1.3248557E+001	3.3465691E+000	1.3664691E+001	-1.4176297E+001	1.393569207526889E+001	2.7835178E-001	-7.1648504E-003	4.7542427E+003	2.8515518E+002	1.000000000000000E+000	11	4.7297752E-003	3.4613116E-004	0	2.590062084774270E-004	7.0952699E-002	1.7922565E-002	7.3181309E-002	1.4176297E+001	2.8515525E+005	1.1288859E+006	1.1643440E+006	-7.5823700E+001	0.0000000E+000	0.0000000E+000	0.0000000E+000	7.5823700E+001	0.0000000E+000	0.0000000E+000	0.0000000E+000	-7.5823700E+001	0.0000000E+000	0.0000000E+000	0.0000000E+000	-1.4176297E+001	0.0000000E+000	0.0000000E+000	0.0000000E+000	1.4176297E+001	3.9588478E+000	7.5823700E+001	1.183163256418399E-006	-1.9943488E-006	3.8849629E+004
