EC-Lab ASCII FILE
Nb header lines : 63                          

Potentio Electrochemical Impedance Spectroscopy

Run on channel : 4 (SN 66756)
User : 
CE vs. WE compliance from -10 V to 10 V
Electrode connection : standard
Potential control : Ewe
Ewe ctrl range : min = -10.00 V, max = 10.00 V
Safety Limits :
	Do not start on E overload
Acquisition started on : 09/12/2025 09:48:52.517
Loaded Setting File :  C:\Users\Celltest\OneDrive - store-dot.com\Documents\EC-Lab\Data\Charmaine\R279\17382.mps
Saved on :
	File : 17462_C04.mpr
	Directory : C:\Users\Celltest\OneDrive - store-dot.com\Documents\EC-Lab\Data\Gyutae\R277\
	Host : 169.254.61.224
Device : VMP-3e (SN .003165)
Address : USB
EC-LAB for windows v11.62 (software)
Internet server v27.00 (firmware)
Command interpretor v12.03 (firmware)
Electrode material : 
Initial state : 
Electrolyte : 
Comments : 
Electrode surface area : 0.001 cm²
Characteristic mass : 0.001 g
Equivalent Weight : 0.000 g/eq.
Density : 0.000 g/cm3
Volume (V) : 0.001 cm³
Cycle Definition : Charge/Discharge alternance
Mode                Single sine         
E (V)               0.0000              
vs.                 Eoc                 
tE (h:m:s)          0:00:0.0000         
record              0                   
dI                  0.000               
unit dI             mA                  
dt (s)              0.000               
fi                  100.000             
unit fi             kHz                 
ff                  10.000              
unit ff             mHz                 
Nd                  6                   
Points              per decade          
spacing             Logarithmic         
Va (mV)             5.0                 
pw                  0.10                
Na                  2                   
corr                0                   
E range min (V)     -10.000             
E range max (V)     10.000              
I Range             Auto                
Bandwidth           5                   
nc cycles           0                   
goto Ns'            0                   
nr cycles           0                   
inc. cycle          0                   

freq/Hz	Re(Z)/Ohm	-Im(Z)/Ohm	|Z|/Ohm	Phase(Z)/deg	time/s	<Ewe>/V	<I>/mA	Cs/µF	Cp/µF	cycle number	I Range	|Ewe|/V	|I|/A	Ns	(Q-Qo)/mA.h	Re(Y)/Ohm-1	Im(Y)/Ohm-1	|Y|/Ohm-1	Phase(Y)/deg	Re(C)/nF	Im(C)/nF	|C|/nF	Phase(C)/deg	Re(M)	Im(M)	|M|	Phase(M)/deg	Re(Permittivity)	Im(Permittivity)	|Permittivity|	Phase(Permittivity)/deg	Re(Resistivity)/Ohm.cm	Im(Resistivity)/Ohm.cm	|Resistivity|/Ohm.cm	Phase(Resistivity)/deg	Re(Conductivity)/mS/cm	Im(Conductivity)/mS/cm	|Conductivity|/mS/cm	Phase(Conductivity)/deg	Tan(Delta)	Loss Angle(Delta)/deg	dq/mA.h	Pwe/W	Rwe/Ohm	
1.0000371E+005	1.6073543E+000	3.3016980E-001	1.6409143E+000	-1.1607776E+001	2.226500212418614E+000	2.8079638E-001	-4.6644211E-002	4.8202176E+000	1.9515043E-001	1.000000000000000E+000	9	4.9645123E-003	3.0254549E-003	0	-1.152729836168389E-005	5.9695256E-001	1.2262119E-001	6.0941637E-001	1.1607776E+001	1.9515039E+002	9.5004425E+002	9.6988025E+002	-7.8392227E+001	0.0000000E+000	0.0000000E+000	0.0000000E+000	7.8392227E+001	0.0000000E+000	0.0000000E+000	0.0000000E+000	-7.8392227E+001	0.0000000E+000	0.0000000E+000	0.0000000E+000	-1.1607776E+001	0.0000000E+000	0.0000000E+000	0.0000000E+000	1.1607776E+001	4.8682656E+000	7.8392227E+001	-1.152729836168389E-005	-1.3097526E-005	6.0199619E+003
6.8132047E+004	1.6942666E+000	3.6245200E-001	1.7326022E+000	-1.2075191E+001	2.804494159849128E+000	2.8079921E-001	-4.4611514E-002	6.4449301E+000	2.8204697E-001	1.000000000000000E+000	9	5.0597559E-003	2.9203217E-003	0	-1.286913190016316E-005	5.6439608E-001	1.2074044E-001	5.7716650E-001	1.2075191E+001	2.8204694E+002	1.3184167E+003	1.3482482E+003	-7.7924812E+001	0.0000000E+000	0.0000000E+000	0.0000000E+000	7.7924812E+001	0.0000000E+000	0.0000000E+000	0.0000000E+000	-7.7924812E+001	0.0000000E+000	0.0000000E+000	0.0000000E+000	-1.2075191E+001	0.0000000E+000	0.0000000E+000	0.0000000E+000	1.2075191E+001	4.6744576E+000	7.7924812E+001	-1.341833538479275E-006	-1.2526878E-005	6.2943213E+003
4.6420355E+004	1.7816041E+000	3.9803344E-001	1.8255255E+000	-1.2593805E+001	3.382485520647606E+000	2.8080490E-001	-4.0191792E-002	8.6137476E+000	4.0950143E-001	1.000000000000000E+000	9	5.0501754E-003	2.7664227E-003	0	-1.235861743496045E-005	5.3460789E-001	1.1943834E-001	5.4778749E-001	1.2593805E+001	4.0950137E+002	1.8329349E+003	1.8781219E+003	-7.7406197E+001	0.0000000E+000	0.0000000E+000	0.0000000E+000	7.7406197E+001	0.0000000E+000	0.0000000E+000	0.0000000E+000	-7.7406197E+001	0.0000000E+000	0.0000000E+000	0.0000000E+000	-1.2593805E+001	0.0000000E+000	0.0000000E+000	0.0000000E+000	1.2593805E+001	4.4760160E+000	7.7406197E+001	5.105144652027067E-007	-1.1286053E-005	6.9866230E+003
3.1621139E+004	1.8738366E+000	4.4856760E-001	1.9267788E+000	-1.3462388E+001	3.960482801398030E+000	2.8079593E-001	-4.8863422E-002	1.1220565E+001	6.0814458E-001	1.000000000000000E+000	9	4.9916711E-003	2.5906819E-003	0	-1.503644710261142E-005	5.0474036E-001	1.2082706E-001	5.1900095E-001	1.3462388E+001	6.0814447E+002	2.5404500E+003	2.6122261E+003	-7.6537613E+001	0.0000000E+000	0.0000000E+000	0.0000000E+000	7.6537613E+001	0.0000000E+000	0.0000000E+000	0.0000000E+000	-7.6537613E+001	0.0000000E+000	0.0000000E+000	0.0000000E+000	-1.3462388E+001	0.0000000E+000	0.0000000E+000	0.0000000E+000	1.3462388E+001	4.1773787E+000	7.6537613E+001	-2.677829667650965E-006	-1.3720650E-005	5.7465464E+003
2.1544684E+004	1.9795533E+000	5.0229424E-001	2.0422857E+000	-1.4237811E+001	4.397486235509859E+000	2.8080493E-001	-4.2485584E-002	1.4706923E+001	8.8962144E-001	1.000000000000000E+000	9	5.1980065E-003	2.5451907E-003	0	-2.417096796968124E-005	4.7460708E-001	1.2042737E-001	4.8964745E-001	1.4237811E+001	8.8962122E+002	3.5060188E+003	3.6171250E+003	-7.5762192E+001	0.0000000E+000	0.0000000E+000	0.0000000E+000	7.5762192E+001	0.0000000E+000	0.0000000E+000	0.0000000E+000	-7.5762192E+001	0.0000000E+000	0.0000000E+000	0.0000000E+000	-1.4237811E+001	0.0000000E+000	0.0000000E+000	0.0000000E+000	1.4237811E+001	3.9410233E+000	7.5762192E+001	-9.134520867069822E-006	-1.1930161E-005	6.6094170E+003
1.4678594E+004	2.1089900E+000	5.5993921E-001	2.1820564E+000	-1.4869052E+001	4.693483769573504E+000	2.8080404E-001	-4.5450717E-002	1.9363987E+001	1.2751009E+000	1.000000000000000E+000	9	4.8377481E-003	2.2170590E-003	0	-2.943776701639096E-005	4.4293761E-001	1.1760043E-001	4.5828331E-001	1.4869052E+001	1.2751007E+003	4.8026196E+003	4.9690078E+003	-7.5130951E+001	0.0000000E+000	0.0000000E+000	0.0000000E+000	7.5130951E+001	0.0000000E+000	0.0000000E+000	0.0000000E+000	-7.5130951E+001	0.0000000E+000	0.0000000E+000	0.0000000E+000	-1.4869052E+001	0.0000000E+000	0.0000000E+000	0.0000000E+000	1.4869052E+001	3.7664623E+000	7.5130951E+001	-5.266799046709719E-006	-1.2762745E-005	6.1782090E+003
1.0002226E+004	2.2268071E+000	6.3709760E-001	2.3161526E+000	-1.5966018E+001	4.989497143629706E+000	2.8079605E-001	-4.2783976E-002	2.4975691E+001	1.8897098E+000	1.000000000000000E+000	9	4.5064487E-003	1.9456614E-003	0	-3.369352038715604E-005	4.1509572E-001	1.1876038E-001	4.3175048E-001	1.5966018E+001	1.8897097E+003	6.6049834E+003	6.8699932E+003	-7.4033981E+001	0.0000000E+000	0.0000000E+000	0.0000000E+000	7.4033981E+001	0.0000000E+000	0.0000000E+000	0.0000000E+000	-7.4033981E+001	0.0000000E+000	0.0000000E+000	0.0000000E+000	-1.5966018E+001	0.0000000E+000	0.0000000E+000	0.0000000E+000	1.5966018E+001	3.4952371E+000	7.4033981E+001	-4.255753370765080E-006	-1.2013571E-005	6.5631128E+003
6.8110674E+003	2.3658705E+000	7.2835857E-001	2.4754493E+000	-1.7111544E+001	5.544506636651931E+000	2.8064907E-001	-8.5246943E-002	3.2081871E+001	2.7774234E+000	1.000000000000000E+000	9	4.8639686E-003	1.9648832E-003	0	-4.886736008098038E-005	3.8608494E-001	1.1886039E-001	4.0396705E-001	1.7111544E+001	2.7774233E+003	9.0216895E+003	9.4395420E+003	-7.2888458E+001	0.0000000E+000	0.0000000E+000	0.0000000E+000	7.2888458E+001	0.0000000E+000	0.0000000E+000	0.0000000E+000	-7.2888458E+001	0.0000000E+000	0.0000000E+000	0.0000000E+000	-1.7111544E+001	0.0000000E+000	0.0000000E+000	0.0000000E+000	1.7111544E+001	3.2482221E+000	7.2888458E+001	-1.517383969382435E-005	-2.3924475E-005	3.2921892E+003
4.6414854E+003	2.5324414E+000	8.2583702E-001	2.6636941E+000	-1.8061308E+001	6.015684792422690E+000	2.8085533E-001	3.0171033E-003	4.1521095E+001	3.9910648E+000	1.000000000000000E+000	9	4.7660246E-003	1.7892537E-003	0	-4.758707965391093E-005	3.5691985E-001	1.1639267E-001	3.7541848E-001	1.8061308E+001	3.9910652E+003	1.2238659E+004	1.2872971E+004	-7.1938690E+001	0.0000000E+000	0.0000000E+000	0.0000000E+000	7.1938690E+001	0.0000000E+000	0.0000000E+000	0.0000000E+000	-7.1938690E+001	0.0000000E+000	0.0000000E+000	0.0000000E+000	-1.8061308E+001	0.0000000E+000	0.0000000E+000	0.0000000E+000	1.8061308E+001	3.0665147E+000	7.1938690E+001	1.280280427069452E-006	8.4736956E-007	9.3087742E+004
3.1610117E+003	2.7224305E+000	9.4621712E-001	2.8821788E+000	-1.9165579E+001	6.482688547934231E+000	2.8084999E-001	3.3314896E-005	5.3211220E+001	5.7351265E+000	1.000000000000000E+000	9	4.7075255E-003	1.6333219E-003	0	-4.801535232103844E-005	3.2772908E-001	1.1390662E-001	3.4695974E-001	1.9165579E+001	5.7351265E+003	1.6500951E+004	1.7469203E+004	-7.0834419E+001	0.0000000E+000	0.0000000E+000	0.0000000E+000	7.0834419E+001	0.0000000E+000	0.0000000E+000	0.0000000E+000	-7.0834419E+001	0.0000000E+000	0.0000000E+000	0.0000000E+000	-1.9165579E+001	0.0000000E+000	0.0000000E+000	0.0000000E+000	1.9165579E+001	2.8771732E+000	7.0834419E+001	-4.282726671275071E-007	9.3564880E-009	8.4301630E+006
2.1556899E+003	2.9450457E+000	1.0815291E+000	3.1373556E+000	-2.0165092E+001	6.949693796785141E+000	2.8084296E-001	1.0403366E-003	6.8264610E+001	8.1123104E+000	1.000000000000000E+000	9	4.6744808E-003	1.4899429E-003	0	-4.860729426858274E-005	2.9920205E-001	1.0987800E-001	3.1873977E-001	2.0165092E+001	8.1123115E+003	2.2090139E+004	2.3532611E+004	-6.9834908E+001	0.0000000E+000	0.0000000E+000	0.0000000E+000	6.9834908E+001	0.0000000E+000	0.0000000E+000	0.0000000E+000	-6.9834908E+001	0.0000000E+000	0.0000000E+000	0.0000000E+000	-2.0165092E+001	0.0000000E+000	0.0000000E+000	0.0000000E+000	2.0165092E+001	2.7230387E+000	6.9834908E+001	-5.919419475442983E-007	2.9217119E-007	2.6995394E+005
1.4685898E+003	3.2243578E+000	1.2375089E+000	3.4536810E+000	-2.0996807E+001	7.670959697687067E+000	2.8081220E-001	-1.6215440E-002	8.7573212E+001	1.1243551E+001	1.000000000000000E+000	10	4.7647813E-003	1.3796240E-003	0	-5.076315879042118E-005	2.7032039E-001	1.0374899E-001	2.8954613E-001	2.0996807E+001	1.1243554E+004	2.9295332E+004	3.1378877E+004	-6.9003189E+001	0.0000000E+000	0.0000000E+000	0.0000000E+000	6.9003189E+001	0.0000000E+000	0.0000000E+000	0.0000000E+000	-6.9003189E+001	0.0000000E+000	0.0000000E+000	0.0000000E+000	-2.0996807E+001	0.0000000E+000	0.0000000E+000	0.0000000E+000	2.0996807E+001	2.6055229E+000	6.9003189E+001	-2.155864521838444E-006	-4.5534935E-006	1.7317582E+004
1.0003202E+003	3.5202749E+000	1.4057528E+000	3.7905772E+000	-2.1768328E+001	8.139707426635141E+000	2.8080034E-001	-1.7047271E-002	1.1318063E+002	1.5566083E+001	1.000000000000000E+000	10	4.7153793E-003	1.2439740E-003	0	-5.386654075982773E-005	2.4499989E-001	9.7835898E-002	2.6381207E-001	2.1768328E+001	1.5566081E+004	3.8980461E+004	4.1973555E+004	-6.8231674E+001	0.0000000E+000	0.0000000E+000	0.0000000E+000	6.8231674E+001	0.0000000E+000	0.0000000E+000	0.0000000E+000	-6.8231674E+001	0.0000000E+000	0.0000000E+000	0.0000000E+000	-2.1768328E+001	0.0000000E+000	0.0000000E+000	0.0000000E+000	2.1768328E+001	2.5041921E+000	6.8231674E+001	-3.103381969406551E-006	-4.7868798E-006	1.6471865E+004
6.8108978E+002	3.8653862E+000	1.5938151E+000	4.1810832E+000	-2.2407829E+001	8.605413688725093E+000	2.8080565E-001	-1.6885007E-002	1.4661482E+002	2.1304733E+001	1.000000000000000E+000	10	4.6869037E-003	1.1209784E-003	0	-5.649671678545807E-005	2.2111350E-001	9.1171756E-002	2.3917247E-001	2.2407829E+001	2.1304730E+004	5.1669109E+004	5.5889074E+004	-6.7592171E+001	0.0000000E+000	0.0000000E+000	0.0000000E+000	6.7592171E+001	0.0000000E+000	0.0000000E+000	0.0000000E+000	-6.7592171E+001	0.0000000E+000	0.0000000E+000	0.0000000E+000	-2.2407829E+001	0.0000000E+000	0.0000000E+000	0.0000000E+000	2.2407829E+001	2.4252412E+000	6.7592171E+001	-2.630176025630338E-006	-4.7414051E-006	1.6630473E+004
4.6396069E+002	4.2518010E+000	1.7970016E+000	4.6159534E+000	-2.2911098E+001	9.074214457621565E+000	2.8079858E-001	-1.6728342E-002	1.9089320E+002	2.8931074E+001	1.000000000000000E+000	10	4.6613798E-003	1.0098412E-003	0	-5.844709249283187E-005	1.9954924E-001	8.4338456E-002	2.1663997E-001	2.2911098E+001	2.8931080E+004	6.8452453E+004	7.4315180E+004	-6.7088898E+001	0.0000000E+000	0.0000000E+000	0.0000000E+000	6.7088898E+001	0.0000000E+000	0.0000000E+000	0.0000000E+000	-6.7088898E+001	0.0000000E+000	0.0000000E+000	0.0000000E+000	-2.2911098E+001	0.0000000E+000	0.0000000E+000	0.0000000E+000	2.2911098E+001	2.3660531E+000	6.7088898E+001	-1.950375707373802E-006	-4.6972946E-006	1.6785799E+004
3.1631589E+002	4.6874928E+000	2.0325356E+000	5.1091866E+000	-2.3441954E+001	9.540920746512711E+000	2.8080362E-001	-1.6791753E-002	2.4754889E+002	3.9177231E+001	1.000000000000000E+000	10	4.6461229E-003	9.0936641E-004	0	-6.107379284072279E-005	1.7957136E-001	7.7863626E-002	1.9572587E-001	2.3441954E+001	3.9177230E+004	9.0351664E+004	9.8479836E+004	-6.6558044E+001	0.0000000E+000	0.0000000E+000	0.0000000E+000	6.6558044E+001	0.0000000E+000	0.0000000E+000	0.0000000E+000	-6.6558044E+001	0.0000000E+000	0.0000000E+000	0.0000000E+000	-2.3441954E+001	0.0000000E+000	0.0000000E+000	0.0000000E+000	2.3441954E+001	2.3062291E+000	6.6558044E+001	-2.626700347890919E-006	-4.7151852E-006	1.6722709E+004
2.1534457E+002	5.2094741E+000	2.3006868E+000	5.6948905E+000	-2.3827938E+001	1.000841002204106E+001	2.8079939E-001	-1.7021174E-002	3.2123932E+002	5.2429169E+001	1.000000000000000E+000	10	4.6415590E-003	8.1503921E-004	0	-6.382465968281920E-005	1.6062869E-001	7.0939273E-002	1.7559600E-001	2.3827938E+001	5.2429172E+004	1.1871601E+005	1.2977792E+005	-6.6172058E+001	0.0000000E+000	0.0000000E+000	0.0000000E+000	6.6172058E+001	0.0000000E+000	0.0000000E+000	0.0000000E+000	-6.6172058E+001	0.0000000E+000	0.0000000E+000	0.0000000E+000	-2.3827938E+001	0.0000000E+000	0.0000000E+000	0.0000000E+000	2.3827938E+001	2.2643125E+000	6.6172058E+001	-2.750866842096407E-006	-4.7795352E-006	1.6497064E+004
1.4673740E+002	5.8116846E+000	2.5675774E+000	6.3535919E+000	-2.3835636E+001	1.047138711067964E+001	2.8080422E-001	-1.8004082E-002	4.2243097E+002	6.8986519E+001	1.000000000000000E+000	10	4.6319538E-003	7.2902918E-004	0	-6.556705979004296E-005	1.4396714E-001	6.3604064E-002	1.5739128E-001	2.3835636E+001	6.8986508E+004	1.5615027E+005	1.7071041E+005	-6.6164368E+001	0.0000000E+000	0.0000000E+000	0.0000000E+000	6.6164368E+001	0.0000000E+000	0.0000000E+000	0.0000000E+000	-6.6164368E+001	0.0000000E+000	0.0000000E+000	0.0000000E+000	-2.3835636E+001	0.0000000E+000	0.0000000E+000	0.0000000E+000	2.3835636E+001	2.2634895E+000	6.6164368E+001	-1.742400107223758E-006	-5.0556223E-006	1.5596697E+004
1.0003201E+002	6.5303707E+000	2.8111088E+000	7.1097169E+000	-2.3290281E+001	1.093866801291733E+001	2.8079903E-001	-1.6858915E-002	5.6598309E+002	8.8481850E+001	1.000000000000000E+000	10	4.6307375E-003	6.5132516E-004	0	-6.705040350373019E-005	1.2919129E-001	5.5612583E-002	1.4065258E-001	2.3290281E+001	8.8481844E+004	2.0554850E+005	2.2378388E+005	-6.6709717E+001	0.0000000E+000	0.0000000E+000	0.0000000E+000	6.6709717E+001	0.0000000E+000	0.0000000E+000	0.0000000E+000	-6.6709717E+001	0.0000000E+000	0.0000000E+000	0.0000000E+000	-2.3290281E+001	0.0000000E+000	0.0000000E+000	0.0000000E+000	2.3290281E+001	2.3230586E+000	6.6709717E+001	-1.483343713687231E-006	-4.7339668E-006	1.6655818E+004
6.8103981E+001	7.3506470E+000	2.9885855E+000	7.9349642E+000	-2.2125404E+001	1.141730960892164E+001	2.8080171E-001	-1.4175058E-002	7.8195532E+002	1.1092345E+002	1.000000000000000E+000	10	4.6217651E-003	5.8245572E-004	0	-6.839574097590715E-005	1.1674429E-001	4.7465246E-002	1.2602451E-001	2.2125404E+001	1.1092345E+005	2.7282444E+005	2.9451178E+005	-6.7874596E+001	0.0000000E+000	0.0000000E+000	0.0000000E+000	6.7874596E+001	0.0000000E+000	0.0000000E+000	0.0000000E+000	-6.7874596E+001	0.0000000E+000	0.0000000E+000	0.0000000E+000	-2.2125404E+001	0.0000000E+000	0.0000000E+000	0.0000000E+000	2.2125404E+001	2.4595740E+000	6.7874596E+001	-1.345337472176961E-006	-3.9803808E-006	1.9809563E+004
4.6441547E+001	8.2570305E+000	3.0662768E+000	8.8079853E+000	-2.0372652E+001	1.187253717720159E+001	2.8078875E-001	-2.0025840E-002	1.1176404E+003	1.3544771E+002	1.000000000000000E+000	10	4.6258923E-003	5.2519300E-004	0	-7.032772456245988E-005	1.0643163E-001	3.9523751E-002	1.1353334E-001	2.0372652E+001	1.3544769E+005	3.6474069E+005	3.8907819E+005	-6.9627350E+001	0.0000000E+000	0.0000000E+000	0.0000000E+000	6.9627350E+001	0.0000000E+000	0.0000000E+000	0.0000000E+000	-6.9627350E+001	0.0000000E+000	0.0000000E+000	0.0000000E+000	-2.0372652E+001	0.0000000E+000	0.0000000E+000	0.0000000E+000	2.0372652E+001	2.6928523E+000	6.9627350E+001	-1.931983586552733E-006	-5.6230306E-006	1.4021322E+004
3.1629555E+001	9.1397886E+000	2.9706147E+000	9.6104259E+000	-1.8005201E+001	1.231942853177316E+001	2.8078994E-001	-2.1956207E-002	1.6938724E+003	1.6184082E+002	1.000000000000000E+000	10	4.6259756E-003	4.8134968E-004	0	-7.310275147793719E-005	9.8957993E-002	3.2163333E-002	1.0405366E-001	1.8005201E+001	1.6184084E+005	4.9794103E+005	5.2358163E+005	-7.1994797E+001	0.0000000E+000	0.0000000E+000	0.0000000E+000	7.1994797E+001	0.0000000E+000	0.0000000E+000	0.0000000E+000	-7.1994797E+001	0.0000000E+000	0.0000000E+000	0.0000000E+000	-1.8005201E+001	0.0000000E+000	0.0000000E+000	0.0000000E+000	1.8005201E+001	3.0767331E+000	7.1994797E+001	-2.775026915477306E-006	-6.1650821E-006	1.2788636E+004
2.1551722E+001	9.9438086E+000	2.7673466E+000	1.0321702E+001	-1.5551803E+001	1.275835209930665E+001	2.8077716E-001	-2.4431180E-002	2.6685454E+003	1.9182228E+002	1.000000000000000E+000	10	4.6282373E-003	4.4839867E-004	0	-7.502375203047834E-005	9.3336195E-002	2.5975319E-002	9.6883245E-002	1.5551803E+001	1.9182230E+005	6.8926825E+005	7.1546244E+005	-7.4448196E+001	0.0000000E+000	0.0000000E+000	0.0000000E+000	7.4448196E+001	0.0000000E+000	0.0000000E+000	0.0000000E+000	-7.4448196E+001	0.0000000E+000	0.0000000E+000	0.0000000E+000	-1.5551803E+001	0.0000000E+000	0.0000000E+000	0.0000000E+000	1.5551803E+001	3.5932646E+000	7.4448196E+001	-1.921000552541151E-006	-6.8597174E-006	1.1492574E+004
1.4685154E+001	1.0649973E+001	2.4964957E+000	1.0938666E+001	-1.3192693E+001	1.323603980202461E+001	2.8080744E-001	-1.4395142E-002	4.3412100E+003	2.2612245E+002	1.000000000000000E+000	10	4.6229898E-003	4.2262828E-004	0	-7.618944935837417E-005	8.9006104E-002	2.0864217E-002	9.1418825E-002	1.3192693E+001	2.2612252E+005	9.6463138E+005	9.9078006E+005	-7.6807304E+001	0.0000000E+000	0.0000000E+000	0.0000000E+000	7.6807304E+001	0.0000000E+000	0.0000000E+000	0.0000000E+000	-7.6807304E+001	0.0000000E+000	0.0000000E+000	0.0000000E+000	-1.3192693E+001	0.0000000E+000	0.0000000E+000	0.0000000E+000	1.3192693E+001	4.2659688E+000	7.6807304E+001	-1.165697327895832E-006	-4.0422628E-006	1.9507098E+004
