EC-Lab ASCII FILE
Nb header lines : 64                          

Potentio Electrochemical Impedance Spectroscopy

Run on channel : 8 (SN 65398)
User : 
CE vs. WE compliance from -10 V to 10 V
Electrode connection : standard
Potential control : Ewe
Ewe ctrl range : min = -10.00 V, max = 10.00 V
Safety Limits :
	Do not start on E overload
Acquisition started on : 09/12/2025 10:01:20.182
Technique started on : 09/12/2025 10:01:22.206
Loaded Setting File :  C:\Users\Celltest\OneDrive - store-dot.com\Documents\EC-Lab\Data\Charmaine\R279\17383_C02.mpr
Saved on :
	File : 17467_C08.mpr
	Directory : C:\Users\Celltest\OneDrive - store-dot.com\Documents\EC-Lab\Data\Gyutae\R277\
	Host : 169.254.61.224
Device : VMP-3e (SN .003165)
Address : USB
EC-LAB for windows v11.62 (software)
Internet server v27.00 (firmware)
Command interpretor v12.03 (firmware)
Electrode material : 
Initial state : 
Electrolyte : 
Comments : 
Electrode surface area : 0.001 cm²
Characteristic mass : 0.001 g
Equivalent Weight : 0.000 g/eq.
Density : 0.000 g/cm3
Volume (V) : 0.001 cm³
Cycle Definition : Charge/Discharge alternance
Mode                Single sine         
E (V)               0.0000              
vs.                 Eoc                 
tE (h:m:s)          0:00:0.0000         
record              0                   
dI                  0.000               
unit dI             mA                  
dt (s)              0.000               
fi                  100.000             
unit fi             kHz                 
ff                  10.000              
unit ff             mHz                 
Nd                  6                   
Points              per decade          
spacing             Logarithmic         
Va (mV)             5.0                 
pw                  0.10                
Na                  2                   
corr                0                   
E range min (V)     -10.000             
E range max (V)     10.000              
I Range             Auto                
Bandwidth           5                   
nc cycles           0                   
goto Ns'            0                   
nr cycles           0                   
inc. cycle          0                   

freq/Hz	Re(Z)/Ohm	-Im(Z)/Ohm	|Z|/Ohm	Phase(Z)/deg	time/s	<Ewe>/V	<I>/mA	Cs/µF	Cp/µF	cycle number	I Range	|Ewe|/V	|I|/A	Ns	(Q-Qo)/mA.h	Re(Y)/Ohm-1	Im(Y)/Ohm-1	|Y|/Ohm-1	Phase(Y)/deg	Re(C)/nF	Im(C)/nF	|C|/nF	Phase(C)/deg	Re(M)	Im(M)	|M|	Phase(M)/deg	Re(Permittivity)	Im(Permittivity)	|Permittivity|	Phase(Permittivity)/deg	Re(Resistivity)/Ohm.cm	Im(Resistivity)/Ohm.cm	|Resistivity|/Ohm.cm	Phase(Resistivity)/deg	Re(Conductivity)/mS/cm	Im(Conductivity)/mS/cm	|Conductivity|/mS/cm	Phase(Conductivity)/deg	Tan(Delta)	Loss Angle(Delta)/deg	dq/mA.h	Pwe/W	Rwe/Ohm	
1.0000371E+005	1.8246253E+000	3.4105402E-001	1.8562261E+000	-1.0587399E+001	2.024497402802808E+000	2.7684361E-001	6.6058096E-003	4.6663880E+000	1.5753078E-001	1.000000000000000E+000	9	4.9156379E-003	2.6481892E-003	0	-5.432350719981413E-006	5.2955604E-001	9.8983184E-002	5.3872746E-001	1.0587399E+001	1.5753084E+002	8.4278339E+002	8.5737964E+002	-7.9412598E+001	0.0000000E+000	0.0000000E+000	0.0000000E+000	7.9412598E+001	0.0000000E+000	0.0000000E+000	0.0000000E+000	-7.9412598E+001	0.0000000E+000	0.0000000E+000	0.0000000E+000	-1.0587399E+001	0.0000000E+000	0.0000000E+000	0.0000000E+000	1.0587399E+001	5.3499599E+000	7.9412598E+001	-5.432350719981413E-006	1.8287761E-006	4.1909109E+004
6.8132047E+004	1.9105352E+000	3.8656577E-001	1.9492506E+000	-1.1438446E+001	2.461500410194276E+000	2.7685109E-001	8.8007450E-003	6.0428982E+000	2.3766036E-001	1.000000000000000E+000	9	5.3931191E-003	2.7667654E-003	0	-2.811336899033954E-006	5.0282824E-001	1.0173913E-001	5.1301765E-001	1.1438446E+001	2.3766034E+002	1.1745956E+003	1.1983978E+003	-7.8561554E+001	0.0000000E+000	0.0000000E+000	0.0000000E+000	7.8561554E+001	0.0000000E+000	0.0000000E+000	0.0000000E+000	-7.8561554E+001	0.0000000E+000	0.0000000E+000	0.0000000E+000	-1.1438446E+001	0.0000000E+000	0.0000000E+000	0.0000000E+000	1.1438446E+001	4.9423289E+000	7.8561554E+001	2.621013820947458E-006	2.4364958E-006	3.1457688E+004
4.6420355E+004	1.9979846E+000	4.4313824E-001	2.0465372E+000	-1.2505349E+001	2.898499204282416E+000	2.7685007E-001	7.7404743E-003	7.7369971E+000	3.6275354E-001	1.000000000000000E+000	9	5.2915686E-003	2.5856206E-003	0	2.746205896093872E-006	4.7703791E-001	1.0580348E-001	4.8863026E-001	1.2505349E+001	3.6275351E+002	1.6355529E+003	1.6752980E+003	-7.7494652E+001	0.0000000E+000	0.0000000E+000	0.0000000E+000	7.7494652E+001	0.0000000E+000	0.0000000E+000	0.0000000E+000	-7.7494652E+001	0.0000000E+000	0.0000000E+000	0.0000000E+000	-1.2505349E+001	0.0000000E+000	0.0000000E+000	0.0000000E+000	1.2505349E+001	4.5087166E+000	7.7494652E+001	5.557542795127827E-006	2.1429510E-006	3.5766551E+004
3.1621139E+004	2.1022208E+000	5.0481969E-001	2.1619840E+000	-1.3503121E+001	3.336479918420082E+000	2.7685428E-001	1.0605032E-002	9.9702568E+000	5.4359317E-001	1.000000000000000E+000	9	4.9668397E-003	2.2973528E-003	0	2.620934492235796E-006	4.4975227E-001	1.0800188E-001	4.6253812E-001	1.3503121E+001	5.4359308E+002	2.2636851E+003	2.3280386E+003	-7.6496880E+001	0.0000000E+000	0.0000000E+000	0.0000000E+000	7.6496880E+001	0.0000000E+000	0.0000000E+000	0.0000000E+000	-7.6496880E+001	0.0000000E+000	0.0000000E+000	0.0000000E+000	-1.3503121E+001	0.0000000E+000	0.0000000E+000	0.0000000E+000	1.3503121E+001	4.1643004E+000	7.6496880E+001	-1.252714038580762E-007	2.9360483E-006	2.6105936E+004
2.1544684E+004	2.2290285E+000	5.7245314E-001	2.3013628E+000	-1.4403277E+001	3.773490099207265E+000	2.7685779E-001	1.6538789E-002	1.2904468E+001	7.9845381E-001	1.000000000000000E+000	9	5.1242281E-003	2.2266060E-003	0	5.708615300801789E-006	4.2086756E-001	1.0808609E-001	4.3452516E-001	1.4403277E+001	7.9845367E+002	3.1090339E+003	3.2099253E+003	-7.5596725E+001	0.0000000E+000	0.0000000E+000	0.0000000E+000	7.5596725E+001	0.0000000E+000	0.0000000E+000	0.0000000E+000	-7.5596725E+001	0.0000000E+000	0.0000000E+000	0.0000000E+000	-1.4403277E+001	0.0000000E+000	0.0000000E+000	0.0000000E+000	1.4403277E+001	3.8938181E+000	7.5596725E+001	3.087680808565993E-006	4.5788929E-006	1.6739906E+004
1.4678594E+004	2.3580461E+000	6.5149802E-001	2.4463913E+000	-1.5444796E+001	4.351477619988145E+000	2.7685228E-001	1.3153389E-002	1.6642653E+001	1.1803122E+000	1.000000000000000E+000	9	5.5334894E-003	2.2618987E-003	0	1.063592482732040E-005	3.9400381E-001	1.0885821E-001	4.0876535E-001	1.5444796E+001	1.1803120E+003	4.2720479E+003	4.4321021E+003	-7.4555206E+001	0.0000000E+000	0.0000000E+000	0.0000000E+000	7.4555206E+001	0.0000000E+000	0.0000000E+000	0.0000000E+000	-7.4555206E+001	0.0000000E+000	0.0000000E+000	0.0000000E+000	-1.5444796E+001	0.0000000E+000	0.0000000E+000	0.0000000E+000	1.5444796E+001	3.6194217E+000	7.4555206E+001	4.927309526518609E-006	3.6415458E-006	2.1047980E+004
1.0002226E+004	2.4989929E+000	7.3486155E-001	2.6048007E+000	-1.6386663E+001	4.788493240746902E+000	2.7685446E-001	6.1221607E-003	2.1652994E+001	1.7233759E+000	1.000000000000000E+000	9	5.3731012E-003	2.0627687E-003	0	1.287284476743338E-005	3.6831212E-001	1.0830700E-001	3.8390654E-001	1.6386663E+001	1.7233762E+003	5.8605654E+003	6.1087031E+003	-7.3613335E+001	0.0000000E+000	0.0000000E+000	0.0000000E+000	7.3613335E+001	0.0000000E+000	0.0000000E+000	0.0000000E+000	-7.3613335E+001	0.0000000E+000	0.0000000E+000	0.0000000E+000	-1.6386663E+001	0.0000000E+000	0.0000000E+000	0.0000000E+000	1.6386663E+001	3.4006310E+000	7.3613335E+001	2.236919940112985E-006	1.6949475E-006	4.5221691E+004
6.8110674E+003	2.6709054E+000	8.4112793E-001	2.8002200E+000	-1.7480381E+001	5.344511453848099E+000	2.7684247E-001	-5.8941683E-003	2.7780682E+001	2.5065866E+000	1.000000000000000E+000	9	5.1475749E-003	1.8382751E-003	0	7.471333231233681E-006	3.4062317E-001	1.0726986E-001	3.5711479E-001	1.7480381E+001	2.5065859E+003	7.9593789E+003	8.3447402E+003	-7.2519623E+001	0.0000000E+000	0.0000000E+000	0.0000000E+000	7.2519623E+001	0.0000000E+000	0.0000000E+000	0.0000000E+000	-7.2519623E+001	0.0000000E+000	0.0000000E+000	0.0000000E+000	-1.7480381E+001	0.0000000E+000	0.0000000E+000	0.0000000E+000	1.7480381E+001	3.1753855E+000	7.2519623E+001	-5.401511536199703E-006	-1.6317562E-006	4.6968879E+004
4.6414854E+003	2.8634486E+000	9.5710039E-001	3.0191686E+000	-1.8482073E+001	5.815686009584169E+000	2.7688187E-001	1.9700965E-002	3.5826603E+001	3.6003599E+000	1.000000000000000E+000	9	5.3346548E-003	1.7669285E-003	0	1.127042161346374E-005	3.1413379E-001	1.0499842E-001	3.3121702E-001	1.8482073E+001	3.6003591E+003	1.0771540E+004	1.1357317E+004	-7.1517929E+001	0.0000000E+000	0.0000000E+000	0.0000000E+000	7.1517929E+001	0.0000000E+000	0.0000000E+000	0.0000000E+000	-7.1517929E+001	0.0000000E+000	0.0000000E+000	0.0000000E+000	-1.8482073E+001	0.0000000E+000	0.0000000E+000	0.0000000E+000	1.8482073E+001	2.9917955E+000	7.1517929E+001	3.799088382230064E-006	5.4548400E-006	1.4054229E+004
3.1610117E+003	3.0957580E+000	1.0992720E+000	3.2851357E+000	-1.9549429E+001	6.282693925102649E+000	2.7687791E-001	2.3811810E-002	4.5802464E+001	5.1285257E+000	1.000000000000000E+000	9	5.3273803E-003	1.6216622E-003	0	1.351554802270322E-005	2.8685364E-001	1.0185879E-001	3.0440143E-001	1.9549429E+001	5.1285259E+003	1.4442899E+004	1.5326419E+004	-7.0450569E+001	0.0000000E+000	0.0000000E+000	0.0000000E+000	7.0450569E+001	0.0000000E+000	0.0000000E+000	0.0000000E+000	-7.0450569E+001	0.0000000E+000	0.0000000E+000	0.0000000E+000	-1.9549429E+001	0.0000000E+000	0.0000000E+000	0.0000000E+000	1.9549429E+001	2.8161893E+000	7.0450569E+001	2.245126409239472E-006	6.5929639E-006	1.1627756E+004
2.1556899E+003	3.3440423E+000	1.2679061E+000	3.5763395E+000	-2.0764410E+001	6.749683600617573E+000	2.7687630E-001	2.2416724E-002	5.8229992E+001	7.3188601E+000	1.000000000000000E+000	9	5.2735810E-003	1.4745750E-003	0	1.639628987892583E-005	2.6145339E-001	9.9131033E-002	2.7961552E-001	2.0764410E+001	7.3188613E+003	1.9303148E+004	2.0644061E+004	-6.9235588E+001	0.0000000E+000	0.0000000E+000	0.0000000E+000	6.9235588E+001	0.0000000E+000	0.0000000E+000	0.0000000E+000	-6.9235588E+001	0.0000000E+000	0.0000000E+000	0.0000000E+000	-2.0764410E+001	0.0000000E+000	0.0000000E+000	0.0000000E+000	2.0764410E+001	2.6374526E+000	6.9235588E+001	2.880741856222609E-006	6.2066597E-006	1.2351327E+004
1.4685898E+003	3.6473715E+000	1.4419360E+000	3.9220529E+000	-2.1570654E+001	7.470957048179116E+000	2.7687988E-001	-1.6393617E-002	7.5157722E+001	1.0158714E+001	1.000000000000000E+000	10	5.3174351E-003	1.3557785E-003	0	1.620596495910367E-005	2.3711178E-001	9.3738742E-002	2.5496852E-001	2.1570654E+001	1.0158714E+004	2.5696426E+004	2.7631607E+004	-6.8429344E+001	0.0000000E+000	0.0000000E+000	0.0000000E+000	6.8429344E+001	0.0000000E+000	0.0000000E+000	0.0000000E+000	-6.8429344E+001	0.0000000E+000	0.0000000E+000	0.0000000E+000	-2.1570654E+001	0.0000000E+000	0.0000000E+000	0.0000000E+000	2.1570654E+001	2.5294962E+000	6.8429344E+001	-1.903249198221606E-007	-4.5390625E-006	1.6889492E+004
1.0003202E+003	3.9771264E+000	1.6547533E+000	4.3076377E+000	-2.2590612E+001	7.939699363807449E+000	2.7687970E-001	-1.6780494E-002	9.6149681E+001	1.4188484E+001	1.000000000000000E+000	10	5.2499864E-003	1.2187624E-003	0	1.312117874293795E-005	2.1433400E-001	8.9177430E-002	2.3214580E-001	2.2590612E+001	1.4188486E+004	3.4101395E+004	3.6935324E+004	-6.7409386E+001	0.0000000E+000	0.0000000E+000	0.0000000E+000	6.7409386E+001	0.0000000E+000	0.0000000E+000	0.0000000E+000	-6.7409386E+001	0.0000000E+000	0.0000000E+000	0.0000000E+000	-2.2590612E+001	0.0000000E+000	0.0000000E+000	0.0000000E+000	2.2590612E+001	2.4034557E+000	6.7409386E+001	-3.084786216165715E-006	-4.6461782E-006	1.6500092E+004
6.8108978E+002	4.3598757E+000	1.8934749E+000	4.7532897E+000	-2.3475096E+001	8.405433092528256E+000	2.7688220E-001	-1.6756317E-002	1.2341167E+002	1.9583342E+001	1.000000000000000E+000	10	5.2058171E-003	1.0952030E-003	0	1.045900020475124E-005	1.9296810E-001	8.3805203E-002	2.1038061E-001	2.3475096E+001	1.9583342E+004	4.5092188E+004	4.9161090E+004	-6.6524902E+001	0.0000000E+000	0.0000000E+000	0.0000000E+000	6.6524902E+001	0.0000000E+000	0.0000000E+000	0.0000000E+000	-6.6524902E+001	0.0000000E+000	0.0000000E+000	0.0000000E+000	-2.3475096E+001	0.0000000E+000	0.0000000E+000	0.0000000E+000	2.3475096E+001	2.3025789E+000	6.6524902E+001	-2.662178538186708E-006	-4.6395257E-006	1.6524049E+004
4.6396069E+002	4.7894258E+000	2.1787033E+000	5.2616868E+000	-2.4460724E+001	8.874181648163358E+000	2.7687922E-001	-1.6326668E-002	1.5744934E+002	2.6995230E+001	1.000000000000000E+000	10	5.1713325E-003	9.8282786E-004	0	8.615908298641444E-006	1.7299497E-001	7.8695178E-002	1.9005312E-001	2.4460724E+001	2.6995232E+004	5.9343402E+004	6.5194953E+004	-6.5539276E+001	0.0000000E+000	0.0000000E+000	0.0000000E+000	6.5539276E+001	0.0000000E+000	0.0000000E+000	0.0000000E+000	-6.5539276E+001	0.0000000E+000	0.0000000E+000	0.0000000E+000	-2.4460724E+001	0.0000000E+000	0.0000000E+000	0.0000000E+000	2.4460724E+001	2.1982920E+000	6.5539276E+001	-1.843091906109799E-006	-4.5205152E-006	1.6958709E+004
3.1631589E+002	5.2965584E+000	2.5233719E+000	5.8669357E+000	-2.5473936E+001	9.340936177002732E+000	2.7688310E-001	-1.6918140E-002	1.9939665E+002	3.6885674E+001	1.000000000000000E+000	10	5.1524756E-003	8.7822258E-004	0	6.084570409309688E-006	1.5387607E-001	7.3309213E-002	1.7044672E-001	2.5473936E+001	3.6885676E+004	7.7423047E+004	8.5760602E+004	-6.4526062E+001	0.0000000E+000	0.0000000E+000	0.0000000E+000	6.4526062E+001	0.0000000E+000	0.0000000E+000	0.0000000E+000	-6.4526062E+001	0.0000000E+000	0.0000000E+000	0.0000000E+000	-2.5473936E+001	0.0000000E+000	0.0000000E+000	0.0000000E+000	2.5473936E+001	2.0990002E+000	6.4526062E+001	-2.531337889331756E-006	-4.6843470E-006	1.6366049E+004
2.1534457E+002	5.9137797E+000	2.9347160E+000	6.6019201E+000	-2.6392929E+001	9.808434225822566E+000	2.7687740E-001	-1.6730288E-002	2.5183736E+002	4.9763596E+001	1.000000000000000E+000	10	5.1390575E-003	7.7841862E-004	0	3.356127061546128E-006	1.3568273E-001	6.7332625E-002	1.5147108E-001	2.6392929E+001	4.9763594E+004	1.0027919E+005	1.1194789E+005	-6.3607071E+001	0.0000000E+000	0.0000000E+000	0.0000000E+000	6.3607071E+001	0.0000000E+000	0.0000000E+000	0.0000000E+000	-6.3607071E+001	0.0000000E+000	0.0000000E+000	0.0000000E+000	-2.6392929E+001	0.0000000E+000	0.0000000E+000	0.0000000E+000	2.6392929E+001	2.0151114E+000	6.3607071E+001	-2.728443347763560E-006	-4.6322389E-006	1.6549471E+004
1.4673740E+002	6.6638079E+000	3.3825474E+000	7.4731493E+000	-2.6912340E+001	1.027137320782640E+001	2.7686921E-001	-1.6661471E-002	3.2065308E+002	6.5692513E+001	1.000000000000000E+000	10	5.1302901E-003	6.8649638E-004	0	1.641007971264318E-006	1.1932053E-001	6.0567074E-002	1.3381240E-001	2.6912340E+001	6.5692516E+004	1.2941794E+005	1.4513617E+005	-6.3087662E+001	0.0000000E+000	0.0000000E+000	0.0000000E+000	6.3087662E+001	0.0000000E+000	0.0000000E+000	0.0000000E+000	-6.3087662E+001	0.0000000E+000	0.0000000E+000	0.0000000E+000	-2.6912340E+001	0.0000000E+000	0.0000000E+000	0.0000000E+000	2.6912340E+001	1.9700561E+000	6.3087662E+001	-1.715119090281809E-006	-4.6130481E-006	1.6617332E+004
1.0003201E+002	7.5836821E+000	3.8555670E+000	8.5075045E+000	-2.6948921E+001	1.073970541679591E+001	2.7687323E-001	-1.6719131E-002	4.1266046E+002	8.4754936E+001	1.000000000000000E+000	10	5.1235193E-003	6.0223526E-004	0	2.523278669614229E-007	1.0477936E-001	5.3270143E-002	1.1754328E-001	2.6948921E+001	8.4754938E+004	1.6670817E+005	1.8701608E+005	-6.3051079E+001	0.0000000E+000	0.0000000E+000	0.0000000E+000	6.3051079E+001	0.0000000E+000	0.0000000E+000	0.0000000E+000	-6.3051079E+001	0.0000000E+000	0.0000000E+000	0.0000000E+000	-2.6948921E+001	0.0000000E+000	0.0000000E+000	0.0000000E+000	2.6948921E+001	1.9669434E+000	6.3051079E+001	-1.388680104302896E-006	-4.6290797E-006	1.6560266E+004
6.8103981E+001	8.7010574E+000	4.2669287E+000	9.6909790E+000	-2.6122961E+001	1.121831197282881E+001	2.7687556E-001	-1.4980052E-002	5.4768677E+002	1.0617633E+002	1.000000000000000E+000	10	5.1157866E-003	5.2789162E-004	0	-1.241515910594090E-006	9.2648141E-002	4.5433905E-002	1.0318875E-001	2.6122961E+001	1.0617634E+005	2.1651319E+005	2.4114595E+005	-6.3877037E+001	0.0000000E+000	0.0000000E+000	0.0000000E+000	6.3877037E+001	0.0000000E+000	0.0000000E+000	0.0000000E+000	-6.3877037E+001	0.0000000E+000	0.0000000E+000	0.0000000E+000	-2.6122961E+001	0.0000000E+000	0.0000000E+000	0.0000000E+000	2.6122961E+001	2.0391850E+000	6.3877037E+001	-1.493843777555513E-006	-4.1476101E-006	1.8482951E+004
4.6441547E+001	9.9891558E+000	4.5622635E+000	1.0981688E+001	-2.4547205E+001	1.167354092778987E+001	2.7686962E-001	-1.7206451E-002	7.5116113E+002	1.2964494E+002	1.000000000000000E+000	10	5.1206206E-003	4.6628717E-004	0	-3.159495506293347E-006	8.2830548E-002	3.7830502E-002	9.1060676E-002	2.4547205E+001	1.2964493E+005	2.8385988E+005	3.1206447E+005	-6.5452797E+001	0.0000000E+000	0.0000000E+000	0.0000000E+000	6.5452797E+001	0.0000000E+000	0.0000000E+000	0.0000000E+000	-6.5452797E+001	0.0000000E+000	0.0000000E+000	0.0000000E+000	-2.4547205E+001	0.0000000E+000	0.0000000E+000	0.0000000E+000	2.4547205E+001	2.1895175E+000	6.5452797E+001	-1.917979595699257E-006	-4.7639437E-006	1.6091036E+004
3.1629555E+001	1.1349634E+001	4.5934548E+000	1.2243938E+001	-2.2034298E+001	1.211945481560542E+001	2.7687070E-001	-1.9135255E-002	1.0954375E+003	1.5417863E+002	1.000000000000000E+000	10	5.1085548E-003	4.1723135E-004	0	-5.610273926395974E-006	7.5707614E-002	3.0640593E-002	8.1673063E-002	2.2034298E+001	1.5417867E+005	3.8094884E+005	4.1096603E+005	-6.7965698E+001	0.0000000E+000	0.0000000E+000	0.0000000E+000	6.7965698E+001	0.0000000E+000	0.0000000E+000	0.0000000E+000	-6.7965698E+001	0.0000000E+000	0.0000000E+000	0.0000000E+000	-2.2034298E+001	0.0000000E+000	0.0000000E+000	0.0000000E+000	2.2034298E+001	2.4708273E+000	6.7965698E+001	-2.450778420102627E-006	-5.2979917E-006	1.4469141E+004
2.1551722E+001	1.2699593E+001	4.4223242E+000	1.3447550E+001	-1.9199430E+001	1.255834104979294E+001	2.7685845E-001	-2.0959899E-002	1.6698888E+003	1.8059361E+002	1.000000000000000E+000	10	5.1209889E-003	3.8081204E-004	0	-8.059677608369384E-006	7.0226893E-002	2.4454808E-002	7.4362986E-002	1.9199430E+001	1.8059364E+005	5.1861084E+005	5.4915506E+005	-7.0800568E+001	0.0000000E+000	0.0000000E+000	0.0000000E+000	7.0800568E+001	0.0000000E+000	0.0000000E+000	0.0000000E+000	-7.0800568E+001	0.0000000E+000	0.0000000E+000	0.0000000E+000	-1.9199430E+001	0.0000000E+000	0.0000000E+000	0.0000000E+000	1.9199430E+001	2.8717010E+000	7.0800568E+001	-2.449403681973409E-006	-5.8029250E-006	1.3208959E+004
1.4685154E+001	1.3910016E+001	4.1384497E+000	1.4512591E+001	-1.6568573E+001	1.329606380485347E+001	2.7689555E-001	-1.4259230E-002	2.6188096E+003	2.1295575E+002	1.000000000000000E+000	11	5.1172399E-003	3.5260690E-004	0	-7.525697562250975E-006	6.6044658E-002	1.9649329E-002	6.8905681E-002	1.6568573E+001	2.1295573E+005	7.1577956E+005	7.4678681E+005	-7.3431427E+001	0.0000000E+000	0.0000000E+000	0.0000000E+000	7.3431427E+001	0.0000000E+000	0.0000000E+000	0.0000000E+000	-7.3431427E+001	0.0000000E+000	0.0000000E+000	0.0000000E+000	-1.6568573E+001	0.0000000E+000	0.0000000E+000	0.0000000E+000	1.6568573E+001	3.3611660E+000	7.3431427E+001	5.339800461184086E-007	-3.9483175E-006	1.9418689E+004
