EC-Lab ASCII FILE
Nb header lines : 63                          

Potentio Electrochemical Impedance Spectroscopy

Run on channel : 2 (SN 66139)
User : 
CE vs. WE compliance from -10 V to 10 V
Electrode connection : standard
Potential control : Ewe
Ewe ctrl range : min = -10.00 V, max = 10.00 V
Safety Limits :
	Do not start on E overload
Acquisition started on : 09/12/2025 09:48:31.821
Loaded Setting File :  C:\Users\Celltest\OneDrive - store-dot.com\Documents\EC-Lab\Data\Charmaine\R279\17382_C01.mpr
Saved on :
	File : 17460_C02.mpr
	Directory : C:\Users\Celltest\OneDrive - store-dot.com\Documents\EC-Lab\Data\Gyutae\R277\
	Host : 169.254.61.224
Device : VMP-3e (SN .003165)
Address : USB
EC-LAB for windows v11.62 (software)
Internet server v27.00 (firmware)
Command interpretor v12.03 (firmware)
Electrode material : 
Initial state : 
Electrolyte : 
Comments : 
Electrode surface area : 0.001 cm²
Characteristic mass : 0.001 g
Equivalent Weight : 0.000 g/eq.
Density : 0.000 g/cm3
Volume (V) : 0.001 cm³
Cycle Definition : Charge/Discharge alternance
Mode                Single sine         
E (V)               0.0000              
vs.                 Eoc                 
tE (h:m:s)          0:00:0.0000         
record              0                   
dI                  0.000               
unit dI             mA                  
dt (s)              0.000               
fi                  100.000             
unit fi             kHz                 
ff                  10.000              
unit ff             mHz                 
Nd                  6                   
Points              per decade          
spacing             Logarithmic         
Va (mV)             5.0                 
pw                  0.10                
Na                  2                   
corr                0                   
E range min (V)     -10.000             
E range max (V)     10.000              
I Range             Auto                
Bandwidth           5                   
nc cycles           0                   
goto Ns'            0                   
nr cycles           0                   
inc. cycle          0                   

freq/Hz	Re(Z)/Ohm	-Im(Z)/Ohm	|Z|/Ohm	Phase(Z)/deg	time/s	<Ewe>/V	<I>/mA	Cs/µF	Cp/µF	cycle number	I Range	|Ewe|/V	|I|/A	Ns	(Q-Qo)/mA.h	Re(Y)/Ohm-1	Im(Y)/Ohm-1	|Y|/Ohm-1	Phase(Y)/deg	Re(C)/nF	Im(C)/nF	|C|/nF	Phase(C)/deg	Re(M)	Im(M)	|M|	Phase(M)/deg	Re(Permittivity)	Im(Permittivity)	|Permittivity|	Phase(Permittivity)/deg	Re(Resistivity)/Ohm.cm	Im(Resistivity)/Ohm.cm	|Resistivity|/Ohm.cm	Phase(Resistivity)/deg	Re(Conductivity)/mS/cm	Im(Conductivity)/mS/cm	|Conductivity|/mS/cm	Phase(Conductivity)/deg	Tan(Delta)	Loss Angle(Delta)/deg	dq/mA.h	Pwe/W	Rwe/Ohm	
1.0000371E+005	1.2330613E+000	2.4142656E-001	1.2564740E+000	-1.1078053E+001	1.865474755264586E+000	2.7559495E-001	-1.8937241E-002	6.5920267E+000	2.4337839E-001	1.000000000000000E+000	9	4.5389421E-003	3.6124440E-003	0	-1.654142234818493E-005	7.8104788E-001	1.5292484E-001	7.9587799E-001	1.1078053E+001	2.4337845E+002	1.2430300E+003	1.2666321E+003	-7.8921944E+001	0.0000000E+000	0.0000000E+000	0.0000000E+000	7.8921944E+001	0.0000000E+000	0.0000000E+000	0.0000000E+000	-7.8921944E+001	0.0000000E+000	0.0000000E+000	0.0000000E+000	-1.1078053E+001	0.0000000E+000	0.0000000E+000	0.0000000E+000	1.1078053E+001	5.1073971E+000	7.8921944E+001	-1.654142234818493E-005	-5.2190080E-006	1.4553067E+004
6.8132047E+004	1.2953900E+000	2.6307812E-001	1.3218341E+000	-1.1479953E+001	2.443476836051559E+000	2.7558759E-001	-1.2568191E-002	8.8794069E+000	3.5172200E-001	1.000000000000000E+000	9	5.0637727E-003	3.8308685E-003	0	-1.667474656068306E-005	7.4138987E-001	1.5056735E-001	7.5652462E-001	1.1479953E+001	3.5172186E+002	1.7318701E+003	1.7672245E+003	-7.8520050E+001	0.0000000E+000	0.0000000E+000	0.0000000E+000	7.8520050E+001	0.0000000E+000	0.0000000E+000	0.0000000E+000	-7.8520050E+001	0.0000000E+000	0.0000000E+000	0.0000000E+000	-1.1479953E+001	0.0000000E+000	0.0000000E+000	0.0000000E+000	1.1479953E+001	4.9239745E+000	7.8520050E+001	-1.333242124981335E-007	-3.4636373E-006	2.1927387E+004
4.6420355E+004	1.3574280E+000	2.8688926E-001	1.3874135E+000	-1.1933714E+001	3.021497076813830E+000	2.7559108E-001	-1.0556910E-002	1.1950812E+001	5.1099205E-001	1.000000000000000E+000	9	5.0765877E-003	3.6590300E-003	0	-1.859170355202837E-005	7.0518810E-001	1.4903986E-001	7.2076565E-001	1.1933714E+001	5.1099210E+002	2.4177791E+003	2.4711877E+003	-7.8066284E+001	0.0000000E+000	0.0000000E+000	0.0000000E+000	7.8066284E+001	0.0000000E+000	0.0000000E+000	0.0000000E+000	-7.8066284E+001	0.0000000E+000	0.0000000E+000	0.0000000E+000	-1.1933714E+001	0.0000000E+000	0.0000000E+000	0.0000000E+000	1.1933714E+001	4.7315397E+000	7.8066284E+001	-1.916956991345313E-006	-2.9093903E-006	2.6105277E+004
3.1621139E+004	1.4242872E+000	3.2206881E-001	1.4602474E+000	-1.2741792E+001	3.599482384248404E+000	2.7558392E-001	-1.2642681E-002	1.5627661E+001	7.6021850E-001	1.000000000000000E+000	9	5.0828736E-003	3.4808305E-003	0	-2.321640187218630E-005	6.6795117E-001	1.5104133E-001	6.8481547E-001	1.2741792E+001	7.6021844E+002	3.3619199E+003	3.4468010E+003	-7.7258209E+001	0.0000000E+000	0.0000000E+000	0.0000000E+000	7.7258209E+001	0.0000000E+000	0.0000000E+000	0.0000000E+000	-7.7258209E+001	0.0000000E+000	0.0000000E+000	0.0000000E+000	-1.2741792E+001	0.0000000E+000	0.0000000E+000	0.0000000E+000	1.2741792E+001	4.4223070E+000	7.7258209E+001	-4.624698320157930E-006	-3.4841196E-006	2.1797902E+004
2.1544684E+004	1.4962240E+000	3.6465058E-001	1.5400183E+000	-1.3696764E+001	4.036498618341284E+000	2.7558446E-001	-1.2475074E-002	2.0258307E+001	1.1358086E+000	1.000000000000000E+000	9	5.3308066E-003	3.4615216E-003	0	-2.951130858187308E-005	6.3087726E-001	1.5375355E-001	6.4934295E-001	1.3696764E+001	1.1358083E+003	4.6604180E+003	4.7968276E+003	-7.6303238E+001	0.0000000E+000	0.0000000E+000	0.0000000E+000	7.6303238E+001	0.0000000E+000	0.0000000E+000	0.0000000E+000	-7.6303238E+001	0.0000000E+000	0.0000000E+000	0.0000000E+000	-1.3696764E+001	0.0000000E+000	0.0000000E+000	0.0000000E+000	1.3696764E+001	4.1031718E+000	7.6303238E+001	-6.294906709686781E-006	-3.4379366E-006	2.2090807E+004
1.4678594E+004	1.5792010E+000	4.0694880E-001	1.6307921E+000	-1.4450327E+001	4.332498365751235E+000	2.7558336E-001	-1.0016849E-002	2.6643784E+001	1.6591216E+000	1.000000000000000E+000	9	5.3825285E-003	3.3005606E-003	0	-3.019318583568869E-005	5.9380001E-001	1.5301801E-001	6.1319894E-001	1.4450327E+001	1.6591213E+003	6.4383687E+003	6.6487046E+003	-7.5549675E+001	0.0000000E+000	0.0000000E+000	0.0000000E+000	7.5549675E+001	0.0000000E+000	0.0000000E+000	0.0000000E+000	-7.5549675E+001	0.0000000E+000	0.0000000E+000	0.0000000E+000	-1.4450327E+001	0.0000000E+000	0.0000000E+000	0.0000000E+000	1.4450327E+001	3.8805888E+000	7.5549675E+001	-6.818772538156027E-007	-2.7604769E-006	2.7511980E+004
1.0002226E+004	1.6762273E+000	4.6225968E-001	1.7387990E+000	-1.5417465E+001	4.628491766488878E+000	2.7558216E-001	-1.4747079E-002	3.4422112E+001	2.4328244E+000	1.000000000000000E+000	9	5.0797174E-003	2.9213943E-003	0	-3.060771351682746E-005	5.5441391E-001	1.5289287E-001	5.7510960E-001	1.5417465E+001	2.4328245E+003	8.8218086E+003	9.1511172E+003	-7.4582535E+001	0.0000000E+000	0.0000000E+000	0.0000000E+000	7.4582535E+001	0.0000000E+000	0.0000000E+000	0.0000000E+000	-7.4582535E+001	0.0000000E+000	0.0000000E+000	0.0000000E+000	-1.5417465E+001	0.0000000E+000	0.0000000E+000	0.0000000E+000	1.5417465E+001	3.6261594E+000	7.4582535E+001	-4.145276811387778E-007	-4.0640321E-006	1.8687236E+004
6.8110674E+003	1.7802490E+000	5.2869016E-001	1.8570944E+000	-1.6540125E+001	5.006524611118948E+000	2.7546349E-001	-8.5793667E-002	4.4198109E+001	3.5821042E+000	1.000000000000000E+000	9	4.8505571E-003	2.6119065E-003	0	-3.627879311837670E-005	5.1619375E-001	1.5329686E-001	5.3847557E-001	1.6540125E+001	3.5821038E+003	1.2061955E+004	1.2582616E+004	-7.3459877E+001	0.0000000E+000	0.0000000E+000	0.0000000E+000	7.3459877E+001	0.0000000E+000	0.0000000E+000	0.0000000E+000	-7.3459877E+001	0.0000000E+000	0.0000000E+000	0.0000000E+000	-1.6540125E+001	0.0000000E+000	0.0000000E+000	0.0000000E+000	1.6540125E+001	3.3672822E+000	7.3459877E+001	-5.671079601549236E-006	-2.3633023E-005	3.2107673E+003
4.6414854E+003	1.9019525E+000	6.0632604E-001	1.9962602E+000	-1.7681833E+001	5.476691273484903E+000	2.7557153E-001	-3.7223049E-003	5.6553165E+001	5.2171712E+000	1.000000000000000E+000	9	4.7333827E-003	2.3711252E-003	0	-3.538612236483540E-005	4.7727135E-001	1.5214999E-001	5.0093669E-001	1.7681833E+001	5.2171704E+003	1.6365472E+004	1.7176947E+004	-7.2318169E+001	0.0000000E+000	0.0000000E+000	0.0000000E+000	7.2318169E+001	0.0000000E+000	0.0000000E+000	0.0000000E+000	-7.2318169E+001	0.0000000E+000	0.0000000E+000	0.0000000E+000	-1.7681833E+001	0.0000000E+000	0.0000000E+000	0.0000000E+000	1.7681833E+001	3.1368477E+000	7.2318169E+001	8.926707535413032E-007	-1.0257612E-006	7.4032492E+004
3.1610117E+003	2.0466819E+000	6.8595219E-001	2.1585729E+000	-1.8528746E+001	5.943701615666214E+000	2.7557898E-001	7.5445678E-003	7.3400696E+001	7.4123244E+000	1.000000000000000E+000	9	4.6666693E-003	2.1619233E-003	0	-3.626019615983306E-005	4.3925518E-001	1.4721781E-001	4.6326903E-001	1.8528746E+001	7.4123247E+003	2.2116221E+004	2.3325303E+004	-7.1471252E+001	0.0000000E+000	0.0000000E+000	0.0000000E+000	7.1471252E+001	0.0000000E+000	0.0000000E+000	0.0000000E+000	-7.1471252E+001	0.0000000E+000	0.0000000E+000	0.0000000E+000	-1.8528746E+001	0.0000000E+000	0.0000000E+000	0.0000000E+000	1.8528746E+001	2.9837093E+000	7.1471252E+001	-8.740737949976653E-007	2.0791242E-006	3.6526809E+004
2.1556899E+003	2.2019510E+000	7.8824222E-001	2.3387847E+000	-1.9696072E+001	6.410689451178769E+000	2.7556950E-001	2.8888197E-003	9.3664314E+001	1.0639299E+001	1.000000000000000E+000	9	4.6161353E-003	1.9737324E-003	0	-3.478071153214356E-005	4.0255678E-001	1.4410506E-001	4.2757249E-001	1.9696072E+001	1.0639302E+004	2.9720832E+004	3.1567746E+004	-7.0303925E+001	0.0000000E+000	0.0000000E+000	0.0000000E+000	7.0303925E+001	0.0000000E+000	0.0000000E+000	0.0000000E+000	-7.0303925E+001	0.0000000E+000	0.0000000E+000	0.0000000E+000	-1.9696072E+001	0.0000000E+000	0.0000000E+000	0.0000000E+000	1.9696072E+001	2.7934954E+000	7.0303925E+001	1.479484627689498E-006	7.9607059E-007	9.5391727E+004
1.4685898E+003	2.4114969E+000	8.7195998E-001	2.5642993E+000	-1.9879208E+001	6.877933820011094E+000	2.7557608E-001	6.8555078E-003	1.2428625E+002	1.4370727E+001	1.000000000000000E+000	9	4.6188789E-003	1.8012245E-003	0	-3.544832615108074E-005	3.6673236E-001	1.3260476E-001	3.8997006E-001	1.9879208E+001	1.4370728E+004	3.9743746E+004	4.2262078E+004	-7.0120789E+001	0.0000000E+000	0.0000000E+000	0.0000000E+000	7.0120789E+001	0.0000000E+000	0.0000000E+000	0.0000000E+000	-7.0120789E+001	0.0000000E+000	0.0000000E+000	0.0000000E+000	-1.9879208E+001	0.0000000E+000	0.0000000E+000	0.0000000E+000	1.9879208E+001	2.7656050E+000	7.0120789E+001	-6.676146189371781E-007	1.8892140E-006	4.0197766E+004
1.0003202E+003	2.6068077E+000	1.0269053E+000	2.8017817E+000	-2.1501076E+001	7.346680588969321E+000	2.7556679E-001	4.1551795E-003	1.5493541E+002	2.0813395E+001	1.000000000000000E+000	9	4.5710532E-003	1.6314809E-003	0	-3.494177148340613E-005	3.3207822E-001	1.3081630E-001	3.5691574E-001	2.1501076E+001	2.0813396E+004	5.2834973E+004	5.6786723E+004	-6.8498924E+001	0.0000000E+000	0.0000000E+000	0.0000000E+000	6.8498924E+001	0.0000000E+000	0.0000000E+000	0.0000000E+000	-6.8498924E+001	0.0000000E+000	0.0000000E+000	0.0000000E+000	-2.1501076E+001	0.0000000E+000	0.0000000E+000	0.0000000E+000	2.1501076E+001	2.5385084E+000	6.8498924E+001	5.065546676746155E-007	1.1450295E-006	6.6318867E+004
6.8108978E+002	2.8443959E+000	1.1559185E+000	3.0702989E+000	-2.2116064E+001	8.066416063084034E+000	2.7556926E-001	-3.3305056E-002	2.0215691E+002	2.8653765E+001	1.000000000000000E+000	10	4.6216697E-003	1.5052833E-003	0	-3.993294777290430E-005	3.0173710E-001	1.2262129E-001	3.2570118E-001	2.2116064E+001	2.8653764E+004	7.0508984E+004	7.6108836E+004	-6.7883934E+001	0.0000000E+000	0.0000000E+000	0.0000000E+000	6.7883934E+001	0.0000000E+000	0.0000000E+000	0.0000000E+000	-6.7883934E+001	0.0000000E+000	0.0000000E+000	0.0000000E+000	-2.2116064E+001	0.0000000E+000	0.0000000E+000	0.0000000E+000	2.2116064E+001	2.4607236E+000	6.7883934E+001	-4.991176289498170E-006	-9.1778502E-006	8.2740967E+003
4.6396069E+002	3.1201129E+000	1.3175144E+000	3.3868790E+000	-2.2892632E+001	8.535224245366408E+000	2.7557558E-001	-3.1729285E-002	2.6036557E+002	3.9399883E+001	1.000000000000000E+000	10	4.5937765E-003	1.3563450E-003	0	-4.324954463650162E-005	2.7200130E-001	1.1485662E-001	2.9525709E-001	2.2892632E+001	3.9399887E+004	9.3306070E+004	1.0128363E+005	-6.7107368E+001	0.0000000E+000	0.0000000E+000	0.0000000E+000	6.7107368E+001	0.0000000E+000	0.0000000E+000	0.0000000E+000	-6.7107368E+001	0.0000000E+000	0.0000000E+000	0.0000000E+000	-2.2892632E+001	0.0000000E+000	0.0000000E+000	0.0000000E+000	2.2892632E+001	2.3681812E+000	6.7107368E+001	-3.316596863597324E-006	-8.7438157E-006	8.6852129E+003
3.1631589E+002	3.4478037E+000	1.5001737E+000	3.7600362E+000	-2.3514338E+001	9.001924774231156E+000	2.7556881E-001	-3.1822424E-002	3.3539578E+002	5.3389595E+001	1.000000000000000E+000	10	4.5746118E-003	1.2166403E-003	0	-4.657458617818581E-005	2.4387006E-001	1.0611029E-001	2.6595488E-001	2.3514338E+001	5.3389590E+004	1.2270369E+005	1.3381570E+005	-6.6485664E+001	0.0000000E+000	0.0000000E+000	0.0000000E+000	6.6485664E+001	0.0000000E+000	0.0000000E+000	0.0000000E+000	-6.6485664E+001	0.0000000E+000	0.0000000E+000	0.0000000E+000	-2.3514338E+001	0.0000000E+000	0.0000000E+000	0.0000000E+000	2.3514338E+001	2.2982697E+000	6.6485664E+001	-3.325041541684188E-006	-8.7692679E-006	8.6595791E+003
2.1534457E+002	3.8438289E+000	1.7092814E+000	4.2067404E+000	-2.3973852E+001	9.469413756422000E+000	2.7557659E-001	-3.1632435E-002	4.3238702E+002	7.1385231E+001	1.000000000000000E+000	10	4.5703100E-003	1.0864255E-003	0	-5.071652639092645E-005	2.1720640E-001	9.6587770E-002	2.3771374E-001	2.3973852E+001	7.1385234E+004	1.6053097E+005	1.7568734E+005	-6.6026146E+001	0.0000000E+000	0.0000000E+000	0.0000000E+000	6.6026146E+001	0.0000000E+000	0.0000000E+000	0.0000000E+000	-6.6026146E+001	0.0000000E+000	0.0000000E+000	0.0000000E+000	-2.3973852E+001	0.0000000E+000	0.0000000E+000	0.0000000E+000	2.3973852E+001	2.2487981E+000	6.6026146E+001	-4.141940212740637E-006	-8.7171584E-006	8.7118359E+003
1.4673740E+002	4.3157744E+000	1.9102373E+000	4.7196307E+000	-2.3875021E+001	9.932396738411626E+000	2.7557343E-001	-3.1619400E-002	5.6779553E+002	9.3014488E+001	1.000000000000000E+000	10	4.5599099E-003	9.6615823E-004	0	-5.476423502123604E-005	1.9375043E-001	8.5757338E-002	2.1188098E-001	2.3875021E+001	9.3014492E+004	2.1014641E+005	2.2981125E+005	-6.6124977E+001	0.0000000E+000	0.0000000E+000	0.0000000E+000	6.6124977E+001	0.0000000E+000	0.0000000E+000	0.0000000E+000	-6.6124977E+001	0.0000000E+000	0.0000000E+000	0.0000000E+000	-2.3875021E+001	0.0000000E+000	0.0000000E+000	0.0000000E+000	2.3875021E+001	2.2592871E+000	6.6124977E+001	-4.047708630309593E-006	-8.7134667E-006	8.7153281E+003
1.0003201E+002	4.8770123E+000	2.0741022E+000	5.2997308E+000	-2.3039143E+001	1.040068108069681E+001	2.7556553E-001	-3.0580068E-002	7.6709821E+002	1.1749075E+002	1.000000000000000E+000	10	4.5560780E-003	8.5968105E-004	0	-5.879325076298038E-005	1.7363858E-001	7.3845237E-002	1.8868883E-001	2.3039143E+001	1.1749071E+005	2.7626591E+005	3.0021147E+005	-6.6960861E+001	0.0000000E+000	0.0000000E+000	0.0000000E+000	6.6960861E+001	0.0000000E+000	0.0000000E+000	0.0000000E+000	-6.6960861E+001	0.0000000E+000	0.0000000E+000	0.0000000E+000	-2.3039143E+001	0.0000000E+000	0.0000000E+000	0.0000000E+000	2.3039143E+001	2.3513849E+000	6.6960861E+001	-4.029015741744339E-006	-8.4268131E-006	9.0112793E+003
6.8103981E+001	5.5057378E+000	2.1438007E+000	5.9083862E+000	-2.1274731E+001	1.087832822333439E+001	2.7557376E-001	-2.7836453E-002	1.0900922E+003	1.4351401E+002	1.000000000000000E+000	10	4.5497273E-003	7.7004568E-004	0	-6.245307086544926E-005	1.5771672E-001	6.1411064E-002	1.6925095E-001	2.1274731E+001	1.4351403E+005	3.6857459E+005	3.9552941E+005	-6.8725266E+001	0.0000000E+000	0.0000000E+000	0.0000000E+000	6.8725266E+001	0.0000000E+000	0.0000000E+000	0.0000000E+000	-6.8725266E+001	0.0000000E+000	0.0000000E+000	0.0000000E+000	-2.1274731E+001	0.0000000E+000	0.0000000E+000	0.0000000E+000	2.1274731E+001	2.5682135E+000	6.8725266E+001	-3.659820102468879E-006	-7.6709957E-006	9.8997441E+003
4.6441547E+001	6.1435785E+000	2.1259022E+000	6.5010014E+000	-1.9087484E+001	1.133352973827277E+001	2.7556449E-001	-3.2759327E-002	1.6120190E+003	1.7238371E+002	1.000000000000000E+000	10	4.5448500E-003	6.9909997E-004	0	-6.675555816315400E-005	1.4536534E-001	5.0301708E-002	1.5382245E-001	1.9087484E+001	1.7238370E+005	4.9816631E+005	5.2714875E+005	-7.0912514E+001	0.0000000E+000	0.0000000E+000	0.0000000E+000	7.0912514E+001	0.0000000E+000	0.0000000E+000	0.0000000E+000	-7.0912514E+001	0.0000000E+000	0.0000000E+000	0.0000000E+000	-1.9087484E+001	0.0000000E+000	0.0000000E+000	0.0000000E+000	1.9087484E+001	2.8898690E+000	7.0912514E+001	-4.302487297704738E-006	-9.0273070E-006	8.4117871E+003
3.1629555E+001	6.7547593E+000	2.0029218E+000	7.0454574E+000	-1.6516150E+001	1.177944893282256E+001	2.7555689E-001	-3.4109719E-002	2.5122510E+003	2.0303581E+002	1.000000000000000E+000	10	4.5465697E-003	6.4531929E-004	0	-7.075666941056908E-005	1.3607912E-001	4.0350195E-002	1.4193542E-001	1.6516150E+001	2.0303584E+005	6.8472869E+005	7.1419669E+005	-7.3483849E+001	0.0000000E+000	0.0000000E+000	0.0000000E+000	7.3483849E+001	0.0000000E+000	0.0000000E+000	0.0000000E+000	-7.3483849E+001	0.0000000E+000	0.0000000E+000	0.0000000E+000	-1.6516150E+001	0.0000000E+000	0.0000000E+000	0.0000000E+000	1.6516150E+001	3.3724527E+000	7.3483849E+001	-4.001111247415080E-006	-9.3991684E-006	8.0785449E+003
2.1551722E+001	7.2797532E+000	1.8153371E+000	7.5026832E+000	-1.4002154E+001	1.221734519358142E+001	2.7555898E-001	-3.5089452E-002	4.0679993E+003	2.3815637E+002	1.000000000000000E+000	10	4.5508146E-003	6.0655829E-004	0	-7.646935323462821E-005	1.2932529E-001	3.2249581E-002	1.3328566E-001	1.4002154E+001	2.3815633E+005	9.5504013E+005	9.8428656E+005	-7.5997849E+001	0.0000000E+000	0.0000000E+000	0.0000000E+000	7.5997849E+001	0.0000000E+000	0.0000000E+000	0.0000000E+000	-7.5997849E+001	0.0000000E+000	0.0000000E+000	0.0000000E+000	-1.4002154E+001	0.0000000E+000	0.0000000E+000	0.0000000E+000	1.4002154E+001	4.0101385E+000	7.5997849E+001	-5.712683824059134E-006	-9.6692138E-006	7.8530430E+003
1.4685154E+001	7.7111225E+000	1.5963280E+000	7.8746223E+000	-1.1695948E+001	1.269502614965313E+001	2.7557689E-001	-2.6337052E-002	6.7892139E+003	2.7900006E+002	1.000000000000000E+000	10	4.5466665E-003	5.7738216E-004	0	-7.934218457114831E-005	1.2435354E-001	2.5743207E-002	1.2699021E-001	1.1695948E+001	2.7900000E+005	1.3477203E+006	1.3762961E+006	-7.8304054E+001	0.0000000E+000	0.0000000E+000	0.0000000E+000	7.8304054E+001	0.0000000E+000	0.0000000E+000	0.0000000E+000	-7.8304054E+001	0.0000000E+000	0.0000000E+000	0.0000000E+000	-1.1695948E+001	0.0000000E+000	0.0000000E+000	0.0000000E+000	1.1695948E+001	4.8305378E+000	7.8304054E+001	-2.872831336520100E-006	-7.2578828E-006	1.0463468E+004
