EC-Lab ASCII FILE
Nb header lines : 63                          

Potentio Electrochemical Impedance Spectroscopy

Run on channel : 5 (SN 65912)
User : 
CE vs. WE compliance from -10 V to 10 V
Electrode connection : standard
Potential control : Ewe
Ewe ctrl range : min = -10.00 V, max = 10.00 V
Safety Limits :
	Do not start on E overload
Acquisition started on : 09/12/2025 10:00:42.666
Loaded Setting File :  C:\Users\Celltest\OneDrive - store-dot.com\Documents\EC-Lab\Data\Charmaine\R279\17382_C01.mpr
Saved on :
	File : 17468_C05.mpr
	Directory : C:\Users\Celltest\OneDrive - store-dot.com\Documents\EC-Lab\Data\Gyutae\R277\
	Host : 169.254.61.224
Device : VMP-3e (SN .003165)
Address : USB
EC-LAB for windows v11.62 (software)
Internet server v27.00 (firmware)
Command interpretor v12.03 (firmware)
Electrode material : 
Initial state : 
Electrolyte : 
Comments : 
Electrode surface area : 0.001 cm²
Characteristic mass : 0.001 g
Equivalent Weight : 0.000 g/eq.
Density : 0.000 g/cm3
Volume (V) : 0.001 cm³
Cycle Definition : Charge/Discharge alternance
Mode                Single sine         
E (V)               0.0000              
vs.                 Eoc                 
tE (h:m:s)          0:00:0.0000         
record              0                   
dI                  0.000               
unit dI             mA                  
dt (s)              0.000               
fi                  100.000             
unit fi             kHz                 
ff                  10.000              
unit ff             mHz                 
Nd                  6                   
Points              per decade          
spacing             Logarithmic         
Va (mV)             5.0                 
pw                  0.10                
Na                  2                   
corr                0                   
E range min (V)     -10.000             
E range max (V)     10.000              
I Range             Auto                
Bandwidth           5                   
nc cycles           0                   
goto Ns'            0                   
nr cycles           0                   
inc. cycle          0                   

freq/Hz	Re(Z)/Ohm	-Im(Z)/Ohm	|Z|/Ohm	Phase(Z)/deg	time/s	<Ewe>/V	<I>/mA	Cs/µF	Cp/µF	cycle number	I Range	|Ewe|/V	|I|/A	Ns	(Q-Qo)/mA.h	Re(Y)/Ohm-1	Im(Y)/Ohm-1	|Y|/Ohm-1	Phase(Y)/deg	Re(C)/nF	Im(C)/nF	|C|/nF	Phase(C)/deg	Re(M)	Im(M)	|M|	Phase(M)/deg	Re(Permittivity)	Im(Permittivity)	|Permittivity|	Phase(Permittivity)/deg	Re(Resistivity)/Ohm.cm	Im(Resistivity)/Ohm.cm	|Resistivity|/Ohm.cm	Phase(Resistivity)/deg	Re(Conductivity)/mS/cm	Im(Conductivity)/mS/cm	|Conductivity|/mS/cm	Phase(Conductivity)/deg	Tan(Delta)	Loss Angle(Delta)/deg	dq/mA.h	Pwe/W	Rwe/Ohm	
1.0000371E+005	5.1327376E+000	1.3026035E+000	5.2954483E+000	-1.4240081E+001	2.026499749539653E+000	7.4402243E-001	-2.7646592E-002	1.2217765E+000	7.3928311E-002	1.000000000000000E+000	10	4.9470235E-003	9.3420298E-004	0	-4.626406097066744E-006	1.8303898E-001	4.6452250E-002	1.8884142E-001	1.4240081E+001	7.3928314E+001	2.9130478E+002	3.0053931E+002	-7.5759918E+001	0.0000000E+000	0.0000000E+000	0.0000000E+000	7.5759918E+001	0.0000000E+000	0.0000000E+000	0.0000000E+000	-7.5759918E+001	0.0000000E+000	0.0000000E+000	0.0000000E+000	-1.4240081E+001	0.0000000E+000	0.0000000E+000	0.0000000E+000	1.4240081E+001	3.9403684E+000	7.5759918E+001	-4.626406097066744E-006	-2.0569685E-005	2.6911904E+004
6.8132047E+004	5.4418969E+000	1.4458790E+000	5.6307025E+000	-1.4879371E+001	2.463491503644036E+000	7.4402481E-001	-2.7516272E-002	1.6156107E+000	1.0653087E-001	1.000000000000000E+000	10	5.3309035E-003	9.4675634E-004	0	-7.150576789850473E-006	1.7164263E-001	4.5604404E-002	1.7759773E-001	1.4879371E+001	1.0653087E+002	4.0095334E+002	4.1486432E+002	-7.5120628E+001	0.0000000E+000	0.0000000E+000	0.0000000E+000	7.5120628E+001	0.0000000E+000	0.0000000E+000	0.0000000E+000	-7.5120628E+001	0.0000000E+000	0.0000000E+000	0.0000000E+000	-1.4879371E+001	0.0000000E+000	0.0000000E+000	0.0000000E+000	1.4879371E+001	3.7637291E+000	7.5120628E+001	-2.524170692783729E-006	-2.0472789E-005	2.7039449E+004
4.6420355E+004	5.7904062E+000	1.5970463E+000	6.0066099E+000	-1.5419336E+001	2.900489204417681E+000	7.4403214E-001	-2.5315739E-002	2.1468129E+000	1.5176454E-001	1.000000000000000E+000	10	5.3561935E-003	8.9171657E-004	0	-9.864040755880220E-006	1.6049081E-001	4.4264812E-002	1.6648325E-001	1.5419336E+001	1.5176453E+002	5.5025226E+002	5.7079773E+002	-7.4580666E+001	0.0000000E+000	0.0000000E+000	0.0000000E+000	7.4580666E+001	0.0000000E+000	0.0000000E+000	0.0000000E+000	-7.4580666E+001	0.0000000E+000	0.0000000E+000	0.0000000E+000	-1.5419336E+001	0.0000000E+000	0.0000000E+000	0.0000000E+000	1.5419336E+001	3.6256974E+000	7.4580666E+001	-2.713463966029747E-006	-1.8835724E-005	2.9390102E+004
3.1621139E+004	6.1667051E+000	1.7855371E+000	6.4199996E+000	-1.6148096E+001	3.338498238561442E+000	7.4403358E-001	-2.5976649E-002	2.8188617E+000	2.1804269E-001	1.000000000000000E+000	10	5.2809916E-003	8.2258438E-004	0	-1.368343132169604E-005	1.4961778E-001	4.3321043E-002	1.5576325E-001	1.6148096E+001	2.1804266E+002	7.5305347E+002	7.8398480E+002	-7.3851906E+001	0.0000000E+000	0.0000000E+000	0.0000000E+000	7.3851906E+001	0.0000000E+000	0.0000000E+000	0.0000000E+000	-7.3851906E+001	0.0000000E+000	0.0000000E+000	0.0000000E+000	-1.6148096E+001	0.0000000E+000	0.0000000E+000	0.0000000E+000	1.6148096E+001	3.4536974E+000	7.3851906E+001	-3.819390565815815E-006	-1.9327499E-005	2.8642400E+004
2.1544684E+004	6.5888901E+000	1.9846836E+000	6.8813109E+000	-1.6763178E+001	3.775487832637737E+000	7.4401808E-001	-2.7521869E-002	3.7221060E+000	3.0961996E-001	1.000000000000000E+000	10	5.2038436E-003	7.5622852E-004	0	-1.594998522119648E-005	1.3914573E-001	4.1913018E-002	1.4532115E-001	1.6763178E+001	3.0961990E+002	1.0278977E+003	1.0735167E+003	-7.3236824E+001	0.0000000E+000	0.0000000E+000	0.0000000E+000	7.3236824E+001	0.0000000E+000	0.0000000E+000	0.0000000E+000	-7.3236824E+001	0.0000000E+000	0.0000000E+000	0.0000000E+000	-1.6763178E+001	0.0000000E+000	0.0000000E+000	0.0000000E+000	1.6763178E+001	3.3198693E+000	7.3236824E+001	-2.266553899500449E-006	-2.0476768E-005	2.7033705E+004
1.4678594E+004	7.0673099E+000	2.2095697E+000	7.4046650E+000	-1.7361671E+001	4.212474733387353E+000	7.4401814E-001	-2.7222142E-002	4.9071345E+000	4.3695080E-001	1.000000000000000E+000	10	5.1171617E-003	6.9107267E-004	0	-1.911157208343826E-005	1.2889715E-001	4.0299240E-002	1.3505000E-001	1.7361671E+001	4.3695081E+002	1.3975874E+003	1.4643007E+003	-7.2638329E+001	0.0000000E+000	0.0000000E+000	0.0000000E+000	7.2638329E+001	0.0000000E+000	0.0000000E+000	0.0000000E+000	-7.2638329E+001	0.0000000E+000	0.0000000E+000	0.0000000E+000	-1.7361671E+001	0.0000000E+000	0.0000000E+000	0.0000000E+000	1.7361671E+001	3.1985006E+000	7.2638329E+001	-3.161586862241772E-006	-2.0253767E-005	2.7331359E+004
1.0002226E+004	7.5919604E+000	2.4770017E+000	7.9858251E+000	-1.8069763E+001	4.508490987442201E+000	7.4402010E-001	-2.8234910E-002	6.4238768E+000	6.1803091E-001	1.000000000000000E+000	10	5.4449132E-003	6.8182225E-004	0	-2.042078974634771E-005	1.1904588E-001	3.8840666E-002	1.2522188E-001	1.8069763E+001	6.1803088E+002	1.8942524E+003	1.9925247E+003	-7.1930237E+001	0.0000000E+000	0.0000000E+000	0.0000000E+000	7.1930237E+001	0.0000000E+000	0.0000000E+000	0.0000000E+000	-7.1930237E+001	0.0000000E+000	0.0000000E+000	0.0000000E+000	-1.8069763E+001	0.0000000E+000	0.0000000E+000	0.0000000E+000	1.8069763E+001	3.0649800E+000	7.1930237E+001	-1.309217662909456E-006	-2.1007341E-005	2.6351070E+004
6.8110674E+003	8.1831274E+000	2.7425814E+000	8.6304884E+000	-1.8528614E+001	5.063525040488457E+000	7.4406600E-001	-1.1308283E-002	8.5201139E+000	8.6038679E-001	1.000000000000000E+000	10	5.0084949E-003	5.8032578E-004	0	-2.093994107724413E-005	1.0986228E-001	3.6820423E-002	1.1586830E-001	1.8528614E+001	8.6038654E+002	2.5671636E+003	2.7075068E+003	-7.1471390E+001	0.0000000E+000	0.0000000E+000	0.0000000E+000	7.1471390E+001	0.0000000E+000	0.0000000E+000	0.0000000E+000	-7.1471390E+001	0.0000000E+000	0.0000000E+000	0.0000000E+000	-1.8528614E+001	0.0000000E+000	0.0000000E+000	0.0000000E+000	1.8528614E+001	2.9837317E+000	7.1471390E+001	-5.191513308964187E-007	-8.4141084E-006	6.5798320E+004
4.6414854E+003	8.8524704E+000	3.0814683E+000	9.3734560E+000	-1.9192566E+001	5.534685756239924E+000	7.4416846E-001	2.7084975E-003	1.1127701E+001	1.2026005E+000	1.000000000000000E+000	10	5.0041270E-003	5.3386146E-004	0	-2.090424271839826E-005	1.0075463E-001	3.5071816E-002	1.0668424E-001	1.9192566E+001	1.2026006E+003	3.4548416E+003	3.6581660E+003	-7.0807434E+001	0.0000000E+000	0.0000000E+000	0.0000000E+000	7.0807434E+001	0.0000000E+000	0.0000000E+000	0.0000000E+000	-7.0807434E+001	0.0000000E+000	0.0000000E+000	0.0000000E+000	-1.9192566E+001	0.0000000E+000	0.0000000E+000	0.0000000E+000	1.9192566E+001	2.8728092E+000	7.0807434E+001	3.569835884586881E-008	2.0155783E-006	2.7475325E+005
3.1610117E+003	9.5820389E+000	3.4281282E+000	1.0176813E+001	-1.9685486E+001	6.001695671751804E+000	7.4417382E-001	3.0082304E-003	1.4687131E+001	1.6665851E+000	1.000000000000000E+000	10	4.9631433E-003	4.8769129E-004	0	-2.020456178499606E-005	9.2519715E-002	3.3100415E-002	9.8262586E-002	1.9685486E+001	1.6665851E+003	4.6583096E+003	4.9474595E+003	-7.0314514E+001	0.0000000E+000	0.0000000E+000	0.0000000E+000	7.0314514E+001	0.0000000E+000	0.0000000E+000	0.0000000E+000	-7.0314514E+001	0.0000000E+000	0.0000000E+000	0.0000000E+000	-1.9685486E+001	0.0000000E+000	0.0000000E+000	0.0000000E+000	1.9685486E+001	2.7951226E+000	7.0314514E+001	6.996809334022047E-007	2.2386464E-006	2.4737927E+005
2.1556899E+003	1.0411690E+001	3.8264568E+000	1.1092567E+001	-2.0179161E+001	6.468679427271127E+000	7.4417520E-001	3.6505195E-003	1.9294655E+001	2.2959714E+000	1.000000000000000E+000	10	4.9355766E-003	4.4494448E-004	0	-2.016330801525004E-005	8.4616885E-002	3.1098016E-002	9.0150453E-002	2.0179161E+001	2.2959717E+003	6.2472793E+003	6.6558232E+003	-6.9820839E+001	0.0000000E+000	0.0000000E+000	0.0000000E+000	6.9820839E+001	0.0000000E+000	0.0000000E+000	0.0000000E+000	-6.9820839E+001	0.0000000E+000	0.0000000E+000	0.0000000E+000	-2.0179161E+001	0.0000000E+000	0.0000000E+000	0.0000000E+000	2.0179161E+001	2.7209740E+000	6.9820839E+001	4.125376974601266E-008	2.7166261E-006	2.0385459E+005
1.4685898E+003	1.1346698E+001	4.2449050E+000	1.2114734E+001	-2.0511290E+001	6.935923582786927E+000	7.4417168E-001	3.1627505E-003	2.5530050E+001	3.1344392E+000	1.000000000000000E+000	10	4.9119308E-003	4.0545099E-004	0	-1.998618722876159E-005	7.7311084E-002	2.8922793E-002	8.2544118E-002	2.0511290E+001	3.1344392E+003	8.3784043E+003	8.9455225E+003	-6.9488708E+001	0.0000000E+000	0.0000000E+000	0.0000000E+000	6.9488708E+001	0.0000000E+000	0.0000000E+000	0.0000000E+000	-6.9488708E+001	0.0000000E+000	0.0000000E+000	0.0000000E+000	-2.0511290E+001	0.0000000E+000	0.0000000E+000	0.0000000E+000	2.0511290E+001	2.6730158E+000	6.9488708E+001	1.771207864884587E-007	2.3536293E-006	2.3529256E+005
1.0003202E+003	1.2367854E+001	4.7219663E+000	1.3238609E+001	-2.0896532E+001	7.404713605057623E+000	7.4416405E-001	2.6116841E-003	3.3694435E+001	4.2866621E+000	1.000000000000000E+000	10	4.8972513E-003	3.6992188E-004	0	-1.942777963047330E-005	7.0568293E-002	2.6942518E-002	7.5536638E-002	2.0896532E+001	4.2866621E+003	1.1227698E+004	1.2018182E+004	-6.9103470E+001	0.0000000E+000	0.0000000E+000	0.0000000E+000	6.9103470E+001	0.0000000E+000	0.0000000E+000	0.0000000E+000	-6.9103470E+001	0.0000000E+000	0.0000000E+000	0.0000000E+000	-2.0896532E+001	0.0000000E+000	0.0000000E+000	0.0000000E+000	2.0896532E+001	2.6192169E+000	6.9103470E+001	5.584075982882888E-007	1.9435215E-006	2.8493647E+005
6.8108978E+002	1.3503159E+001	5.2315860E+000	1.4481187E+001	-2.1178074E+001	7.870442267128965E+000	7.4417090E-001	2.9784394E-003	4.4666550E+001	5.8296280E+000	1.000000000000000E+000	10	4.8892079E-003	3.3762481E-004	0	-1.881321804776437E-005	6.4391278E-002	2.4947384E-002	6.9055110E-002	2.1178074E+001	5.8296265E+003	1.5046754E+004	1.6136584E+004	-6.8821930E+001	0.0000000E+000	0.0000000E+000	0.0000000E+000	6.8821930E+001	0.0000000E+000	0.0000000E+000	0.0000000E+000	-6.8821930E+001	0.0000000E+000	0.0000000E+000	0.0000000E+000	-2.1178074E+001	0.0000000E+000	0.0000000E+000	0.0000000E+000	2.1178074E+001	2.5810833E+000	6.8821930E+001	6.145615827089291E-007	2.2164679E-006	2.4985263E+005
4.6396069E+002	1.4763711E+001	5.8440733E+000	1.5878298E+001	-2.1595661E+001	8.339193702762714E+000	7.4417311E-001	2.9765770E-003	5.8697998E+001	7.9514565E+000	1.000000000000000E+000	10	4.8843715E-003	3.0761305E-004	0	-1.861763294185221E-005	5.8558188E-002	2.3179697E-002	6.2979043E-002	2.1595661E+001	7.9514556E+003	2.0087531E+004	2.1604041E+004	-6.8404343E+001	0.0000000E+000	0.0000000E+000	0.0000000E+000	6.8404343E+001	0.0000000E+000	0.0000000E+000	0.0000000E+000	-6.8404343E+001	0.0000000E+000	0.0000000E+000	0.0000000E+000	-2.1595661E+001	0.0000000E+000	0.0000000E+000	0.0000000E+000	2.1595661E+001	2.5262706E+000	6.8404343E+001	1.955851059121604E-007	2.2150887E-006	2.5000969E+005
3.1631589E+002	1.6143812E+001	6.5274715E+000	1.7413517E+001	-2.2015095E+001	8.805926444940269E+000	7.4416989E-001	2.9616840E-003	7.7082207E+001	1.0831064E+001	1.000000000000000E+000	10	4.8756083E-003	2.7998985E-004	0	-1.821497923131392E-005	5.3239398E-002	2.1526430E-002	5.7426654E-002	2.2015095E+001	1.0831062E+004	2.6787502E+004	2.8894328E+004	-6.7984909E+001	0.0000000E+000	0.0000000E+000	0.0000000E+000	6.7984909E+001	0.0000000E+000	0.0000000E+000	0.0000000E+000	-6.7984909E+001	0.0000000E+000	0.0000000E+000	0.0000000E+000	-2.2015095E+001	0.0000000E+000	0.0000000E+000	0.0000000E+000	2.2015095E+001	2.4732106E+000	6.7984909E+001	4.026537105382873E-007	2.2039960E-006	2.5126580E+005
2.1534457E+002	1.7668015E+001	7.3404889E+000	1.9132212E+001	-2.2561304E+001	9.273445853759767E+000	7.4416816E-001	2.9523757E-003	1.0068418E+002	1.4821114E+001	1.000000000000000E+000	10	4.8753098E-003	2.5482208E-004	0	-1.769491529112080E-005	4.8267789E-002	2.0053705E-002	5.2267872E-002	2.2561304E+001	1.4821113E+004	3.5673328E+004	3.8629676E+004	-6.7438698E+001	0.0000000E+000	0.0000000E+000	0.0000000E+000	6.7438698E+001	0.0000000E+000	0.0000000E+000	0.0000000E+000	-6.7438698E+001	0.0000000E+000	0.0000000E+000	0.0000000E+000	-2.2561304E+001	0.0000000E+000	0.0000000E+000	0.0000000E+000	2.2561304E+001	2.4069262E+000	6.7438698E+001	5.200639401931180E-007	2.1970641E-006	2.5205741E+005
1.4673740E+002	1.9408323E+001	8.3155661E+000	2.1114725E+001	-2.3192888E+001	9.736382169096032E+000	7.4417168E-001	2.8965226E-003	1.3043300E+002	2.0230204E+001	1.000000000000000E+000	10	4.8718941E-003	2.3073443E-004	0	-1.744852087587545E-005	4.3532852E-002	1.8651808E-002	4.7360312E-002	2.3192888E+001	2.0230205E+004	4.7216793E+004	5.1368148E+004	-6.6807114E+001	0.0000000E+000	0.0000000E+000	0.0000000E+000	6.6807114E+001	0.0000000E+000	0.0000000E+000	0.0000000E+000	-6.6807114E+001	0.0000000E+000	0.0000000E+000	0.0000000E+000	-2.3192888E+001	0.0000000E+000	0.0000000E+000	0.0000000E+000	2.3192888E+001	2.3339751E+000	6.6807114E+001	2.463944152453512E-007	2.1555102E-006	2.5691900E+005
1.0003201E+002	2.1374369E+001	9.4882126E+000	2.3385675E+001	-2.3936726E+001	1.045869308344845E+001	7.4415797E-001	-2.1296940E-003	1.6768597E+002	2.7603600E+001	1.000000000000000E+000	11	4.8776404E-003	2.0857385E-004	0	-1.738257276193650E-005	3.9083499E-002	1.7349403E-002	4.2761218E-002	2.3936726E+001	2.7603596E+004	6.2183426E+004	6.8034820E+004	-6.6063278E+001	0.0000000E+000	0.0000000E+000	0.0000000E+000	6.6063278E+001	0.0000000E+000	0.0000000E+000	0.0000000E+000	-6.6063278E+001	0.0000000E+000	0.0000000E+000	0.0000000E+000	-2.3936726E+001	0.0000000E+000	0.0000000E+000	0.0000000E+000	2.3936726E+001	2.2527287E+000	6.6063278E+001	6.594811393895552E-008	-1.5848287E-006	3.4942013E+005
6.8103981E+001	2.3768408E+001	1.0783943E+001	2.6100395E+001	-2.4404228E+001	1.093734710614081E+001	7.4415499E-001	-2.0373594E-003	2.1670554E+002	3.6993980E+001	1.000000000000000E+000	11	4.8704841E-003	1.8660576E-004	0	-1.747599939450366E-005	3.4890398E-002	1.5830092E-002	3.8313597E-002	2.4404228E+001	3.6993977E+004	8.1536773E+004	8.9536586E+004	-6.5595772E+001	0.0000000E+000	0.0000000E+000	0.0000000E+000	6.5595772E+001	0.0000000E+000	0.0000000E+000	0.0000000E+000	-6.5595772E+001	0.0000000E+000	0.0000000E+000	0.0000000E+000	-2.4404228E+001	0.0000000E+000	0.0000000E+000	0.0000000E+000	2.4404228E+001	2.2040553E+000	6.5595772E+001	-9.342663256716550E-008	-1.5161112E-006	3.6525466E+005
4.6441547E+001	2.6674543E+001	1.2133555E+001	2.9304512E+001	-2.4459553E+001	1.139252395441872E+001	7.4415529E-001	-2.3350315E-003	2.8243945E+002	4.8420864E+001	1.000000000000000E+000	11	4.8709852E-003	1.6621963E-004	0	-1.770753954360569E-005	3.1061899E-002	1.4129249E-002	3.4124438E-002	2.4459553E+001	4.8420859E+004	1.0644897E+005	1.1694427E+005	-6.5540451E+001	0.0000000E+000	0.0000000E+000	0.0000000E+000	6.5540451E+001	0.0000000E+000	0.0000000E+000	0.0000000E+000	-6.5540451E+001	0.0000000E+000	0.0000000E+000	0.0000000E+000	-2.4459553E+001	0.0000000E+000	0.0000000E+000	0.0000000E+000	2.4459553E+001	2.1984112E+000	6.5540451E+001	-2.315401491020261E-007	-1.7376260E-006	3.1869175E+005
3.1629555E+001	3.0060322E+001	1.3372483E+001	3.2900551E+001	-2.3982128E+001	1.183843610892654E+001	7.4414581E-001	-2.4819125E-003	3.7628336E+002	6.2163113E+001	1.000000000000000E+000	11	4.8759142E-003	1.4820159E-004	0	-1.806218553252741E-005	2.7770730E-002	1.2353947E-002	3.0394629E-002	2.3982128E+001	6.2163129E+004	1.3973794E+005	1.5294098E+005	-6.6017868E+001	0.0000000E+000	0.0000000E+000	0.0000000E+000	6.6017868E+001	0.0000000E+000	0.0000000E+000	0.0000000E+000	-6.6017868E+001	0.0000000E+000	0.0000000E+000	0.0000000E+000	-2.3982128E+001	0.0000000E+000	0.0000000E+000	0.0000000E+000	2.3982128E+001	2.2479236E+000	6.6017868E+001	-3.546459889217247E-007	-1.8469048E-006	2.9982756E+005
2.1551722E+001	3.3705608E+001	1.4310421E+001	3.6617702E+001	-2.3004665E+001	1.227736511643161E+001	7.4414736E-001	-2.7447704E-003	5.1604279E+002	7.8814911E+001	1.000000000000000E+000	11	4.8628603E-003	1.3280081E-004	0	-1.843516576942622E-005	2.5137378E-002	1.0672600E-002	2.7309196E-002	2.3004665E+001	7.8814922E+004	1.8563425E+005	2.0167267E+005	-6.6995331E+001	0.0000000E+000	0.0000000E+000	0.0000000E+000	6.6995331E+001	0.0000000E+000	0.0000000E+000	0.0000000E+000	-6.6995331E+001	0.0000000E+000	0.0000000E+000	0.0000000E+000	-2.3004665E+001	0.0000000E+000	0.0000000E+000	0.0000000E+000	2.3004665E+001	2.3553190E+000	6.6995331E+001	-3.729802368988116E-007	-2.0425136E-006	2.7111463E+005
1.4685154E+001	3.7778732E+001	1.5017255E+001	4.0654034E+001	-2.1678095E+001	1.275503540583304E+001	7.4415135E-001	-2.1671150E-003	7.2169061E+002	9.8474747E+001	1.000000000000000E+000	11	4.8701502E-003	1.1979500E-004	0	-1.853632958209588E-005	2.2858098E-002	9.0862205E-003	2.4597805E-002	2.1678095E+001	9.8474750E+004	2.4773178E+005	2.6658641E+005	-6.8321907E+001	0.0000000E+000	0.0000000E+000	0.0000000E+000	6.8321907E+001	0.0000000E+000	0.0000000E+000	0.0000000E+000	-6.8321907E+001	0.0000000E+000	0.0000000E+000	0.0000000E+000	-2.1678095E+001	0.0000000E+000	0.0000000E+000	0.0000000E+000	2.1678095E+001	2.5156884E+000	6.8321907E+001	-1.011638126696613E-007	-1.6126615E-006	3.4338341E+005
