EC-Lab ASCII FILE
Nb header lines : 63                          

Potentio Electrochemical Impedance Spectroscopy

Run on channel : 3 (SN 65921)
User : 
CE vs. WE compliance from -10 V to 10 V
Electrode connection : standard
Potential control : Ewe
Ewe ctrl range : min = -10.00 V, max = 10.00 V
Safety Limits :
	Do not start on E overload
Acquisition started on : 09/12/2025 09:48:42.600
Loaded Setting File :  C:\Users\Celltest\OneDrive - store-dot.com\Documents\EC-Lab\Data\Charmaine\R279\17382_C01.mpr
Saved on :
	File : 17461_C03.mpr
	Directory : C:\Users\Celltest\OneDrive - store-dot.com\Documents\EC-Lab\Data\Gyutae\R277\
	Host : 169.254.61.224
Device : VMP-3e (SN .003165)
Address : USB
EC-LAB for windows v11.62 (software)
Internet server v27.00 (firmware)
Command interpretor v12.03 (firmware)
Electrode material : 
Initial state : 
Electrolyte : 
Comments : 
Electrode surface area : 0.001 cm²
Characteristic mass : 0.001 g
Equivalent Weight : 0.000 g/eq.
Density : 0.000 g/cm3
Volume (V) : 0.001 cm³
Cycle Definition : Charge/Discharge alternance
Mode                Single sine         
E (V)               0.0000              
vs.                 Eoc                 
tE (h:m:s)          0:00:0.0000         
record              0                   
dI                  0.000               
unit dI             mA                  
dt (s)              0.000               
fi                  100.000             
unit fi             kHz                 
ff                  10.000              
unit ff             mHz                 
Nd                  6                   
Points              per decade          
spacing             Logarithmic         
Va (mV)             5.0                 
pw                  0.10                
Na                  2                   
corr                0                   
E range min (V)     -10.000             
E range max (V)     10.000              
I Range             Auto                
Bandwidth           5                   
nc cycles           0                   
goto Ns'            0                   
nr cycles           0                   
inc. cycle          0                   

freq/Hz	Re(Z)/Ohm	-Im(Z)/Ohm	|Z|/Ohm	Phase(Z)/deg	time/s	<Ewe>/V	<I>/mA	Cs/µF	Cp/µF	cycle number	I Range	|Ewe|/V	|I|/A	Ns	(Q-Qo)/mA.h	Re(Y)/Ohm-1	Im(Y)/Ohm-1	|Y|/Ohm-1	Phase(Y)/deg	Re(C)/nF	Im(C)/nF	|C|/nF	Phase(C)/deg	Re(M)	Im(M)	|M|	Phase(M)/deg	Re(Permittivity)	Im(Permittivity)	|Permittivity|	Phase(Permittivity)/deg	Re(Resistivity)/Ohm.cm	Im(Resistivity)/Ohm.cm	|Resistivity|/Ohm.cm	Phase(Resistivity)/deg	Re(Conductivity)/mS/cm	Im(Conductivity)/mS/cm	|Conductivity|/mS/cm	Phase(Conductivity)/deg	Tan(Delta)	Loss Angle(Delta)/deg	dq/mA.h	Pwe/W	Rwe/Ohm	
1.0000371E+005	1.3053995E+000	2.7581924E-001	1.3342204E+000	-1.1930609E+001	1.865480701933848E+000	2.7473277E-001	-8.4720198E-003	5.7700481E+000	2.4658883E-001	1.000000000000000E+000	9	4.5744195E-003	3.4285337E-003	0	-1.459407547232695E-005	7.3331112E-001	1.5494210E-001	7.4950135E-001	1.1930609E+001	2.4658888E+002	1.1670576E+003	1.1928242E+003	-7.8069389E+001	0.0000000E+000	0.0000000E+000	0.0000000E+000	7.8069389E+001	0.0000000E+000	0.0000000E+000	0.0000000E+000	-7.8069389E+001	0.0000000E+000	0.0000000E+000	0.0000000E+000	-1.1930609E+001	0.0000000E+000	0.0000000E+000	0.0000000E+000	1.1930609E+001	4.7328081E+000	7.8069389E+001	-1.459407547232695E-005	-2.3275416E-006	3.2428250E+004
6.8132047E+004	1.3720651E+000	3.0111966E-001	1.4047190E+000	-1.2378154E+001	2.302487175998976E+000	2.7474770E-001	3.4789267E-004	7.7576394E+000	3.5647485E-001	1.000000000000000E+000	9	5.4927855E-003	3.9102379E-003	0	-1.285652948905610E-005	6.9533771E-001	1.5260200E-001	7.1188617E-001	1.2378154E+001	3.5647476E+002	1.6242933E+003	1.6629501E+003	-7.7621849E+001	0.0000000E+000	0.0000000E+000	0.0000000E+000	7.7621849E+001	0.0000000E+000	0.0000000E+000	0.0000000E+000	-7.7621849E+001	0.0000000E+000	0.0000000E+000	0.0000000E+000	-1.2378154E+001	0.0000000E+000	0.0000000E+000	0.0000000E+000	1.2378154E+001	4.5565443E+000	7.7621849E+001	1.737545983270844E-006	9.5582713E-008	7.8974844E+005
4.6420355E+004	1.4465423E+000	3.3014366E-001	1.4837383E+000	-1.2856383E+001	2.880499336781213E+000	2.7474558E-001	-7.9499129E-003	1.0385054E+001	5.1416206E-001	1.000000000000000E+000	9	5.0275060E-003	3.3884048E-003	0	-2.929124187419398E-006	6.5707737E-001	1.4996447E-001	6.7397332E-001	1.2856383E+001	5.1416211E+002	2.2528289E+003	2.3107576E+003	-7.7143616E+001	0.0000000E+000	0.0000000E+000	0.0000000E+000	7.7143616E+001	0.0000000E+000	0.0000000E+000	0.0000000E+000	-7.7143616E+001	0.0000000E+000	0.0000000E+000	0.0000000E+000	-1.2856383E+001	0.0000000E+000	0.0000000E+000	0.0000000E+000	1.2856383E+001	4.3815541E+000	7.7143616E+001	9.927405301636706E-006	-2.1842034E-006	3.4559570E+004
3.1621139E+004	1.5222946E+000	3.6726269E-001	1.5659703E+000	-1.3563757E+001	3.317484744213289E+000	2.7471301E-001	-4.2019128E-003	1.3704583E+001	7.5379354E-001	1.000000000000000E+000	9	5.4810233E-003	3.5000814E-003	0	7.995186750000964E-007	6.2077135E-001	1.4976481E-001	6.3858169E-001	1.3563757E+001	7.5379364E+002	3.1244553E+003	3.2140979E+003	-7.6436241E+001	0.0000000E+000	0.0000000E+000	0.0000000E+000	7.6436241E+001	0.0000000E+000	0.0000000E+000	0.0000000E+000	-7.6436241E+001	0.0000000E+000	0.0000000E+000	0.0000000E+000	-1.3563757E+001	0.0000000E+000	0.0000000E+000	0.0000000E+000	1.3563757E+001	4.1449747E+000	7.6436241E+001	3.728642862419494E-006	-1.1543201E-006	6.5378086E+004
2.1544684E+004	1.6079689E+000	4.1061375E-001	1.6595685E+000	-1.4325010E+001	3.754499031609157E+000	2.7473527E-001	3.4619197E-003	1.7990637E+001	1.1013443E+000	1.000000000000000E+000	9	5.3232759E-003	3.2076265E-003	0	-1.214880095587836E-006	5.8383113E-001	1.4908813E-001	6.0256624E-001	1.4325010E+001	1.1013444E+003	4.3128789E+003	4.4512788E+003	-7.5674988E+001	0.0000000E+000	0.0000000E+000	0.0000000E+000	7.5674988E+001	0.0000000E+000	0.0000000E+000	0.0000000E+000	-7.5674988E+001	0.0000000E+000	0.0000000E+000	0.0000000E+000	-1.4325010E+001	0.0000000E+000	0.0000000E+000	0.0000000E+000	1.4325010E+001	3.9160135E+000	7.5674988E+001	-2.014398770587932E-006	9.5111147E-007	7.9359227E+004
1.4678594E+004	1.7041805E+000	4.6020469E-001	1.7652251E+000	-1.5111956E+001	4.191491052362835E+000	2.7473792E-001	-4.7255328E-004	2.3560507E+001	1.6013510E+000	1.000000000000000E+000	9	5.1548318E-003	2.9202122E-003	0	-5.006639150572785E-006	5.4690945E-001	1.4768992E-001	5.6650001E-001	1.5111956E+001	1.6013510E+003	5.9299512E+003	6.1423647E+003	-7.4888046E+001	0.0000000E+000	0.0000000E+000	0.0000000E+000	7.4888046E+001	0.0000000E+000	0.0000000E+000	0.0000000E+000	-7.4888046E+001	0.0000000E+000	0.0000000E+000	0.0000000E+000	-1.5111956E+001	0.0000000E+000	0.0000000E+000	0.0000000E+000	1.5111956E+001	3.7030923E+000	7.4888046E+001	-3.791759054984949E-006	-1.2982831E-007	5.8139038E+005
1.0002226E+004	1.8080342E+000	5.1676273E-001	1.8804338E+000	-1.5950715E+001	4.628477259801002E+000	2.7474687E-001	9.5594088E-003	3.0791605E+001	2.3254049E+000	1.000000000000000E+000	9	5.1060971E-003	2.7153825E-003	0	-5.017104868550733E-006	5.1131731E-001	1.4614201E-001	5.3179216E-001	1.5950715E+001	2.3254048E+003	8.1360581E+003	8.4618525E+003	-7.4049286E+001	0.0000000E+000	0.0000000E+000	0.0000000E+000	7.4049286E+001	0.0000000E+000	0.0000000E+000	0.0000000E+000	-7.4049286E+001	0.0000000E+000	0.0000000E+000	0.0000000E+000	-1.5950715E+001	0.0000000E+000	0.0000000E+000	0.0000000E+000	1.5950715E+001	3.4987705E+000	7.4049286E+001	-1.046571797794802E-008	2.6264177E-006	2.8740990E+004
6.8110674E+003	1.9294149E+000	5.8493650E-001	2.0161331E+000	-1.6865616E+001	5.006511624407722E+000	2.7467114E-001	-2.3221646E-002	3.9948109E+001	3.3626006E+000	1.000000000000000E+000	9	5.2325092E-003	2.5953194E-003	0	-4.847716211650145E-006	4.7466505E-001	1.4390317E-001	4.9599901E-001	1.6865616E+001	3.3626011E+003	1.1091549E+004	1.1590063E+004	-7.3134384E+001	0.0000000E+000	0.0000000E+000	0.0000000E+000	7.3134384E+001	0.0000000E+000	0.0000000E+000	0.0000000E+000	-7.3134384E+001	0.0000000E+000	0.0000000E+000	0.0000000E+000	-1.6865616E+001	0.0000000E+000	0.0000000E+000	0.0000000E+000	1.6865616E+001	3.2985032E+000	7.3134384E+001	1.693886569005883E-007	-6.3783159E-006	1.1828237E+004
4.6414854E+003	2.0641477E+000	6.5941161E-001	2.1669171E+000	-1.7716576E+001	5.477707166865002E+000	2.7475849E-001	2.4887053E-002	5.2000385E+001	4.8154306E+000	1.000000000000000E+000	9	5.2065616E-003	2.4027508E-003	0	9.871130094527164E-008	4.3959850E-001	1.4043391E-001	4.6148512E-001	1.7716576E+001	4.8154312E+003	1.5073682E+004	1.5824167E+004	-7.2283424E+001	0.0000000E+000	0.0000000E+000	0.0000000E+000	7.2283424E+001	0.0000000E+000	0.0000000E+000	0.0000000E+000	-7.2283424E+001	0.0000000E+000	0.0000000E+000	0.0000000E+000	-1.7716576E+001	0.0000000E+000	0.0000000E+000	0.0000000E+000	1.7716576E+001	3.1302872E+000	7.2283424E+001	4.946427512595416E-006	6.8379290E-006	1.1040218E+004
3.1610117E+003	2.2236278E+000	7.5825435E-001	2.3493552E+000	-1.8829313E+001	5.944668522381107E+000	2.7474537E-001	2.4942985E-002	6.6401688E+001	6.9169011E+000	1.000000000000000E+000	9	5.1574605E-003	2.1952663E-003	0	1.897903273341298E-006	4.0286979E-001	1.3737810E-001	4.2564869E-001	1.8829313E+001	6.9169019E+003	2.0284240E+004	2.1431145E+004	-7.1170685E+001	0.0000000E+000	0.0000000E+000	0.0000000E+000	7.1170685E+001	0.0000000E+000	0.0000000E+000	0.0000000E+000	-7.1170685E+001	0.0000000E+000	0.0000000E+000	0.0000000E+000	-1.8829313E+001	0.0000000E+000	0.0000000E+000	0.0000000E+000	1.8829313E+001	2.9325619E+000	7.1170685E+001	1.799191972396026E-006	6.8529698E-006	1.1014936E+004
2.1556899E+003	2.4016271E+000	8.6500126E-001	2.5526536E+000	-1.9807652E+001	6.411702464560221E+000	2.7476367E-001	2.5036210E-002	8.5352669E+001	9.8009195E+000	1.000000000000000E+000	9	5.0989296E-003	1.9975016E-003	0	6.614366849562632E-006	3.6857158E-001	1.3274953E-001	3.9174920E-001	1.9807652E+001	9.8009189E+003	2.7211701E+004	2.8922910E+004	-7.0192352E+001	0.0000000E+000	0.0000000E+000	0.0000000E+000	7.0192352E+001	0.0000000E+000	0.0000000E+000	0.0000000E+000	-7.0192352E+001	0.0000000E+000	0.0000000E+000	0.0000000E+000	-1.9807652E+001	0.0000000E+000	0.0000000E+000	0.0000000E+000	1.9807652E+001	2.7764435E+000	7.0192352E+001	4.716463576221334E-006	6.8790409E-006	1.0974651E+004
1.4685898E+003	2.6158185E+000	9.7995967E-001	2.7933540E+000	-2.0537373E+001	6.878952113416744E+000	2.7476379E-001	2.6005834E-002	1.1058887E+002	1.3610556E+001	1.000000000000000E+000	9	5.0575566E-003	1.8105677E-003	0	9.531083616757921E-006	3.3523983E-001	1.2559034E-001	3.5799256E-001	2.0537373E+001	1.3610552E+004	3.6330820E+004	3.8796594E+004	-6.9462631E+001	0.0000000E+000	0.0000000E+000	0.0000000E+000	6.9462631E+001	0.0000000E+000	0.0000000E+000	0.0000000E+000	-6.9462631E+001	0.0000000E+000	0.0000000E+000	0.0000000E+000	-2.0537373E+001	0.0000000E+000	0.0000000E+000	0.0000000E+000	2.0537373E+001	2.6693125E+000	6.9462631E+001	2.916716767195289E-006	7.1454615E-006	1.0565468E+004
1.0003202E+003	2.8542066E+000	1.1100240E+000	3.0624578E+000	-2.1251461E+001	7.347698695688450E+000	2.7475375E-001	2.8150206E-002	1.4333385E+002	1.8830994E+001	1.000000000000000E+000	9	5.0289417E-003	1.6421260E-003	0	1.254422456454874E-005	3.0433026E-001	1.1835650E-001	3.2653511E-001	2.1251461E+001	1.8830996E+004	4.8420164E+004	5.1953043E+004	-6.8748535E+001	0.0000000E+000	0.0000000E+000	0.0000000E+000	6.8748535E+001	0.0000000E+000	0.0000000E+000	0.0000000E+000	-6.8748535E+001	0.0000000E+000	0.0000000E+000	0.0000000E+000	-2.1251461E+001	0.0000000E+000	0.0000000E+000	0.0000000E+000	2.1251461E+001	2.5713017E+000	6.8748535E+001	3.013140947790816E-006	7.7343748E-006	9.7602744E+003
6.8108978E+002	3.1150374E+000	1.2433534E+000	3.3540103E+000	-2.1759195E+001	8.067432436480885E+000	2.7475706E-001	-2.7445186E-002	1.8794086E+002	2.5827452E+001	1.000000000000000E+000	10	5.0717918E-003	1.5121575E-003	0	1.055746328373466E-005	2.7690732E-001	1.1052634E-001	2.9815054E-001	2.1759195E+001	2.5827453E+004	6.4706852E+004	6.9670898E+004	-6.8240807E+001	0.0000000E+000	0.0000000E+000	0.0000000E+000	6.8240807E+001	0.0000000E+000	0.0000000E+000	0.0000000E+000	-6.8240807E+001	0.0000000E+000	0.0000000E+000	0.0000000E+000	-2.1759195E+001	0.0000000E+000	0.0000000E+000	0.0000000E+000	2.1759195E+001	2.5053518E+000	6.8240807E+001	-1.986761280814081E-006	-7.5407584E-006	1.0011120E+004
4.6396069E+002	3.4244678E+000	1.3913568E+000	3.6963298E+000	-2.2111843E+001	8.536186378769344E+000	2.7475914E-001	-2.6990263E-002	2.4654738E+002	3.4933010E+001	1.000000000000000E+000	10	5.0368542E-003	1.3626636E-003	0	7.890267572954245E-006	2.5064075E-001	1.0183500E-001	2.7053863E-001	2.2111843E+001	3.4933020E+004	8.5978648E+004	9.2804328E+004	-6.7888153E+001	0.0000000E+000	0.0000000E+000	0.0000000E+000	6.7888153E+001	0.0000000E+000	0.0000000E+000	0.0000000E+000	-6.7888153E+001	0.0000000E+000	0.0000000E+000	0.0000000E+000	-2.2111843E+001	0.0000000E+000	0.0000000E+000	0.0000000E+000	2.2111843E+001	2.4612434E+000	6.7888153E+001	-2.667195710780410E-006	-7.4158215E-006	1.0179936E+004
3.1631589E+002	3.7718728E+000	1.5587595E+000	4.0812688E+000	-2.2453289E+001	9.002936294273240E+000	2.7475402E-001	-2.6031941E-002	3.2278998E+002	4.7085571E+001	1.000000000000000E+000	10	5.0104624E-003	1.2276727E-003	0	4.803409986278792E-006	2.2644705E-001	9.3581222E-002	2.4502185E-001	2.2453289E+001	4.7085578E+004	1.1393726E+005	1.2328321E+005	-6.7546707E+001	0.0000000E+000	0.0000000E+000	0.0000000E+000	6.7546707E+001	0.0000000E+000	0.0000000E+000	0.0000000E+000	-6.7546707E+001	0.0000000E+000	0.0000000E+000	0.0000000E+000	-2.2453289E+001	0.0000000E+000	0.0000000E+000	0.0000000E+000	2.2453289E+001	2.4197915E+000	6.7546707E+001	-3.086857586675453E-006	-7.1523805E-006	1.0554496E+004
2.1534457E+002	4.1809473E+000	1.7281553E+000	4.5240293E+000	-2.2457294E+001	9.470409916451899E+000	2.7475256E-001	-2.5987193E-002	4.2766473E+002	6.2404823E+001	1.000000000000000E+000	10	4.9920268E-003	1.1034471E-003	0	8.037443979669156E-007	2.0427907E-001	8.4436834E-002	2.2104189E-001	2.2457294E+001	6.2404813E+004	1.5097677E+005	1.6336567E+005	-6.7542709E+001	0.0000000E+000	0.0000000E+000	0.0000000E+000	6.7542709E+001	0.0000000E+000	0.0000000E+000	0.0000000E+000	-6.7542709E+001	0.0000000E+000	0.0000000E+000	0.0000000E+000	-2.2457294E+001	0.0000000E+000	0.0000000E+000	0.0000000E+000	2.2457294E+001	2.4193122E+000	6.7542709E+001	-3.999665588311877E-006	-7.1400477E-006	1.0572614E+004
1.4673740E+002	4.6507492E+000	1.9051377E+000	5.0258350E+000	-2.2276018E+001	9.933387271797983E+000	2.7475819E-001	-2.4232762E-002	5.6931543E+002	8.1806763E+001	1.000000000000000E+000	10	4.9837907E-003	9.9163433E-004	0	-2.134835413708869E-006	1.8412234E-001	7.5424060E-002	1.9897191E-001	2.2276018E+001	8.1806766E+004	1.9970356E+005	2.1580978E+005	-6.7723984E+001	0.0000000E+000	0.0000000E+000	0.0000000E+000	6.7723984E+001	0.0000000E+000	0.0000000E+000	0.0000000E+000	-6.7723984E+001	0.0000000E+000	0.0000000E+000	0.0000000E+000	-2.2276018E+001	0.0000000E+000	0.0000000E+000	0.0000000E+000	2.2276018E+001	2.4411619E+000	6.7723984E+001	-2.938579811675785E-006	-6.6581497E-006	1.1338295E+004
1.0003201E+002	5.1949005E+000	2.0472512E+000	5.5837469E+000	-2.1508837E+001	1.040168865407759E+001	2.7475974E-001	-2.4266319E-002	7.7715924E+002	1.0447222E+002	1.000000000000000E+000	10	4.9772779E-003	8.9138676E-004	0	-4.885430030078472E-006	1.6661949E-001	6.5662846E-002	1.7909122E-001	2.1508837E+001	1.0447221E+005	2.6509828E+005	2.8494128E+005	-6.8491165E+001	0.0000000E+000	0.0000000E+000	0.0000000E+000	6.8491165E+001	0.0000000E+000	0.0000000E+000	0.0000000E+000	-6.8491165E+001	0.0000000E+000	0.0000000E+000	0.0000000E+000	-2.1508837E+001	0.0000000E+000	0.0000000E+000	0.0000000E+000	2.1508837E+001	2.5375001E+000	6.8491165E+001	-2.750594616369603E-006	-6.6674074E-006	1.1322679E+004
6.8103981E+001	5.7962255E+000	2.1135724E+000	6.1695557E+000	-2.0034201E+001	1.088033521009493E+001	2.7476078E-001	-2.3032067E-002	1.1056826E+003	1.2976482E+002	1.000000000000000E+000	10	4.9683205E-003	8.0529629E-004	0	-7.623005692167984E-006	1.5227813E-001	5.5527665E-002	1.6208623E-001	2.0034201E+001	1.2976484E+005	3.5586488E+005	3.7878584E+005	-6.9965797E+001	0.0000000E+000	0.0000000E+000	0.0000000E+000	6.9965797E+001	0.0000000E+000	0.0000000E+000	0.0000000E+000	-6.9965797E+001	0.0000000E+000	0.0000000E+000	0.0000000E+000	-2.0034201E+001	0.0000000E+000	0.0000000E+000	0.0000000E+000	2.0034201E+001	2.7423832E+000	6.9965797E+001	-2.737575662089512E-006	-6.3283087E-006	1.1929488E+004
4.6441547E+001	6.4162569E+000	2.1004491E+000	6.7513137E+000	-1.8126564E+001	1.133555968504515E+001	2.7475211E-001	-2.4454642E-002	1.6315535E+003	1.5792433E+002	1.000000000000000E+000	10	4.9670110E-003	7.3571032E-004	0	-1.089360301492787E-005	1.4076839E-001	4.6082448E-002	1.4811932E-001	1.8126564E+001	1.5792433E+005	4.8241256E+005	5.0760416E+005	-7.1873436E+001	0.0000000E+000	0.0000000E+000	0.0000000E+000	7.1873436E+001	0.0000000E+000	0.0000000E+000	0.0000000E+000	-7.1873436E+001	0.0000000E+000	0.0000000E+000	0.0000000E+000	-1.8126564E+001	0.0000000E+000	0.0000000E+000	0.0000000E+000	1.8126564E+001	3.0547073E+000	7.1873436E+001	-3.270597322759891E-006	-6.7189644E-006	1.1235172E+004
3.1629555E+001	7.0205879E+000	1.9926933E+000	7.2979093E+000	-1.5845834E+001	1.178244546629139E+001	2.7474645E-001	-2.5185501E-002	2.5251465E+003	1.8826543E+002	1.000000000000000E+000	10	4.9747680E-003	6.8167032E-004	0	-1.378610668057162E-005	1.3181856E-001	3.7414812E-002	1.3702555E-001	1.5845834E+001	1.8826542E+005	6.6329025E+005	6.8949100E+005	-7.4154167E+001	0.0000000E+000	0.0000000E+000	0.0000000E+000	7.4154167E+001	0.0000000E+000	0.0000000E+000	0.0000000E+000	-7.4154167E+001	0.0000000E+000	0.0000000E+000	0.0000000E+000	-1.5845834E+001	0.0000000E+000	0.0000000E+000	0.0000000E+000	1.5845834E+001	3.5231652E+000	7.4154167E+001	-2.892503665643743E-006	-6.9196271E-006	1.0908913E+004
2.1551722E+001	7.5369115E+000	1.8163753E+000	7.7526932E+000	-1.3549749E+001	1.222132180709741E+001	2.7475289E-001	-2.6013313E-002	4.0656741E+003	2.2317139E+002	1.000000000000000E+000	10	4.9681789E-003	6.4083264E-004	0	-1.885184373993090E-005	1.2539731E-001	3.0220410E-002	1.2898743E-001	1.3549749E+001	2.2317144E+005	9.2603288E+005	9.5254519E+005	-7.6450249E+001	0.0000000E+000	0.0000000E+000	0.0000000E+000	7.6450249E+001	0.0000000E+000	0.0000000E+000	0.0000000E+000	-7.6450249E+001	0.0000000E+000	0.0000000E+000	0.0000000E+000	-1.3549749E+001	0.0000000E+000	0.0000000E+000	0.0000000E+000	1.3549749E+001	4.1494241E+000	7.6450249E+001	-5.065737059359284E-006	-7.1472327E-006	1.0562011E+004
1.4685154E+001	7.9807401E+000	1.6178706E+000	8.1430779E+000	-1.1459807E+001	1.269905292318435E+001	2.7475303E-001	-2.1493908E-002	6.6988130E+003	2.6442847E+002	1.000000000000000E+000	10	4.9716705E-003	6.1053946E-004	0	-2.129678945586460E-005	1.2035551E-001	2.4398696E-002	1.2280369E-001	1.1459807E+001	2.6442850E+005	1.3043904E+006	1.3309233E+006	-7.8540192E+001	0.0000000E+000	0.0000000E+000	0.0000000E+000	7.8540192E+001	0.0000000E+000	0.0000000E+000	0.0000000E+000	-7.8540192E+001	0.0000000E+000	0.0000000E+000	0.0000000E+000	-1.1459807E+001	0.0000000E+000	0.0000000E+000	0.0000000E+000	1.1459807E+001	4.9328671E+000	7.8540192E+001	-2.444945715933701E-006	-5.9055164E-006	1.2782833E+004
