EC-Lab ASCII FILE
Nb header lines : 64                          

Potentio Electrochemical Impedance Spectroscopy

Run on channel : 6 (SN 65795)
User : 
CE vs. WE compliance from -10 V to 10 V
Electrode connection : standard
Potential control : Ewe
Ewe ctrl range : min = -10.00 V, max = 10.00 V
Safety Limits :
	Do not start on E overload
Acquisition started on : 09/12/2025 10:00:54.865
Technique started on : 09/12/2025 10:00:56.730
Loaded Setting File :  C:\Users\Celltest\OneDrive - store-dot.com\Documents\EC-Lab\Data\Charmaine\R279\17383.mps
Saved on :
	File : 17465_C06.mpr
	Directory : C:\Users\Celltest\OneDrive - store-dot.com\Documents\EC-Lab\Data\Gyutae\R277\
	Host : 169.254.61.224
Device : VMP-3e (SN .003165)
Address : USB
EC-LAB for windows v11.62 (software)
Internet server v27.00 (firmware)
Command interpretor v12.03 (firmware)
Electrode material : 
Initial state : 
Electrolyte : 
Comments : 
Electrode surface area : 0.001 cm²
Characteristic mass : 0.001 g
Equivalent Weight : 0.000 g/eq.
Density : 0.000 g/cm3
Volume (V) : 0.001 cm³
Cycle Definition : Charge/Discharge alternance
Mode                Single sine         
E (V)               0.0000              
vs.                 Eoc                 
tE (h:m:s)          0:00:0.0000         
record              0                   
dI                  0.000               
unit dI             mA                  
dt (s)              0.000               
fi                  100.000             
unit fi             kHz                 
ff                  10.000              
unit ff             mHz                 
Nd                  6                   
Points              per decade          
spacing             Logarithmic         
Va (mV)             5.0                 
pw                  0.10                
Na                  2                   
corr                0                   
E range min (V)     -10.000             
E range max (V)     10.000              
I Range             Auto                
Bandwidth           5                   
nc cycles           0                   
goto Ns'            0                   
nr cycles           0                   
inc. cycle          0                   

freq/Hz	Re(Z)/Ohm	-Im(Z)/Ohm	|Z|/Ohm	Phase(Z)/deg	time/s	<Ewe>/V	<I>/mA	Cs/µF	Cp/µF	cycle number	I Range	|Ewe|/V	|I|/A	Ns	(Q-Qo)/mA.h	Re(Y)/Ohm-1	Im(Y)/Ohm-1	|Y|/Ohm-1	Phase(Y)/deg	Re(C)/nF	Im(C)/nF	|C|/nF	Phase(C)/deg	Re(M)	Im(M)	|M|	Phase(M)/deg	Re(Permittivity)	Im(Permittivity)	|Permittivity|	Phase(Permittivity)/deg	Re(Resistivity)/Ohm.cm	Im(Resistivity)/Ohm.cm	|Resistivity|/Ohm.cm	Phase(Resistivity)/deg	Re(Conductivity)/mS/cm	Im(Conductivity)/mS/cm	|Conductivity|/mS/cm	Phase(Conductivity)/deg	Tan(Delta)	Loss Angle(Delta)/deg	dq/mA.h	Pwe/W	Rwe/Ohm	
1.0000371E+005	1.1073049E+000	2.4307498E-001	1.1336709E+000	-1.2381154E+001	1.865487421891885E+000	2.7301171E-001	4.9796436E-002	6.5473223E+000	3.0100259E-001	1.000000000000000E+000	9	4.7143921E-003	4.1585192E-003	0	-8.108329772949219E-006	8.6157531E-001	1.8913254E-001	8.8209021E-001	1.2381154E+001	3.0100269E+002	1.3711887E+003	1.4038380E+003	-7.7618843E+001	0.0000000E+000	0.0000000E+000	0.0000000E+000	7.7618843E+001	0.0000000E+000	0.0000000E+000	0.0000000E+000	-7.7618843E+001	0.0000000E+000	0.0000000E+000	0.0000000E+000	-1.2381154E+001	0.0000000E+000	0.0000000E+000	0.0000000E+000	1.2381154E+001	4.5554047E+000	7.7618843E+001	-8.108329772949219E-006	1.3595010E-005	5.4825552E+003
6.8132047E+004	1.1679682E+000	2.7077535E-001	1.1989449E+000	-1.3052555E+001	2.443499689368764E+000	2.7299905E-001	4.6853695E-002	8.6269960E+000	4.4002703E-001	1.000000000000000E+000	9	5.0346022E-003	4.1991938E-003	0	7.879586609863004E-006	8.1251717E-001	1.8836954E-001	8.3406669E-001	1.3052555E+001	4.4002695E+002	1.8980221E+003	1.9483612E+003	-7.6947449E+001	0.0000000E+000	0.0000000E+000	0.0000000E+000	7.6947449E+001	0.0000000E+000	0.0000000E+000	0.0000000E+000	-7.6947449E+001	0.0000000E+000	0.0000000E+000	0.0000000E+000	-1.3052555E+001	0.0000000E+000	0.0000000E+000	0.0000000E+000	1.3052555E+001	4.3134212E+000	7.6947449E+001	1.598791638281222E-005	1.2791014E-005	5.8266279E+003
4.6420355E+004	1.2369395E+000	3.0270916E-001	1.2734411E+000	-1.3751397E+001	3.021475050161825E+000	2.7299011E-001	4.8641663E-002	1.1326249E+001	6.3999933E-001	1.000000000000000E+000	9	5.0904728E-003	3.9974153E-003	0	1.099309556310376E-005	7.6276499E-001	1.8666711E-001	7.8527385E-001	1.3751397E+001	6.3999927E+002	2.6151851E+003	2.6923582E+003	-7.6248604E+001	0.0000000E+000	0.0000000E+000	0.0000000E+000	7.6248604E+001	0.0000000E+000	0.0000000E+000	0.0000000E+000	-7.6248604E+001	0.0000000E+000	0.0000000E+000	0.0000000E+000	-1.3751397E+001	0.0000000E+000	0.0000000E+000	0.0000000E+000	1.3751397E+001	4.0862308E+000	7.6248604E+001	3.113508953240752E-006	1.3278693E-005	5.6122690E+003
3.1621139E+004	1.3063287E+000	3.4497261E-001	1.3511109E+000	-1.4792852E+001	3.600488090974977E+000	2.7298421E-001	5.0150260E-002	1.4590092E+001	9.5114172E-001	1.000000000000000E+000	9	4.9945111E-003	3.6965960E-003	0	2.630306423486521E-005	7.1560019E-001	1.8897423E-001	7.4013168E-001	1.4792852E+001	9.5114178E+002	3.6017458E+003	3.7252173E+003	-7.5207146E+001	0.0000000E+000	0.0000000E+000	0.0000000E+000	7.5207146E+001	0.0000000E+000	0.0000000E+000	0.0000000E+000	-7.5207146E+001	0.0000000E+000	0.0000000E+000	0.0000000E+000	-1.4792852E+001	0.0000000E+000	0.0000000E+000	0.0000000E+000	1.4792852E+001	3.7867606E+000	7.5207146E+001	1.530996867176145E-005	1.3690229E-005	5.4433257E+003
2.1544684E+004	1.3900695E+000	3.8831145E-001	1.4432875E+000	-1.5607535E+001	4.037477018398931E+000	2.7297476E-001	4.6518393E-002	1.9023912E+001	1.3770653E+000	1.000000000000000E+000	9	5.4118256E-003	3.7496518E-003	0	3.633409701078199E-005	6.6731483E-001	1.8641226E-001	6.9286263E-001	1.5607535E+001	1.3770652E+003	4.9295898E+003	5.1183164E+003	-7.4392464E+001	0.0000000E+000	0.0000000E+000	0.0000000E+000	7.4392464E+001	0.0000000E+000	0.0000000E+000	0.0000000E+000	-7.4392464E+001	0.0000000E+000	0.0000000E+000	0.0000000E+000	-1.5607535E+001	0.0000000E+000	0.0000000E+000	0.0000000E+000	1.5607535E+001	3.5797799E+000	7.4392464E+001	1.003103277591678E-005	1.2698347E-005	5.8681040E+003
1.4678594E+004	1.4771886E+000	4.3876496E-001	1.5409740E+000	-1.6542843E+001	4.333493992482545E+000	2.7298260E-001	4.7654510E-002	2.4711763E+001	2.0034430E+000	1.000000000000000E+000	9	5.1126820E-003	3.3178248E-003	0	3.976962018222548E-005	6.2207866E-001	1.8477419E-001	6.4894021E-001	1.6542843E+001	2.0034434E+003	6.7449849E+003	7.0362354E+003	-7.3457153E+001	0.0000000E+000	0.0000000E+000	0.0000000E+000	7.3457153E+001	0.0000000E+000	0.0000000E+000	0.0000000E+000	-7.3457153E+001	0.0000000E+000	0.0000000E+000	0.0000000E+000	-1.6542843E+001	0.0000000E+000	0.0000000E+000	0.0000000E+000	1.6542843E+001	3.3666968E+000	7.3457153E+001	3.435523171443488E-006	1.3008852E-005	5.7283687E+003
1.0002226E+004	1.5747277E+000	4.9980876E-001	1.6521429E+000	-1.7609114E+001	4.629483099881327E+000	2.7298793E-001	5.0578617E-002	3.1836082E+001	2.9136150E+000	1.000000000000000E+000	9	4.6463059E-003	2.8122906E-003	0	4.446220687718596E-005	5.7691288E-001	1.8310855E-001	6.0527450E-001	1.7609114E+001	2.9136150E+003	9.1798105E+003	9.6310996E+003	-7.2390884E+001	0.0000000E+000	0.0000000E+000	0.0000000E+000	7.2390884E+001	0.0000000E+000	0.0000000E+000	0.0000000E+000	-7.2390884E+001	0.0000000E+000	0.0000000E+000	0.0000000E+000	-1.7609114E+001	0.0000000E+000	0.0000000E+000	0.0000000E+000	1.7609114E+001	3.1506603E+000	7.2390884E+001	4.692586694960485E-006	1.3807352E-005	5.3972993E+003
6.8110674E+003	1.6958075E+000	5.7113570E-001	1.7894019E+000	-1.8613153E+001	5.184523552918108E+000	2.7274233E-001	-1.0939131E-001	4.0913406E+001	4.1680074E+000	1.000000000000000E+000	9	4.9225041E-003	2.7509215E-003	0	3.012751692813537E-005	5.2961558E-001	1.7837070E-001	5.5884594E-001	1.8613153E+001	4.1680068E+003	1.2375585E+004	1.3058613E+004	-7.1386848E+001	0.0000000E+000	0.0000000E+000	0.0000000E+000	7.1386848E+001	0.0000000E+000	0.0000000E+000	0.0000000E+000	-7.1386848E+001	0.0000000E+000	0.0000000E+000	0.0000000E+000	-1.8613153E+001	0.0000000E+000	0.0000000E+000	0.0000000E+000	1.8613153E+001	2.9691849E+000	7.1386848E+001	-1.433468994905060E-005	-2.9835641E-005	2.4932725E+003
4.6414854E+003	1.8219312E+000	6.5496528E-001	1.9360819E+000	-1.9772984E+001	5.655689601990161E+000	2.7294198E-001	6.9129080E-002	5.2353397E+001	5.9914784E+000	1.000000000000000E+000	9	4.7690230E-003	2.4632341E-003	0	4.069386057286627E-005	4.8605403E-001	1.7473137E-001	5.1650709E-001	1.9772984E+001	5.9914771E+003	1.6666625E+004	1.7710850E+004	-7.0227020E+001	0.0000000E+000	0.0000000E+000	0.0000000E+000	7.0227020E+001	0.0000000E+000	0.0000000E+000	0.0000000E+000	-7.0227020E+001	0.0000000E+000	0.0000000E+000	0.0000000E+000	-1.9772984E+001	0.0000000E+000	0.0000000E+000	0.0000000E+000	1.9772984E+001	2.7817218E+000	7.0227020E+001	1.056634364473090E-005	1.8868228E-005	3.9482947E+003
3.1610117E+003	1.9780421E+000	7.4706221E-001	2.1144154E+000	-2.0690428E+001	6.122696584170626E+000	2.7294400E-001	6.6558830E-002	6.7396484E+001	8.4133730E+000	1.000000000000000E+000	9	4.6923901E-003	2.2192376E-003	0	4.782081899432362E-005	4.4244054E-001	1.6709988E-001	4.7294396E-001	2.0690428E+001	8.4133740E+003	2.2276602E+004	2.3812430E+004	-6.9309570E+001	0.0000000E+000	0.0000000E+000	0.0000000E+000	6.9309570E+001	0.0000000E+000	0.0000000E+000	0.0000000E+000	-6.9309570E+001	0.0000000E+000	0.0000000E+000	0.0000000E+000	-2.0690428E+001	0.0000000E+000	0.0000000E+000	0.0000000E+000	2.0690428E+001	2.6477609E+000	6.9309570E+001	7.126958421457350E-006	1.8166833E-005	4.1007935E+003
2.1556899E+003	2.1429298E+000	8.5702902E-001	2.3079529E+000	-2.1798117E+001	6.589685433013074E+000	2.7294418E-001	6.9017306E-002	8.6146629E+001	1.1878880E+001	1.000000000000000E+000	9	4.6454952E-003	2.0128207E-003	0	5.631130282257477E-005	4.0230373E-001	1.6089466E-001	4.3328440E-001	2.1798117E+001	1.1878882E+004	2.9702150E+004	3.1989461E+004	-6.8201881E+001	0.0000000E+000	0.0000000E+000	0.0000000E+000	6.8201881E+001	0.0000000E+000	0.0000000E+000	0.0000000E+000	-6.8201881E+001	0.0000000E+000	0.0000000E+000	0.0000000E+000	-2.1798117E+001	0.0000000E+000	0.0000000E+000	0.0000000E+000	2.1798117E+001	2.5004168E+000	6.8201881E+001	8.490483828251147E-006	1.8837873E-005	3.9547209E+003
1.4685898E+003	2.3239276E+000	9.8416752E-001	2.5237324E+000	-2.2952326E+001	7.056936335196951E+000	2.7293989E-001	6.3765064E-002	1.1011604E+002	1.6745651E+001	1.000000000000000E+000	9	4.6142200E-003	1.8283317E-003	0	6.527918161997230E-005	3.6486816E-001	1.5451917E-001	3.9623851E-001	2.2952326E+001	1.6745648E+004	3.9541723E+004	4.2941410E+004	-6.7047676E+001	0.0000000E+000	0.0000000E+000	0.0000000E+000	6.7047676E+001	0.0000000E+000	0.0000000E+000	0.0000000E+000	-6.7047676E+001	0.0000000E+000	0.0000000E+000	0.0000000E+000	-2.2952326E+001	0.0000000E+000	0.0000000E+000	0.0000000E+000	2.2952326E+001	2.3613131E+000	6.7047676E+001	8.967878797397534E-006	1.7404029E-005	4.2803984E+003
1.0003202E+003	2.5380447E+000	1.1426322E+000	2.7833934E+000	-2.4237360E+001	7.525699744139274E+000	2.7294064E-001	6.3578814E-002	1.3924339E+002	2.3465963E+001	1.000000000000000E+000	9	4.6009934E-003	1.6530158E-003	0	7.126696315953611E-005	3.2760465E-001	1.4748821E-001	3.5927367E-001	2.4237360E+001	2.3465961E+004	5.2123211E+004	5.7161879E+004	-6.5762642E+001	0.0000000E+000	0.0000000E+000	0.0000000E+000	6.5762642E+001	0.0000000E+000	0.0000000E+000	0.0000000E+000	-6.5762642E+001	0.0000000E+000	0.0000000E+000	0.0000000E+000	-2.4237360E+001	0.0000000E+000	0.0000000E+000	0.0000000E+000	2.4237360E+001	2.2212262E+000	6.5762642E+001	5.987781539563814E-006	1.7353243E-005	4.2929492E+003
6.8108978E+002	2.7851903E+000	1.3519708E+000	3.0959830E+000	-2.5892591E+001	8.245443564926973E+000	2.7292126E-001	-1.9593032E-002	1.7284167E+002	3.2959904E+001	1.000000000000000E+000	10	4.6604788E-003	1.5053309E-003	0	7.332505529301448E-005	2.9057467E-001	1.4104904E-001	3.2299918E-001	2.5892591E+001	3.2959906E+004	6.7900586E+004	7.5477445E+004	-6.4107407E+001	0.0000000E+000	0.0000000E+000	0.0000000E+000	6.4107407E+001	0.0000000E+000	0.0000000E+000	0.0000000E+000	-6.4107407E+001	0.0000000E+000	0.0000000E+000	0.0000000E+000	-2.5892591E+001	0.0000000E+000	0.0000000E+000	0.0000000E+000	2.5892591E+001	2.0600965E+000	6.4107407E+001	2.058092133478364E-006	-5.3473550E-006	1.3929506E+004
4.6396069E+002	3.0828674E+000	1.6197876E+000	3.4824967E+000	-2.7718149E+001	8.714192413870478E+000	2.7292001E-001	-1.8983740E-002	2.1177802E+002	4.5815830E+001	1.000000000000000E+000	10	4.6378099E-003	1.3317486E-003	0	7.092770973682571E-005	2.5419876E-001	1.3356006E-001	2.8715029E-001	2.7718149E+001	4.5815824E+004	8.7199172E+004	9.8502719E+004	-6.2281853E+001	0.0000000E+000	0.0000000E+000	0.0000000E+000	6.2281853E+001	0.0000000E+000	0.0000000E+000	0.0000000E+000	-6.2281853E+001	0.0000000E+000	0.0000000E+000	0.0000000E+000	-2.7718149E+001	0.0000000E+000	0.0000000E+000	0.0000000E+000	2.7718149E+001	1.9032542E+000	6.2281853E+001	-2.397345556188763E-006	-5.1810425E-006	1.4376515E+004
3.1631589E+002	3.4601452E+000	1.9404887E+000	3.9671276E+000	-2.9284204E+001	9.180900249397382E+000	2.7291811E-001	-1.9076910E-002	2.5929135E+002	6.2038017E+001	1.000000000000000E+000	10	4.6148417E-003	1.1632703E-003	0	6.782703299353469E-005	2.1985786E-001	1.2329879E-001	2.5207156E-001	2.9284204E+001	6.2038020E+004	1.1062191E+005	1.2683029E+005	-6.0715797E+001	0.0000000E+000	0.0000000E+000	0.0000000E+000	6.0715797E+001	0.0000000E+000	0.0000000E+000	0.0000000E+000	-6.0715797E+001	0.0000000E+000	0.0000000E+000	0.0000000E+000	-2.9284204E+001	0.0000000E+000	0.0000000E+000	0.0000000E+000	2.9284204E+001	1.7831309E+000	6.0715797E+001	-3.100676743291025E-006	-5.2064343E-006	1.4306201E+004
2.1534457E+002	3.9457271E+000	2.3118567E+000	4.5731220E+000	-3.0366634E+001	9.648422698228387E+000	2.7292535E-001	-1.8406132E-002	3.1968723E+002	8.1699905E+001	1.000000000000000E+000	10	4.5954003E-003	1.0048716E-003	0	6.488197949334669E-005	1.8866940E-001	1.1054405E-001	2.1866900E-001	3.0366634E+001	8.1699898E+004	1.3944009E+005	1.6161192E+005	-5.9633366E+001	0.0000000E+000	0.0000000E+000	0.0000000E+000	5.9633366E+001	0.0000000E+000	0.0000000E+000	0.0000000E+000	-5.9633366E+001	0.0000000E+000	0.0000000E+000	0.0000000E+000	-3.0366634E+001	0.0000000E+000	0.0000000E+000	0.0000000E+000	3.0366634E+001	1.7067351E+000	5.9633362E+001	-2.945053500187997E-006	-5.0234999E-006	1.4827958E+004
1.4673740E+002	4.5767365E+000	2.6949079E+000	5.3112187E+000	-3.0490744E+001	1.011140224026167E+001	2.7292544E-001	-1.8750841E-002	4.0247171E+002	1.0361792E+002	1.000000000000000E+000	10	4.5836400E-003	8.6301100E-004	0	6.312136340884737E-005	1.6224357E-001	9.5533468E-002	1.8828070E-001	3.0490744E+001	1.0361793E+005	1.7597333E+005	2.0421383E+005	-5.9509254E+001	0.0000000E+000	0.0000000E+000	0.0000000E+000	5.9509254E+001	0.0000000E+000	0.0000000E+000	0.0000000E+000	-5.9509254E+001	0.0000000E+000	0.0000000E+000	0.0000000E+000	-3.0490744E+001	0.0000000E+000	0.0000000E+000	0.0000000E+000	3.0490744E+001	1.6982905E+000	5.9509254E+001	-1.760616084499317E-006	-5.1175816E-006	1.4555370E+004
1.0003201E+002	5.3720999E+000	3.0427618E+000	6.1739659E+000	-2.9527252E+001	1.057970506253332E+001	2.7292424E-001	-1.8026032E-002	5.2289343E+002	1.2700494E+002	1.000000000000000E+000	10	4.5805969E-003	7.4192131E-004	0	6.174884047755040E-005	1.4093395E-001	7.9825103E-002	1.6197044E-001	2.9527252E+001	1.2700495E+005	2.2423156E+005	2.5770147E+005	-6.0472748E+001	0.0000000E+000	0.0000000E+000	0.0000000E+000	6.0472748E+001	0.0000000E+000	0.0000000E+000	0.0000000E+000	-6.0472748E+001	0.0000000E+000	0.0000000E+000	0.0000000E+000	-2.9527252E+001	0.0000000E+000	0.0000000E+000	0.0000000E+000	2.9527252E+001	1.7655342E+000	6.0472748E+001	-1.372522931296978E-006	-4.9197411E-006	1.5140562E+004
6.8103981E+001	6.2927074E+000	3.3044519E+000	7.1075711E+000	-2.7705044E+001	1.105830921852612E+001	2.7293745E-001	-1.5668986E-002	7.0720966E+002	1.5286380E+002	1.000000000000000E+000	10	4.5749908E-003	6.4367853E-004	0	6.034180841119572E-005	1.2456473E-001	6.5411933E-002	1.4069504E-001	2.7705044E+001	1.5286378E+005	2.9110034E+005	3.2879591E+005	-6.2294956E+001	0.0000000E+000	0.0000000E+000	0.0000000E+000	6.2294956E+001	0.0000000E+000	0.0000000E+000	0.0000000E+000	-6.2294956E+001	0.0000000E+000	0.0000000E+000	0.0000000E+000	-2.7705044E+001	0.0000000E+000	0.0000000E+000	0.0000000E+000	2.7705044E+001	1.9043120E+000	6.2294952E+001	-1.407032066354680E-006	-4.2766533E-006	1.7418961E+004
4.6441547E+001	7.3072090E+000	3.3902881E+000	8.0553932E+000	-2.4889643E+001	1.151352790681995E+001	2.7293143E-001	-1.9313563E-002	1.0108271E+003	1.7905093E+002	1.000000000000000E+000	10	4.5741391E-003	5.6783558E-004	0	5.845898146373737E-005	1.1261028E-001	5.2247211E-002	1.2414043E-001	2.4889643E+001	1.7905092E+005	3.8591488E+005	4.2542863E+005	-6.5110359E+001	0.0000000E+000	0.0000000E+000	0.0000000E+000	6.5110359E+001	0.0000000E+000	0.0000000E+000	0.0000000E+000	-6.5110359E+001	0.0000000E+000	0.0000000E+000	0.0000000E+000	-2.4889643E+001	0.0000000E+000	0.0000000E+000	0.0000000E+000	2.4889643E+001	2.1553357E+000	6.5110359E+001	-1.882826947458345E-006	-5.2712780E-006	1.4131594E+004
3.1629555E+001	8.3015795E+000	3.3222904E+000	8.9416904E+000	-2.1811279E+001	1.195944966134266E+001	2.7293003E-001	-2.1104174E-002	1.5145703E+003	2.0908620E+002	1.000000000000000E+000	10	4.5686853E-003	5.1094202E-004	0	5.576505360388829E-005	1.0382966E-001	4.1552614E-002	1.1183567E-001	2.1811279E+001	2.0908620E+005	5.2245450E+005	5.6273950E+005	-6.8188721E+001	0.0000000E+000	0.0000000E+000	0.0000000E+000	6.8188721E+001	0.0000000E+000	0.0000000E+000	0.0000000E+000	-6.8188721E+001	0.0000000E+000	0.0000000E+000	0.0000000E+000	-2.1811279E+001	0.0000000E+000	0.0000000E+000	0.0000000E+000	2.1811279E+001	2.4987519E+000	6.8188721E+001	-2.693927859849076E-006	-5.7599627E-006	1.2932515E+004
2.1551722E+001	9.2331381E+000	3.0964046E+000	9.7385092E+000	-1.8539278E+001	1.239734034883440E+001	2.7292067E-001	-2.4012752E-002	2.3849565E+003	2.4110759E+002	1.000000000000000E+000	10	4.5766099E-003	4.6994974E-004	0	5.382705964935142E-005	9.7356372E-002	3.2649215E-002	1.0268512E-001	1.8539278E+001	2.4110759E+005	7.1895644E+005	7.5830813E+005	-7.1460724E+001	0.0000000E+000	0.0000000E+000	0.0000000E+000	7.1460724E+001	0.0000000E+000	0.0000000E+000	0.0000000E+000	-7.1460724E+001	0.0000000E+000	0.0000000E+000	0.0000000E+000	-1.8539278E+001	0.0000000E+000	0.0000000E+000	0.0000000E+000	1.8539278E+001	2.9818902E+000	7.1460724E+001	-1.937993954536880E-006	-6.5535764E-006	1.1365655E+004
1.4685154E+001	1.0001068E+001	2.8134222E+000	1.0389259E+001	-1.5711938E+001	1.287605266491300E+001	2.7292371E-001	-1.6175801E-002	3.8521812E+003	2.8249277E+002	1.000000000000000E+000	10	4.5700502E-003	4.3988219E-004	0	5.247907584600519E-005	9.2656784E-002	2.6065480E-002	9.6253254E-002	1.5711938E+001	2.8249275E+005	1.0041968E+006	1.0431746E+006	-7.4288063E+001	0.0000000E+000	0.0000000E+000	0.0000000E+000	7.4288063E+001	0.0000000E+000	0.0000000E+000	0.0000000E+000	-7.4288063E+001	0.0000000E+000	0.0000000E+000	0.0000000E+000	-1.5711938E+001	0.0000000E+000	0.0000000E+000	0.0000000E+000	1.5711938E+001	3.5547698E+000	7.4288063E+001	-1.347983803346222E-006	-4.4147596E-006	1.6872346E+004
