EC-Lab ASCII FILE
Nb header lines : 64                          

Potentio Electrochemical Impedance Spectroscopy

Run on channel : 5 (SN 65912)
User : 
CE vs. WE compliance from -10 V to 10 V
Electrode connection : standard
Potential control : Ewe
Ewe ctrl range : min = -10.00 V, max = 10.00 V
Safety Limits :
	Do not start on E overload
Acquisition started on : 09/12/2025 09:49:02.392
Technique started on : 09/12/2025 09:49:04.416
Loaded Setting File :  C:\Users\Celltest\OneDrive - store-dot.com\Documents\EC-Lab\Data\Charmaine\R279\17382_C01.mpr
Saved on :
	File : 17463_C05.mpr
	Directory : C:\Users\Celltest\OneDrive - store-dot.com\Documents\EC-Lab\Data\Gyutae\R277\
	Host : 169.254.61.224
Device : VMP-3e (SN .003165)
Address : USB
EC-LAB for windows v11.62 (software)
Internet server v27.00 (firmware)
Command interpretor v12.03 (firmware)
Electrode material : 
Initial state : 
Electrolyte : 
Comments : 
Electrode surface area : 0.001 cm²
Characteristic mass : 0.001 g
Equivalent Weight : 0.000 g/eq.
Density : 0.000 g/cm3
Volume (V) : 0.001 cm³
Cycle Definition : Charge/Discharge alternance
Mode                Single sine         
E (V)               0.0000              
vs.                 Eoc                 
tE (h:m:s)          0:00:0.0000         
record              0                   
dI                  0.000               
unit dI             mA                  
dt (s)              0.000               
fi                  100.000             
unit fi             kHz                 
ff                  10.000              
unit ff             mHz                 
Nd                  6                   
Points              per decade          
spacing             Logarithmic         
Va (mV)             5.0                 
pw                  0.10                
Na                  2                   
corr                0                   
E range min (V)     -10.000             
E range max (V)     10.000              
I Range             Auto                
Bandwidth           5                   
nc cycles           0                   
goto Ns'            0                   
nr cycles           0                   
inc. cycle          0                   

freq/Hz	Re(Z)/Ohm	-Im(Z)/Ohm	|Z|/Ohm	Phase(Z)/deg	time/s	<Ewe>/V	<I>/mA	Cs/µF	Cp/µF	cycle number	I Range	|Ewe|/V	|I|/A	Ns	(Q-Qo)/mA.h	Re(Y)/Ohm-1	Im(Y)/Ohm-1	|Y|/Ohm-1	Phase(Y)/deg	Re(C)/nF	Im(C)/nF	|C|/nF	Phase(C)/deg	Re(M)	Im(M)	|M|	Phase(M)/deg	Re(Permittivity)	Im(Permittivity)	|Permittivity|	Phase(Permittivity)/deg	Re(Resistivity)/Ohm.cm	Im(Resistivity)/Ohm.cm	|Resistivity|/Ohm.cm	Phase(Resistivity)/deg	Re(Conductivity)/mS/cm	Im(Conductivity)/mS/cm	|Conductivity|/mS/cm	Phase(Conductivity)/deg	Tan(Delta)	Loss Angle(Delta)/deg	dq/mA.h	Pwe/W	Rwe/Ohm	
1.0000371E+005	1.8415358E+000	3.3619511E-001	1.8719726E+000	-1.0346114E+001	2.024490416137269E+000	2.7489883E-001	-3.9104696E-002	4.7338295E+000	1.5268502E-001	1.000000000000000E+000	9	4.9379431E-003	2.6378287E-003	0	-7.849901964474055E-006	5.2551025E-001	9.5938385E-002	5.3419584E-001	1.0346114E+001	1.5268501E+002	8.3634442E+002	8.5016748E+002	-7.9653885E+001	0.0000000E+000	0.0000000E+000	0.0000000E+000	7.9653885E+001	0.0000000E+000	0.0000000E+000	0.0000000E+000	-7.9653885E+001	0.0000000E+000	0.0000000E+000	0.0000000E+000	-1.0346114E+001	0.0000000E+000	0.0000000E+000	0.0000000E+000	1.0346114E+001	5.4775805E+000	7.9653885E+001	-7.849901964474055E-006	-1.0749835E-005	7.0298164E+003
6.8132047E+004	1.9263110E+000	3.9977181E-001	1.9673566E+000	-1.1724297E+001	2.462486783595523E+000	2.7489841E-001	-3.9681919E-002	5.8432779E+000	2.4127632E-001	1.000000000000000E+000	9	5.4426603E-003	2.7664839E-003	0	-1.515452338347677E-005	4.9769154E-001	1.0328708E-001	5.0829625E-001	1.1724297E+001	2.4127632E+002	1.1625964E+003	1.1873688E+003	-7.8275703E+001	0.0000000E+000	0.0000000E+000	0.0000000E+000	7.8275703E+001	0.0000000E+000	0.0000000E+000	0.0000000E+000	-7.8275703E+001	0.0000000E+000	0.0000000E+000	0.0000000E+000	-1.1724297E+001	0.0000000E+000	0.0000000E+000	0.0000000E+000	1.1724297E+001	4.8185263E+000	7.8275703E+001	-7.304621419002717E-006	-1.0908497E-005	6.9275483E+003
4.6420355E+004	2.0230520E+000	4.4686282E-001	2.0718169E+000	-1.2455803E+001	2.899492297699908E+000	2.7488816E-001	-3.9495714E-002	7.6725097E+000	3.5693008E-001	1.000000000000000E+000	9	5.4558623E-003	2.6333707E-003	0	-2.008353295760591E-005	4.7130743E-001	1.0410497E-001	4.8266813E-001	1.2455803E+001	3.5693008E+002	1.6159054E+003	1.6548563E+003	-7.7544197E+001	0.0000000E+000	0.0000000E+000	0.0000000E+000	7.7544197E+001	0.0000000E+000	0.0000000E+000	0.0000000E+000	-7.7544197E+001	0.0000000E+000	0.0000000E+000	0.0000000E+000	-1.2455803E+001	0.0000000E+000	0.0000000E+000	0.0000000E+000	1.2455803E+001	4.5272326E+000	7.7544197E+001	-4.929009574129143E-006	-1.0856904E-005	6.9599492E+003
3.1621139E+004	2.1238046E+000	5.0666654E-001	2.1834049E+000	-1.3417994E+001	3.336485785112018E+000	2.7489462E-001	-3.6870308E-002	9.9339151E+000	5.3492916E-001	1.000000000000000E+000	9	5.3686979E-003	2.4588651E-003	0	-2.634702773387026E-005	4.4549823E-001	1.0628051E-001	4.5800024E-001	1.3417994E+001	5.3492908E+002	2.2422739E+003	2.3051987E+003	-7.6582008E+001	0.0000000E+000	0.0000000E+000	0.0000000E+000	7.6582008E+001	0.0000000E+000	0.0000000E+000	0.0000000E+000	-7.6582008E+001	0.0000000E+000	0.0000000E+000	0.0000000E+000	-1.3417994E+001	0.0000000E+000	0.0000000E+000	0.0000000E+000	1.3417994E+001	4.1917205E+000	7.6582008E+001	-6.263494776264350E-006	-1.0135450E-005	7.4557183E+003
2.1544684E+004	2.2450337E+000	5.6474364E-001	2.3149755E+000	-1.4119927E+001	3.774497752572643E+000	2.7488357E-001	-4.3145228E-002	1.3080630E+001	7.7846408E-001	1.000000000000000E+000	9	5.3071179E-003	2.2925157E-003	0	-3.131300855411812E-005	4.1891900E-001	1.0538008E-001	4.3197000E-001	1.4119927E+001	7.7846399E+002	3.0946396E+003	3.1910500E+003	-7.5880074E+001	0.0000000E+000	0.0000000E+000	0.0000000E+000	7.5880074E+001	0.0000000E+000	0.0000000E+000	0.0000000E+000	-7.5880074E+001	0.0000000E+000	0.0000000E+000	0.0000000E+000	-1.4119927E+001	0.0000000E+000	0.0000000E+000	0.0000000E+000	1.4119927E+001	3.9753149E+000	7.5880074E+001	-4.965980820247853E-006	-1.1859915E-005	6.3711235E+003
1.4678594E+004	2.3834808E+000	6.3451010E-001	2.4664922E+000	-1.4907069E+001	4.211476786673302E+000	2.7488473E-001	-4.6124429E-002	1.7088232E+001	1.1308753E+000	1.000000000000000E+000	9	5.1718606E-003	2.0968486E-003	0	-3.370206093217712E-005	3.9178893E-001	1.0429873E-001	4.0543407E-001	1.4907069E+001	1.1308751E+003	4.2480327E+003	4.3959824E+003	-7.5092934E+001	0.0000000E+000	0.0000000E+000	0.0000000E+000	7.5092934E+001	0.0000000E+000	0.0000000E+000	0.0000000E+000	-7.5092934E+001	0.0000000E+000	0.0000000E+000	0.0000000E+000	-1.4907069E+001	0.0000000E+000	0.0000000E+000	0.0000000E+000	1.4907069E+001	3.7564111E+000	7.5092934E+001	-2.389052378059003E-006	-1.2678901E-005	5.9596343E+003
1.0002226E+004	2.5258460E+000	7.1003973E-001	2.6237481E+000	-1.5701188E+001	4.648494834109442E+000	2.7488825E-001	-4.2456310E-002	2.2409948E+001	1.6412014E+000	1.000000000000000E+000	9	5.1648836E-003	1.9685135E-003	0	-3.805028486987835E-005	3.6691257E-001	1.0314268E-001	3.8113415E-001	1.5701188E+001	1.6412014E+003	5.8382954E+003	6.0645889E+003	-7.4298813E+001	0.0000000E+000	0.0000000E+000	0.0000000E+000	7.4298813E+001	0.0000000E+000	0.0000000E+000	0.0000000E+000	-7.4298813E+001	0.0000000E+000	0.0000000E+000	0.0000000E+000	-1.5701188E+001	0.0000000E+000	0.0000000E+000	0.0000000E+000	1.5701188E+001	3.5573306E+000	7.4298813E+001	-4.348223937701227E-006	-1.1670741E-005	6.4746147E+003
6.8110674E+003	2.6984656E+000	8.1318009E-001	2.8183291E+000	-1.6770130E+001	5.203507767146220E+000	2.7485996E-001	-5.9810057E-002	2.8735462E+001	2.3922594E+000	1.000000000000000E+000	9	5.0877486E-003	1.8052359E-003	0	-5.068738639004166E-005	3.3972967E-001	1.0237721E-001	3.5482016E-001	1.6770130E+001	2.3922588E+003	7.9385005E+003	8.2911211E+003	-7.3229874E+001	0.0000000E+000	0.0000000E+000	0.0000000E+000	7.3229874E+001	0.0000000E+000	0.0000000E+000	0.0000000E+000	-7.3229874E+001	0.0000000E+000	0.0000000E+000	0.0000000E+000	-1.6770130E+001	0.0000000E+000	0.0000000E+000	0.0000000E+000	1.6770130E+001	3.3184109E+000	7.3229874E+001	-1.263710152016332E-005	-1.6439390E-005	4.5955474E+003
4.6414854E+003	2.8758473E+000	9.1914475E-001	3.0191596E+000	-1.7724314E+001	5.674674056223012E+000	2.7492943E-001	-1.7319435E-002	3.7306046E+001	3.4576015E+000	1.000000000000000E+000	9	5.1907217E-003	1.7192605E-003	0	-5.244915689672375E-005	3.1549588E-001	1.0083511E-001	3.3121800E-001	1.7724314E+001	3.4576011E+003	1.0818245E+004	1.1357352E+004	-7.2275688E+001	0.0000000E+000	0.0000000E+000	0.0000000E+000	7.2275688E+001	0.0000000E+000	0.0000000E+000	0.0000000E+000	-7.2275688E+001	0.0000000E+000	0.0000000E+000	0.0000000E+000	-1.7724314E+001	0.0000000E+000	0.0000000E+000	0.0000000E+000	1.7724314E+001	3.1288297E+000	7.2275688E+001	-1.761770506682090E-006	-4.7616227E-006	1.5874042E+004
3.1610117E+003	3.0937333E+000	1.0566000E+000	3.2691879E+000	-1.8856529E+001	6.141706718401110E+000	2.7492499E-001	-1.9944841E-002	4.7652252E+001	4.9776554E+000	1.000000000000000E+000	9	5.1775174E-003	1.5837320E-003	0	-5.542177398356661E-005	2.8946969E-001	9.8862328E-002	3.0588636E-001	1.8856529E+001	4.9776553E+003	1.4574616E+004	1.5401185E+004	-7.1143471E+001	0.0000000E+000	0.0000000E+000	0.0000000E+000	7.1143471E+001	0.0000000E+000	0.0000000E+000	0.0000000E+000	-7.1143471E+001	0.0000000E+000	0.0000000E+000	0.0000000E+000	-1.8856529E+001	0.0000000E+000	0.0000000E+000	0.0000000E+000	1.8856529E+001	2.9280081E+000	7.1143471E+001	-2.972617086842852E-006	-5.4833354E-006	1.3784266E+004
2.1556899E+003	3.3268244E+000	1.1990395E+000	3.5363054E+000	-1.9819954E+001	6.607669460536272E+000	2.7492940E-001	-2.0335859E-002	6.1574425E+001	7.0789323E+000	1.000000000000000E+000	9	5.1333914E-003	1.4516256E-003	0	-5.724044002188344E-005	2.6602983E-001	9.5881306E-002	2.8278100E-001	1.9819954E+001	7.0789321E+003	1.9641025E+004	2.0877768E+004	-7.0180046E+001	0.0000000E+000	0.0000000E+000	0.0000000E+000	7.0180046E+001	0.0000000E+000	0.0000000E+000	0.0000000E+000	-7.0180046E+001	0.0000000E+000	0.0000000E+000	0.0000000E+000	-1.9819954E+001	0.0000000E+000	0.0000000E+000	0.0000000E+000	1.9819954E+001	2.7745745E+000	7.0180046E+001	-1.818666038316833E-006	-5.5909254E-006	1.3519439E+004
1.4685898E+003	3.6229446E+000	1.3838373E+000	3.8782384E+000	-2.0905096E+001	7.328959068108816E+000	2.7493221E-001	-1.5169441E-002	7.8313126E+001	9.9709301E+000	1.000000000000000E+000	10	5.2023218E-003	1.3414136E-003	0	-5.984606116603633E-005	2.4087554E-001	9.2005976E-002	2.5784904E-001	2.0905096E+001	9.9709297E+003	2.6104313E+004	2.7943775E+004	-6.9094902E+001	0.0000000E+000	0.0000000E+000	0.0000000E+000	6.9094902E+001	0.0000000E+000	0.0000000E+000	0.0000000E+000	-6.9094902E+001	0.0000000E+000	0.0000000E+000	0.0000000E+000	-2.0905096E+001	0.0000000E+000	0.0000000E+000	0.0000000E+000	2.0905096E+001	2.6180422E+000	6.9094902E+001	-2.605621144152890E-006	-4.1705680E-006	1.8124084E+004
1.0003202E+003	3.9396267E+000	1.5709331E+000	4.2412839E+000	-2.1739729E+001	7.797679117058578E+000	2.7493113E-001	-1.5327676E-002	1.0127992E+002	1.3894537E+001	1.000000000000000E+000	10	5.1279017E-003	1.2090447E-003	0	-6.247417876664420E-005	2.1900821E-001	8.7329909E-002	2.3577766E-001	2.1739729E+001	1.3894540E+004	3.4845082E+004	3.7513172E+004	-6.8260269E+001	0.0000000E+000	0.0000000E+000	0.0000000E+000	6.8260269E+001	0.0000000E+000	0.0000000E+000	0.0000000E+000	-6.8260269E+001	0.0000000E+000	0.0000000E+000	0.0000000E+000	-2.1739729E+001	0.0000000E+000	0.0000000E+000	0.0000000E+000	2.1739729E+001	2.5078259E+000	6.8260269E+001	-2.628117600607870E-006	-4.2140555E-006	1.7936908E+004
6.8108978E+002	4.3093424E+000	1.7942642E+000	4.6679564E+000	-2.2605190E+001	8.263417965819826E+000	2.7492261E-001	-1.5193637E-002	1.3023550E+002	1.9241928E+001	1.000000000000000E+000	10	5.0805989E-003	1.0883990E-003	0	-6.415065196438485E-005	1.9776864E-001	8.2344159E-002	2.1422651E-001	2.2605190E+001	1.9241930E+004	4.6213957E+004	5.0059781E+004	-6.7394806E+001	0.0000000E+000	0.0000000E+000	0.0000000E+000	6.7394806E+001	0.0000000E+000	0.0000000E+000	0.0000000E+000	-6.7394806E+001	0.0000000E+000	0.0000000E+000	0.0000000E+000	-2.2605190E+001	0.0000000E+000	0.0000000E+000	0.0000000E+000	2.2605190E+001	2.4017324E+000	6.7394806E+001	-1.676473197740651E-006	-4.1770745E-006	1.8094588E+004
4.6396069E+002	4.7319069E+000	2.0393052E+000	5.1526408E+000	-2.3314545E+001	8.732222628052114E+000	2.7492297E-001	-1.5186194E-002	1.6821188E+002	2.6348835E+001	1.000000000000000E+000	10	5.0480370E-003	9.7969896E-004	0	-6.631266173264279E-005	1.7822821E-001	7.6810837E-002	1.9407524E-001	2.3314545E+001	2.6348836E+004	6.1138586E+004	6.6574680E+004	-6.6685455E+001	0.0000000E+000	0.0000000E+000	0.0000000E+000	6.6685455E+001	0.0000000E+000	0.0000000E+000	0.0000000E+000	-6.6685455E+001	0.0000000E+000	0.0000000E+000	0.0000000E+000	-2.3314545E+001	0.0000000E+000	0.0000000E+000	0.0000000E+000	2.3314545E+001	2.3203526E+000	6.6685455E+001	-2.162009768257936E-006	-4.1750336E-006	1.8103480E+004
3.1631589E+002	5.2155061E+000	2.3279858E+000	5.7114816E+000	-2.4054003E+001	9.198928863595938E+000	2.7492139E-001	-1.4456411E-002	2.1613187E+002	3.5907230E+001	1.000000000000000E+000	10	5.0303256E-003	8.8073919E-004	0	-6.878838503638204E-005	1.5988176E-001	7.1364582E-002	1.7508592E-001	2.4054003E+001	3.5907223E+004	8.0444813E+004	8.8094813E+004	-6.5945999E+001	0.0000000E+000	0.0000000E+000	0.0000000E+000	6.5945999E+001	0.0000000E+000	0.0000000E+000	0.0000000E+000	-6.5945999E+001	0.0000000E+000	0.0000000E+000	0.0000000E+000	-2.4054003E+001	0.0000000E+000	0.0000000E+000	0.0000000E+000	2.4054003E+001	2.2403514E+000	6.5945999E+001	-2.475723303739256E-006	-3.9743763E-006	1.9017264E+004
2.1534457E+002	5.7729239E+000	2.6685736E+000	6.3598690E+000	-2.4809063E+001	9.666446912422543E+000	2.7492532E-001	-1.5176900E-002	2.7695361E+002	4.8760601E+001	1.000000000000000E+000	10	5.0112749E-003	7.8795257E-004	0	-7.095698338091541E-005	1.4272483E-001	6.5975524E-002	1.5723595E-001	2.4809063E+001	4.8760605E+004	1.0548378E+005	1.1620854E+005	-6.5190933E+001	0.0000000E+000	0.0000000E+000	0.0000000E+000	6.5190933E+001	0.0000000E+000	0.0000000E+000	0.0000000E+000	-6.5190933E+001	0.0000000E+000	0.0000000E+000	0.0000000E+000	-2.4809063E+001	0.0000000E+000	0.0000000E+000	0.0000000E+000	2.4809063E+001	2.1632996E+000	6.5190933E+001	-2.168598344533368E-006	-4.1725139E-006	1.8114723E+004
1.4673740E+002	6.4588876E+000	3.0319841E+000	7.1351352E+000	-2.5146687E+001	1.012937904111459E+001	2.7492091E-001	-1.4880896E-002	3.5772757E+002	6.4595436E+001	1.000000000000000E+000	10	5.0057047E-003	7.0155709E-004	0	-7.242739388424768E-005	1.2686835E-001	5.9555590E-002	1.4015152E-001	2.5146687E+001	6.4595426E+004	1.3760450E+005	1.5201173E+005	-6.4853317E+001	0.0000000E+000	0.0000000E+000	0.0000000E+000	6.4853317E+001	0.0000000E+000	0.0000000E+000	0.0000000E+000	-6.4853317E+001	0.0000000E+000	0.0000000E+000	0.0000000E+000	-2.5146687E+001	0.0000000E+000	0.0000000E+000	0.0000000E+000	2.5146687E+001	2.1302512E+000	6.4853317E+001	-1.470410503332266E-006	-4.0910695E-006	1.8474756E+004
1.0003201E+002	7.2664323E+000	3.4221246E+000	8.0319347E+000	-2.5218079E+001	1.059766589005449E+001	2.7492180E-001	-1.4826908E-002	4.6492761E+002	8.4398865E+001	1.000000000000000E+000	10	4.9971063E-003	6.2215474E-004	0	-7.373075306736347E-005	1.1263695E-001	5.3046342E-002	1.2450300E-001	2.5218079E+001	8.4398859E+004	1.7920991E+005	1.9808927E+005	-6.4781921E+001	0.0000000E+000	0.0000000E+000	0.0000000E+000	6.4781921E+001	0.0000000E+000	0.0000000E+000	0.0000000E+000	-6.4781921E+001	0.0000000E+000	0.0000000E+000	0.0000000E+000	-2.5218079E+001	0.0000000E+000	0.0000000E+000	0.0000000E+000	2.5218079E+001	2.1233687E+000	6.4781921E+001	-1.303359183115797E-006	-4.0762402E-006	1.8542086E+004
6.8103981E+001	8.2431631E+000	3.7687578E+000	9.0638447E+000	-2.4569784E+001	1.107630943271215E+001	2.7492595E-001	-1.4298185E-002	6.2008234E+002	1.0720646E+002	1.000000000000000E+000	10	4.9963472E-003	5.5123930E-004	0	-7.514649402001264E-005	1.0033882E-001	4.5874707E-002	1.1032846E-001	2.4569784E+001	1.0720646E+005	2.3448583E+005	2.5783102E+005	-6.5430214E+001	0.0000000E+000	0.0000000E+000	0.0000000E+000	6.5430214E+001	0.0000000E+000	0.0000000E+000	0.0000000E+000	-6.5430214E+001	0.0000000E+000	0.0000000E+000	0.0000000E+000	-2.4569784E+001	0.0000000E+000	0.0000000E+000	0.0000000E+000	2.4569784E+001	2.1872361E+000	6.5430214E+001	-1.415740952649170E-006	-3.9309421E-006	1.9228031E+004
4.6441547E+001	9.3746681E+000	4.0133696E+000	1.0197624E+001	-2.3176149E+001	1.153152756104828E+001	2.7492204E-001	-1.5577177E-002	8.5389465E+002	1.3225880E+002	1.000000000000000E+000	10	4.9956595E-003	4.8988464E-004	0	-7.660842550590880E-005	9.0148374E-002	3.8593229E-002	9.8062053E-002	2.3176149E+001	1.3225880E+005	3.0893803E+005	3.3605819E+005	-6.6823853E+001	0.0000000E+000	0.0000000E+000	0.0000000E+000	6.6823853E+001	0.0000000E+000	0.0000000E+000	0.0000000E+000	-6.6823853E+001	0.0000000E+000	0.0000000E+000	0.0000000E+000	-2.3176149E+001	0.0000000E+000	0.0000000E+000	0.0000000E+000	2.3176149E+001	2.3358598E+000	6.6823853E+001	-1.461931485896153E-006	-4.2825091E-006	1.7649029E+004
3.1629555E+001	1.0584440E+001	4.0905385E+000	1.1347373E+001	-2.1129881E+001	1.197744963553851E+001	2.7492008E-001	-1.6191540E-002	1.2301173E+003	1.5985155E+002	1.000000000000000E+000	10	4.9925246E-003	4.3997186E-004	0	-7.872962749029263E-005	8.2201019E-002	3.1767998E-002	8.8126123E-002	2.1129881E+001	1.5985158E+005	4.1362259E+005	4.4343678E+005	-6.8870117E+001	0.0000000E+000	0.0000000E+000	0.0000000E+000	6.8870117E+001	0.0000000E+000	0.0000000E+000	0.0000000E+000	-6.8870117E+001	0.0000000E+000	0.0000000E+000	0.0000000E+000	-2.1129881E+001	0.0000000E+000	0.0000000E+000	0.0000000E+000	2.1129881E+001	2.5875421E+000	6.8870117E+001	-2.121201984383838E-006	-4.4513795E-006	1.6979242E+004
2.1551722E+001	1.1790759E+001	3.9466310E+000	1.2433741E+001	-1.8506546E+001	1.241632904307335E+001	2.7491343E-001	-1.7399786E-002	1.8711630E+003	1.8852158E+002	1.000000000000000E+000	10	4.9984162E-003	4.0200423E-004	0	-7.981258074507140E-005	7.6267265E-002	2.5528360E-002	8.0426320E-002	1.8506546E+001	1.8852158E+005	5.6321775E+005	5.9393150E+005	-7.1493454E+001	0.0000000E+000	0.0000000E+000	0.0000000E+000	7.1493454E+001	0.0000000E+000	0.0000000E+000	0.0000000E+000	-7.1493454E+001	0.0000000E+000	0.0000000E+000	0.0000000E+000	-1.8506546E+001	0.0000000E+000	0.0000000E+000	0.0000000E+000	1.8506546E+001	2.9875505E+000	7.1493454E+001	-1.082953254778770E-006	-4.7834351E-006	1.5799816E+004
1.4685154E+001	1.2858042E+001	3.6293902E+000	1.3360454E+001	-1.5762577E+001	1.289406629244331E+001	2.7492696E-001	-1.3331962E-002	2.9861248E+003	2.2036006E+002	1.000000000000000E+000	10	4.9888082E-003	3.7340110E-004	0	-8.109230205603105E-005	7.2033152E-002	2.0332521E-002	7.4847758E-002	1.5762577E+001	2.2036002E+005	7.8068188E+005	8.1118600E+005	-7.4237427E+001	0.0000000E+000	0.0000000E+000	0.0000000E+000	7.4237427E+001	0.0000000E+000	0.0000000E+000	0.0000000E+000	-7.4237427E+001	0.0000000E+000	0.0000000E+000	0.0000000E+000	-1.5762577E+001	0.0000000E+000	0.0000000E+000	0.0000000E+000	1.5762577E+001	3.5427554E+000	7.4237427E+001	-1.279721310959650E-006	-3.6653157E-006	2.0621643E+004
