
EC-Lab ASCII FILE
Nb header lines : 63                          

Potentio Electrochemical Impedance Spectroscopy

Run on channel : 1 (SN 66354)
User : 
CE vs. WE compliance from -10 V to 10 V
Electrode connection : standard
Potential control : Ewe
Ewe ctrl range : min = -10.00 V, max = 10.00 V
Safety Limits :
	Do not start on E overload
Acquisition started on : 09/12/2025 10:00:37.767
Loaded Setting File :  C:\Users\Celltest\OneDrive - store-dot.com\Documents\EC-Lab\Data\Gyutae\EIS_SOC0_C01.mpr
Saved on :
	File : 17464_C01.mpr
	Directory : C:\Users\Celltest\OneDrive - store-dot.com\Documents\EC-Lab\Data\Gyutae\R277\
	Host : 169.254.61.224
Device : VMP-3e (SN .003165)
Address : USB
EC-LAB for windows v11.62 (software)
Internet server v27.00 (firmware)
Command interpretor v12.03 (firmware)
Electrode material : 
Initial state : 
Electrolyte : 
Comments : 
Electrode surface area : 0.001 cm²
Characteristic mass : 0.001 g
Equivalent Weight : 0.000 g/eq.
Density : 0.000 g/cm3
Volume (V) : 0.001 cm³
Cycle Definition : Charge/Discharge alternance
Mode                Single sine         
E (V)               0.0000              
vs.                 Eoc                 
tE (h:m:s)          0:00:0.0000         
record              0                   
dI                  0.000               
unit dI             mA                  
dt (s)              0.000               
fi                  100.000             
unit fi             kHz                 
ff                  10.000              
unit ff             mHz                 
Nd                  6                   
Points              per decade          
spacing             Logarithmic         
Va (mV)             5.0                 
pw                  0.10                
Na                  2                   
corr                0                   
E range min (V)     -10.000             
E range max (V)     10.000              
I Range             Auto                
Bandwidth           5                   
nc cycles           0                   
goto Ns'            0                   
nr cycles           0                   
inc. cycle          0                   

freq/Hz	Re(Z)/Ohm	-Im(Z)/Ohm	|Z|/Ohm	Phase(Z)/deg	time/s	<Ewe>/V	<I>/mA	Cs/µF	Cp/µF	cycle number	I Range	|Ewe|/V	|I|/A	Ns	(Q-Qo)/mA.h	Re(Y)/Ohm-1	Im(Y)/Ohm-1	|Y|/Ohm-1	Phase(Y)/deg	Re(C)/nF	Im(C)/nF	|C|/nF	Phase(C)/deg	Re(M)	Im(M)	|M|	Phase(M)/deg	Re(Permittivity)	Im(Permittivity)	|Permittivity|	Phase(Permittivity)/deg	Re(Resistivity)/Ohm.cm	Im(Resistivity)/Ohm.cm	|Resistivity|/Ohm.cm	Phase(Resistivity)/deg	Re(Conductivity)/mS/cm	Im(Conductivity)/mS/cm	|Conductivity|/mS/cm	Phase(Conductivity)/deg	Tan(Delta)	Loss Angle(Delta)/deg	dq/mA.h	Pwe/W	Rwe/Ohm	
1.0000371E+005	9.0781885E-001	1.9672517E-001	9.2888957E-001	-1.2226997E+001	1.864479315205244E+000	2.6702240E-001	7.0182666E-002	8.0899162E+000	3.6285722E-001	1.000000000000000E+000	9	4.5211962E-003	4.8673130E-003	0	1.282216072082519E-006	1.0521338E+000	2.2799838E-001	1.0765542E+000	1.2226997E+001	3.6285724E+002	1.6744609E+003	1.7133257E+003	-7.7773003E+001	0.0000000E+000	0.0000000E+000	0.0000000E+000	7.7773003E+001	0.0000000E+000	0.0000000E+000	0.0000000E+000	-7.7773003E+001	0.0000000E+000	0.0000000E+000	0.0000000E+000	-1.2226997E+001	0.0000000E+000	0.0000000E+000	0.0000000E+000	1.2226997E+001	4.6146550E+000	7.7773003E+001	1.282216072082519E-006	1.8740344E-005	3.8046772E+003
6.8132047E+004	9.5834839E-001	2.2299965E-001	9.8395145E-001	-1.3099149E+001	2.301475629297784E+000	2.6703405E-001	6.9828749E-002	1.0475253E+001	5.3805357E-001	1.000000000000000E+000	9	5.4075019E-003	5.4957001E-003	0	8.468401305429223E-006	9.8986524E-001	2.3033336E-001	1.0163103E+000	1.3099149E+001	5.3805365E+002	2.3123030E+003	2.3740781E+003	-7.6900848E+001	0.0000000E+000	0.0000000E+000	0.0000000E+000	7.6900848E+001	0.0000000E+000	0.0000000E+000	0.0000000E+000	-7.6900848E+001	0.0000000E+000	0.0000000E+000	0.0000000E+000	-1.3099149E+001	0.0000000E+000	0.0000000E+000	0.0000000E+000	1.3099149E+001	4.2975330E+000	7.6900848E+001	7.186185233346703E-006	1.8646653E-005	3.8241277E+003
4.6420355E+004	1.0093554E+000	2.4783178E-001	1.0393358E+000	-1.3795197E+001	2.879495016735746E+000	2.6703289E-001	7.1300298E-002	1.3834221E+001	7.8660530E-001	1.000000000000000E+000	9	5.0451839E-003	4.8542381E-003	0	1.977617770081593E-005	9.3439889E-001	2.2942734E-001	9.6215290E-001	1.3795197E+001	7.8660522E+002	3.2036421E+003	3.2987983E+003	-7.6204803E+001	0.0000000E+000	0.0000000E+000	0.0000000E+000	7.6204803E+001	0.0000000E+000	0.0000000E+000	0.0000000E+000	-7.6204803E+001	0.0000000E+000	0.0000000E+000	0.0000000E+000	-1.3795197E+001	0.0000000E+000	0.0000000E+000	0.0000000E+000	1.3795197E+001	4.0727444E+000	7.6204803E+001	1.130777639538671E-005	1.9039524E-005	3.7451863E+003
3.1621139E+004	1.0681058E+000	2.8419727E-001	1.1052684E+000	-1.4899814E+001	3.457480697514256E+000	2.6703474E-001	7.4243382E-002	1.7710171E+001	1.1709195E+000	1.000000000000000E+000	9	5.0249877E-003	4.5463960E-003	0	2.300357817881741E-005	8.7433690E-001	2.3264001E-001	9.0475762E-001	1.4899814E+001	1.1709193E+003	4.4006968E+003	4.5538101E+003	-7.5100189E+001	0.0000000E+000	0.0000000E+000	0.0000000E+000	7.5100189E+001	0.0000000E+000	0.0000000E+000	0.0000000E+000	-7.5100189E+001	0.0000000E+000	0.0000000E+000	0.0000000E+000	-1.4899814E+001	0.0000000E+000	0.0000000E+000	0.0000000E+000	1.4899814E+001	3.7583253E+000	7.5100189E+001	3.227400478001477E-006	1.9825562E-005	3.5967480E+003
2.1544684E+004	1.1354769E+000	3.2290274E-001	1.1804974E+000	-1.5874496E+001	4.035478378325934E+000	2.6703352E-001	8.2364820E-002	2.2877487E+001	1.7116765E+000	1.000000000000000E+000	9	5.1948843E-003	4.4005895E-003	0	3.013794852819087E-005	8.1479484E-001	2.3170833E-001	8.4710056E-001	1.5874496E+001	1.7116765E+003	6.0190547E+003	6.2577036E+003	-7.4125504E+001	0.0000000E+000	0.0000000E+000	0.0000000E+000	7.4125504E+001	0.0000000E+000	0.0000000E+000	0.0000000E+000	-7.4125504E+001	0.0000000E+000	0.0000000E+000	0.0000000E+000	-1.5874496E+001	0.0000000E+000	0.0000000E+000	0.0000000E+000	1.5874496E+001	3.5164673E+000	7.4125504E+001	7.134370349373459E-006	2.1994167E-005	3.2420823E+003
1.4678594E+004	1.2075286E+000	3.6473218E-001	1.2614099E+000	-1.6806862E+001	4.331497885723365E+000	2.6703542E-001	7.1561038E-002	2.9727720E+001	2.4854057E+000	1.000000000000000E+000	9	4.8792483E-003	3.8680909E-003	0	3.867569039223923E-005	7.5890070E-001	2.2922482E-001	7.9276371E-001	1.6806862E+001	2.4854058E+003	8.2284990E+003	8.5956641E+003	-7.3193138E+001	0.0000000E+000	0.0000000E+000	0.0000000E+000	7.3193138E+001	0.0000000E+000	0.0000000E+000	0.0000000E+000	-7.3193138E+001	0.0000000E+000	0.0000000E+000	0.0000000E+000	-1.6806862E+001	0.0000000E+000	0.0000000E+000	0.0000000E+000	1.6806862E+001	3.3107269E+000	7.3193138E+001	8.537741864048359E-006	1.9109333E-005	3.7315757E+003
1.0002226E+004	1.2882982E+000	4.1837183E-001	1.3545284E+000	-1.7991083E+001	4.768499426456401E+000	2.6702932E-001	7.2678655E-002	3.8033043E+001	3.6283543E+000	1.000000000000000E+000	9	4.7976156E-003	3.5419082E-003	0	4.788977594257125E-005	7.0216662E-001	2.2802694E-001	7.3826432E-001	1.7991083E+001	3.6283538E+003	1.1172842E+004	1.1747228E+004	-7.2008919E+001	0.0000000E+000	0.0000000E+000	0.0000000E+000	7.2008919E+001	0.0000000E+000	0.0000000E+000	0.0000000E+000	-7.2008919E+001	0.0000000E+000	0.0000000E+000	0.0000000E+000	-1.7991083E+001	0.0000000E+000	0.0000000E+000	0.0000000E+000	1.7991083E+001	3.0793140E+000	7.2008919E+001	9.214085550332027E-006	1.9407331E-005	3.6741091E+003
6.8110674E+003	1.3892628E+000	4.7799072E-001	1.4691924E+000	-1.8986326E+001	5.322501106100390E+000	2.6687193E-001	-6.5013394E-002	4.8886108E+001	5.1744843E+000	1.000000000000000E+000	9	4.9959389E-003	3.4004662E-003	0	4.765374764217995E-005	6.4361638E-001	2.2144309E-001	6.8064606E-001	1.8986326E+001	5.1744854E+003	1.5039453E+004	1.5904730E+004	-7.1013672E+001	0.0000000E+000	0.0000000E+000	0.0000000E+000	7.1013672E+001	0.0000000E+000	0.0000000E+000	0.0000000E+000	-7.1013672E+001	0.0000000E+000	0.0000000E+000	0.0000000E+000	-1.8986326E+001	0.0000000E+000	0.0000000E+000	0.0000000E+000	1.8986326E+001	2.9064639E+000	7.1013672E+001	-2.360283003913027E-007	-1.7350250E-005	4.1048760E+003
4.6414854E+003	1.4993252E+000	5.5323428E-001	1.5981377E+000	-2.0253498E+001	5.792696461830928E+000	2.6694745E-001	5.6007333E-002	6.1980354E+001	7.4275198E+000	1.000000000000000E+000	9	4.7965315E-003	3.0013255E-003	0	5.455045341514051E-005	5.8703965E-001	2.1661109E-001	6.2572831E-001	2.0253498E+001	7.4275181E+003	2.0129387E+004	2.1456008E+004	-6.9746506E+001	0.0000000E+000	0.0000000E+000	0.0000000E+000	6.9746506E+001	0.0000000E+000	0.0000000E+000	0.0000000E+000	-6.9746506E+001	0.0000000E+000	0.0000000E+000	0.0000000E+000	-2.0253498E+001	0.0000000E+000	0.0000000E+000	0.0000000E+000	2.0253498E+001	2.7101090E+000	6.9746506E+001	6.896705772960558E-006	1.4951014E-005	4.7662944E+003
3.1610117E+003	1.6238096E+000	6.3340729E-001	1.7429751E+000	-2.1309507E+001	6.259688057340099E+000	2.6694831E-001	5.8521993E-002	7.9489723E+001	1.0497713E+001	1.000000000000000E+000	9	4.6914862E-003	2.6916543E-003	0	6.026535441793708E-005	5.3450614E-001	2.0849743E-001	5.7373166E-001	2.1309507E+001	1.0497714E+004	2.6912047E+004	2.8887025E+004	-6.8690491E+001	0.0000000E+000	0.0000000E+000	0.0000000E+000	6.8690491E+001	0.0000000E+000	0.0000000E+000	0.0000000E+000	-6.8690491E+001	0.0000000E+000	0.0000000E+000	0.0000000E+000	-2.1309507E+001	0.0000000E+000	0.0000000E+000	0.0000000E+000	2.1309507E+001	2.5636106E+000	6.8690491E+001	5.714901002796575E-006	1.5622347E-005	4.5615039E+003
2.1556899E+003	1.7660239E+000	7.3092985E-001	1.9113082E+000	-2.2483904E+001	6.726680426188977E+000	2.6695001E-001	5.4573037E-002	1.0100855E+002	1.4772299E+001	1.000000000000000E+000	9	4.6392521E-003	2.4272653E-003	0	6.608354949070296E-005	4.8343173E-001	2.0008489E-001	5.2320188E-001	2.2483904E+001	1.4772298E+004	3.5691844E+004	3.8628078E+004	-6.7516098E+001	0.0000000E+000	0.0000000E+000	0.0000000E+000	6.7516098E+001	0.0000000E+000	0.0000000E+000	0.0000000E+000	-6.7516098E+001	0.0000000E+000	0.0000000E+000	0.0000000E+000	-2.2483904E+001	0.0000000E+000	0.0000000E+000	0.0000000E+000	2.2483904E+001	2.4161332E+000	6.7516098E+001	5.818195072765881E-006	1.4568272E-005	4.8916099E+003
1.4685898E+003	1.9161876E+000	8.3992785E-001	2.0921888E+000	-2.3669415E+001	7.193921408354072E+000	2.6694763E-001	5.0177019E-002	1.2902612E+002	2.0795044E+001	1.000000000000000E+000	9	4.6038004E-003	2.2004708E-003	0	7.398307455477253E-005	4.3776023E-001	1.9188465E-001	4.7796834E-001	2.3669415E+001	2.0795047E+004	4.7441223E+004	5.1798684E+004	-6.6330582E+001	0.0000000E+000	0.0000000E+000	0.0000000E+000	6.6330582E+001	0.0000000E+000	0.0000000E+000	0.0000000E+000	-6.6330582E+001	0.0000000E+000	0.0000000E+000	0.0000000E+000	-2.3669415E+001	0.0000000E+000	0.0000000E+000	0.0000000E+000	2.3669415E+001	2.2813718E+000	6.6330582E+001	7.899525064069562E-006	1.3394636E-005	5.3201172E+003
1.0003202E+003	2.1018562E+000	9.8604244E-001	2.3216543E+000	-2.5132652E+001	7.662680097317207E+000	2.6694757E-001	5.0400533E-002	1.6135614E+002	2.9105936E+001	1.000000000000000E+000	9	4.5949919E-003	1.9791888E-003	0	7.914744017595270E-005	3.8994905E-001	1.8293655E-001	4.3072733E-001	2.5132652E+001	2.9105938E+004	6.2042457E+004	6.8530445E+004	-6.4867348E+001	0.0000000E+000	0.0000000E+000	0.0000000E+000	6.4867348E+001	0.0000000E+000	0.0000000E+000	0.0000000E+000	-6.4867348E+001	0.0000000E+000	0.0000000E+000	0.0000000E+000	-2.5132652E+001	0.0000000E+000	0.0000000E+000	0.0000000E+000	2.5132652E+001	2.1316082E+000	6.4867348E+001	5.164365621180176E-006	1.3454300E-005	5.2965229E+003
6.8108978E+002	2.3128669E+000	1.1719981E+000	2.5928619E+000	-2.6872684E+001	8.128451532713370E+000	2.6693603E-001	4.8835844E-002	1.9938335E+002	4.0736523E+001	1.000000000000000E+000	9	4.5769811E-003	1.7652237E-003	0	8.537740812653728E-005	3.4402648E-001	1.7432842E-001	3.8567424E-001	2.6872684E+001	4.0736523E+004	8.0391039E+004	9.0123156E+004	-6.3127316E+001	0.0000000E+000	0.0000000E+000	0.0000000E+000	6.3127316E+001	0.0000000E+000	0.0000000E+000	0.0000000E+000	-6.3127316E+001	0.0000000E+000	0.0000000E+000	0.0000000E+000	-2.6872684E+001	0.0000000E+000	0.0000000E+000	0.0000000E+000	2.6872684E+001	1.9734391E+000	6.3127319E+001	6.229967950584578E-006	1.3036047E-005	5.4659858E+003
4.6396069E+002	2.5940080E+000	1.4179412E+000	2.9562535E+000	-2.8661978E+001	8.851178153738147E+000	2.6699182E-001	-1.7664254E-002	2.4192499E+002	5.5656231E+001	1.000000000000000E+000	10	4.6302914E-003	1.5662700E-003	0	8.548586689718327E-005	2.9681644E-001	1.6224633E-001	3.3826599E-001	2.8661978E+001	5.5656238E+004	1.0181854E+005	1.1603720E+005	-6.1338020E+001	0.0000000E+000	0.0000000E+000	0.0000000E+000	6.1338020E+001	0.0000000E+000	0.0000000E+000	0.0000000E+000	-6.1338020E+001	0.0000000E+000	0.0000000E+000	0.0000000E+000	-2.8661978E+001	0.0000000E+000	0.0000000E+000	0.0000000E+000	2.8661978E+001	1.8294185E+000	6.1338020E+001	1.084587706459906E-007	-4.7162112E-006	1.5114810E+004
3.1631589E+002	2.9499028E+000	1.6893095E+000	3.3993666E+000	-2.9798306E+001	9.317928789241705E+000	2.6699120E-001	-1.8521456E-002	2.9784473E+002	7.3555023E+001	1.000000000000000E+000	10	4.6021263E-003	1.3538188E-003	0	8.313665414155952E-005	2.5527701E-001	1.4618850E-001	2.9417244E-001	2.9798306E+001	7.3555023E+004	1.2844313E+005	1.4801344E+005	-6.0201694E+001	0.0000000E+000	0.0000000E+000	0.0000000E+000	6.0201694E+001	0.0000000E+000	0.0000000E+000	0.0000000E+000	-6.0201694E+001	0.0000000E+000	0.0000000E+000	0.0000000E+000	-2.9798306E+001	0.0000000E+000	0.0000000E+000	0.0000000E+000	2.9798306E+001	1.7462181E+000	6.0201691E+001	-2.349212755623748E-006	-4.9450659E-006	1.4415238E+004
2.1534457E+002	3.4163361E+000	1.9704205E+000	3.9438443E+000	-2.9974812E+001	9.785452304786304E+000	2.6698515E-001	-1.8564317E-002	3.7508292E+002	9.3627968E+001	1.000000000000000E+000	10	4.5857634E-003	1.1627648E-003	0	8.176795959591658E-005	2.1964486E-001	1.2668331E-001	2.5355971E-001	2.9974812E+001	9.3627961E+004	1.6233316E+005	1.8739864E+005	-6.0025188E+001	0.0000000E+000	0.0000000E+000	0.0000000E+000	6.0025188E+001	0.0000000E+000	0.0000000E+000	0.0000000E+000	-6.0025188E+001	0.0000000E+000	0.0000000E+000	0.0000000E+000	-2.9974812E+001	0.0000000E+000	0.0000000E+000	0.0000000E+000	2.9974812E+001	1.7338107E+000	6.0025192E+001	-1.368694545642941E-006	-4.9563969E-006	1.4381630E+004
1.4673740E+002	3.9896798E+000	2.2278092E+000	4.5695381E+000	-2.9178684E+001	1.024838275343063E+001	2.6698220E-001	-1.9607866E-002	4.8685690E+002	1.1572114E+002	1.000000000000000E+000	10	4.5736404E-003	1.0008977E-003	0	7.948066763804915E-005	1.9107041E-001	1.0669237E-001	2.1884049E-001	2.9178684E+001	1.1572114E+005	2.0723961E+005	2.3735972E+005	-6.0821316E+001	0.0000000E+000	0.0000000E+000	0.0000000E+000	6.0821316E+001	0.0000000E+000	0.0000000E+000	0.0000000E+000	-6.0821316E+001	0.0000000E+000	0.0000000E+000	0.0000000E+000	-2.9178684E+001	0.0000000E+000	0.0000000E+000	0.0000000E+000	2.9178684E+001	1.7908535E+000	6.0821320E+001	-2.287291957867428E-006	-5.2349510E-006	1.3616076E+004
1.0003201E+002	4.6697626E+000	2.4002092E+000	5.2504940E+000	-2.7202690E+001	1.071668408237019E+001	2.6698357E-001	-1.8435743E-002	6.6287561E+002	1.3852556E+002	1.000000000000000E+000	10	4.5677936E-003	8.6997409E-004	0	7.720939252627755E-005	1.6939262E-001	8.7066032E-002	1.9045827E-001	2.7202690E+001	1.3852555E+005	2.6951041E+005	3.0302672E+005	-6.2797310E+001	0.0000000E+000	0.0000000E+000	0.0000000E+000	6.2797310E+001	0.0000000E+000	0.0000000E+000	0.0000000E+000	-6.2797310E+001	0.0000000E+000	0.0000000E+000	0.0000000E+000	-2.7202690E+001	0.0000000E+000	0.0000000E+000	0.0000000E+000	2.7202690E+001	1.9455649E+000	6.2797310E+001	-2.271275111771599E-006	-4.9220403E-006	1.4481845E+004
6.8103981E+001	5.4093871E+000	2.4823959E+000	5.9517860E+000	-2.4650637E+001	1.119534087841748E+001	2.6698735E-001	-1.5008830E-002	9.4140521E+002	1.6376611E+002	1.000000000000000E+000	10	4.5649279E-003	7.6698454E-004	0	7.519977909158721E-005	1.5270506E-001	7.0077151E-002	1.6801679E-001	2.4650637E+001	1.6376611E+005	3.5686263E+005	3.9264522E+005	-6.5349365E+001	0.0000000E+000	0.0000000E+000	0.0000000E+000	6.5349365E+001	0.0000000E+000	0.0000000E+000	0.0000000E+000	-6.5349365E+001	0.0000000E+000	0.0000000E+000	0.0000000E+000	-2.4650637E+001	0.0000000E+000	0.0000000E+000	0.0000000E+000	2.4650637E+001	2.1790993E+000	6.5349365E+001	-2.009613434690347E-006	-4.0071677E-006	1.7788686E+004
4.6441547E+001	6.1434679E+000	2.4147751E+000	6.6010103E+000	-2.1457996E+001	1.165056308670319E+001	2.6697794E-001	-2.0847084E-002	1.4191776E+003	1.8991940E+002	1.000000000000000E+000	10	4.5648701E-003	6.9154112E-004	0	7.312960304266178E-005	1.4099143E-001	5.5418640E-002	1.5149195E-001	2.1457996E+001	1.8991938E+005	4.8317697E+005	5.1916216E+005	-6.8542007E+001	0.0000000E+000	0.0000000E+000	0.0000000E+000	6.8542007E+001	0.0000000E+000	0.0000000E+000	0.0000000E+000	-6.8542007E+001	0.0000000E+000	0.0000000E+000	0.0000000E+000	-2.1457996E+001	0.0000000E+000	0.0000000E+000	0.0000000E+000	2.1457996E+001	2.5441160E+000	6.8542007E+001	-2.070176048925423E-006	-5.5657115E-006	1.2806488E+004
3.1629555E+001	6.8103051E+000	2.2586164E+000	7.1750684E+000	-1.8347940E+001	1.209745814788039E+001	2.6697391E-001	-2.2213006E-002	2.2278430E+003	2.2075850E+002	1.000000000000000E+000	10	4.5601469E-003	6.3555449E-004	0	7.056673298671053E-005	1.3228619E-001	4.3872301E-002	1.3937150E-001	1.8347940E+001	2.2075847E+005	6.6564325E+005	7.0129538E+005	-7.1652061E+001	0.0000000E+000	0.0000000E+000	0.0000000E+000	7.1652061E+001	0.0000000E+000	0.0000000E+000	0.0000000E+000	-7.1652061E+001	0.0000000E+000	0.0000000E+000	0.0000000E+000	-1.8347940E+001	0.0000000E+000	0.0000000E+000	0.0000000E+000	1.8347940E+001	3.0152552E+000	7.1652061E+001	-2.562870055951256E-006	-5.9302934E-006	1.2018811E+004
2.1551722E+001	7.4212985E+000	2.0733788E+000	7.7054896E+000	-1.5609417E+001	1.253633710209397E+001	2.6697057E-001	-2.3662787E-002	3.5617178E+003	2.5787921E+002	1.000000000000000E+000	10	4.5850780E-003	5.9504044E-004	0	6.988858372454868E-005	1.2499120E-001	3.4920316E-002	1.2977761E-001	1.5609417E+001	2.5787925E+005	9.2303369E+005	9.5838038E+005	-7.4390579E+001	0.0000000E+000	0.0000000E+000	0.0000000E+000	7.4390579E+001	0.0000000E+000	0.0000000E+000	0.0000000E+000	-7.4390579E+001	0.0000000E+000	0.0000000E+000	0.0000000E+000	-1.5609417E+001	0.0000000E+000	0.0000000E+000	0.0000000E+000	1.5609417E+001	3.5793259E+000	7.4390579E+001	-6.781492621618440E-007	-6.3172679E-006	1.1282296E+004
1.4685154E+001	7.8724580E+000	1.8180875E+000	8.0796680E+000	-1.3004059E+001	1.301402739147306E+001	2.6698717E-001	-1.4695771E-002	5.9611060E+003	3.0183484E+002	1.000000000000000E+000	10	4.5606345E-003	5.6445814E-004	0	6.787423172124868E-005	1.2059333E-001	2.7850162E-002	1.2376746E-001	1.3004059E+001	3.0183484E+005	1.3069679E+006	1.3413685E+006	-7.6995941E+001	0.0000000E+000	0.0000000E+000	0.0000000E+000	7.6995941E+001	0.0000000E+000	0.0000000E+000	0.0000000E+000	-7.6995941E+001	0.0000000E+000	0.0000000E+000	0.0000000E+000	-1.3004059E+001	0.0000000E+000	0.0000000E+000	0.0000000E+000	1.3004059E+001	4.3300767E+000	7.6995941E+001	-2.014352003300001E-006	-3.9235824E-006	1.8167619E+004
1.0003201E+001	8.2697802E+000	1.5939271E+000	8.4219875E+000	-1.0909475E+001	1.348266901374882E+001	2.6698738E-001	-1.6665461E-002	9.9818877E+003	3.5753653E+002	1.000000000000000E+000	10	4.5561963E-003	5.4098823E-004	0	6.231089506129825E-005	1.1659094E-001	2.2471873E-002	1.1873682E-001	1.0909475E+001	3.5753656E+005	1.8550085E+006	1.8891504E+006	-7.9090523E+001	0.0000000E+000	0.0000000E+000	0.0000000E+000	7.9090523E+001	0.0000000E+000	0.0000000E+000	0.0000000E+000	-7.9090523E+001	0.0000000E+000	0.0000000E+000	0.0000000E+000	-1.0909475E+001	0.0000000E+000	0.0000000E+000	0.0000000E+000	1.0909475E+001	5.1883049E+000	7.9090523E+001	-5.563336659950433E-006	-4.4494677E-006	1.6020402E+004
