
EC-Lab ASCII FILE
Nb header lines : 63                          

Potentio Electrochemical Impedance Spectroscopy

Run on channel : 5 (SN 65912)
User : 
CE vs. WE compliance from -10 V to 10 V
Electrode connection : standard
Potential control : Ewe
Ewe ctrl range : min = -10.00 V, max = 10.00 V
Safety Limits :
	Do not start on E overload
Acquisition started on : 09/15/2025 08:59:45.599
Loaded Setting File :  C:\Users\Celltest\OneDrive - store-dot.com\Documents\EC-Lab\Data\Charmaine\R279\17382_C01.mpr
Saved on :
	File : 17487_C05.mpr
	Directory : C:\Users\Celltest\OneDrive - store-dot.com\Documents\EC-Lab\Data\Charmaine\R279\
	Host : 169.254.61.224
Device : VMP-3e (SN .003165)
Address : USB
EC-LAB for windows v11.62 (software)
Internet server v27.00 (firmware)
Command interpretor v12.03 (firmware)
Electrode material : 
Initial state : 
Electrolyte : 
Comments : 
Electrode surface area : 0.001 cm²
Characteristic mass : 0.001 g
Equivalent Weight : 0.000 g/eq.
Density : 0.000 g/cm3
Volume (V) : 0.001 cm³
Cycle Definition : Charge/Discharge alternance
Mode                Single sine         
E (V)               0.0000              
vs.                 Eoc                 
tE (h:m:s)          0:00:0.0000         
record              0                   
dI                  0.000               
unit dI             mA                  
dt (s)              0.000               
fi                  100.000             
unit fi             kHz                 
ff                  10.000              
unit ff             mHz                 
Nd                  6                   
Points              per decade          
spacing             Logarithmic         
Va (mV)             5.0                 
pw                  0.10                
Na                  2                   
corr                0                   
E range min (V)     -10.000             
E range max (V)     10.000              
I Range             Auto                
Bandwidth           5                   
nc cycles           0                   
goto Ns'            0                   
nr cycles           0                   
inc. cycle          0                   

freq/Hz	Re(Z)/Ohm	-Im(Z)/Ohm	|Z|/Ohm	Phase(Z)/deg	time/s	<Ewe>/V	<I>/mA	Cs/µF	Cp/µF	cycle number	I Range	|Ewe|/V	|I|/A	Ns	(Q-Qo)/mA.h	Re(Y)/Ohm-1	Im(Y)/Ohm-1	|Y|/Ohm-1	Phase(Y)/deg	Re(C)/nF	Im(C)/nF	|C|/nF	Phase(C)/deg	Re(M)	Im(M)	|M|	Phase(M)/deg	Re(Permittivity)	Im(Permittivity)	|Permittivity|	Phase(Permittivity)/deg	Re(Resistivity)/Ohm.cm	Im(Resistivity)/Ohm.cm	|Resistivity|/Ohm.cm	Phase(Resistivity)/deg	Re(Conductivity)/mS/cm	Im(Conductivity)/mS/cm	|Conductivity|/mS/cm	Phase(Conductivity)/deg	Tan(Delta)	Loss Angle(Delta)/deg	dq/mA.h	Pwe/W	Rwe/Ohm	
1.0000371E+005	1.4818006E+000	2.8931865E-001	1.5097809E+000	-1.1047899E+001	2.066477858141297E+000	2.8172961E-001	-2.3519836E-002	5.5008216E+000	2.0200056E-001	1.000000000000000E+000	9	4.5961924E-003	3.0442777E-003	0	-4.660065439012316E-007	6.5007269E-001	1.2692542E-001	6.6234779E-001	1.1047899E+001	2.0200055E+002	1.0345845E+003	1.0541201E+003	-7.8952103E+001	0.0000000E+000	0.0000000E+000	0.0000000E+000	7.8952103E+001	0.0000000E+000	0.0000000E+000	0.0000000E+000	-7.8952103E+001	0.0000000E+000	0.0000000E+000	0.0000000E+000	-1.1047899E+001	0.0000000E+000	0.0000000E+000	0.0000000E+000	1.1047899E+001	5.1216903E+000	7.8952103E+001	-4.660065439012316E-007	-6.6262342E-006	1.1978383E+004
6.8132047E+004	1.5535734E+000	3.2657316E-001	1.5875264E+000	-1.1871180E+001	2.644493458938086E+000	2.8172514E-001	-2.6461778E-002	7.1529999E+000	3.0269641E-001	1.000000000000000E+000	9	5.0513577E-003	3.1819046E-003	0	1.124767675477011E-006	6.1643863E-001	1.2958018E-001	6.2991077E-001	1.1871180E+001	3.0269635E+002	1.4399868E+003	1.4714575E+003	-7.8128822E+001	0.0000000E+000	0.0000000E+000	0.0000000E+000	7.8128822E+001	0.0000000E+000	0.0000000E+000	0.0000000E+000	-7.8128822E+001	0.0000000E+000	0.0000000E+000	0.0000000E+000	-1.1871180E+001	0.0000000E+000	0.0000000E+000	0.0000000E+000	1.1871180E+001	4.7571983E+000	7.8128822E+001	1.590774219378242E-006	-7.4549480E-006	1.0646493E+004
4.6420355E+004	1.6306696E+000	3.7376133E-001	1.6729558E+000	-1.2909618E+001	3.222474419715581E+000	2.8171581E-001	-2.8025856E-002	9.1731253E+000	4.5786467E-001	1.000000000000000E+000	9	5.0862888E-003	3.0403009E-003	0	-3.172744428609602E-006	5.8263570E-001	1.3354433E-001	5.9774446E-001	1.2909618E+001	4.5786475E+002	1.9976008E+003	2.0494021E+003	-7.7090378E+001	0.0000000E+000	0.0000000E+000	0.0000000E+000	7.7090378E+001	0.0000000E+000	0.0000000E+000	0.0000000E+000	-7.7090378E+001	0.0000000E+000	0.0000000E+000	0.0000000E+000	-1.2909618E+001	0.0000000E+000	0.0000000E+000	0.0000000E+000	1.2909618E+001	4.3628635E+000	7.7090378E+001	-4.297512104086612E-006	-7.8953271E-006	1.0051996E+004
3.1621139E+004	1.7177341E+000	4.2826048E-001	1.7703156E+000	-1.3999412E+001	3.800490047171479E+000	2.8172305E-001	-2.7690699E-002	1.1752619E+001	6.8777949E-001	1.000000000000000E+000	9	5.0298679E-003	2.8412265E-003	0	2.758204114830328E-007	5.4809332E-001	1.3664904E-001	5.6487101E-001	1.3999412E+001	6.8777948E+002	2.7586533E+003	2.8430984E+003	-7.6000587E+001	0.0000000E+000	0.0000000E+000	0.0000000E+000	7.6000587E+001	0.0000000E+000	0.0000000E+000	0.0000000E+000	-7.6000587E+001	0.0000000E+000	0.0000000E+000	0.0000000E+000	-1.3999412E+001	0.0000000E+000	0.0000000E+000	0.0000000E+000	1.3999412E+001	4.0109563E+000	7.6000587E+001	3.448564840092634E-006	-7.8011080E-006	1.0173924E+004
2.1544684E+004	1.8198488E+000	4.9327862E-001	1.8855168E+000	-1.5165885E+001	4.237480547890300E+000	2.8172952E-001	-2.4432216E-002	1.4975721E+001	1.0249709E+000	1.000000000000000E+000	9	5.1204786E-003	2.7156898E-003	0	-1.247717378790387E-006	5.1188749E-001	1.3874952E-001	5.3035861E-001	1.5165885E+001	1.0249708E+003	3.7814165E+003	3.9178662E+003	-7.4834114E+001	0.0000000E+000	0.0000000E+000	0.0000000E+000	7.4834114E+001	0.0000000E+000	0.0000000E+000	0.0000000E+000	-7.4834114E+001	0.0000000E+000	0.0000000E+000	0.0000000E+000	-1.5165885E+001	0.0000000E+000	0.0000000E+000	0.0000000E+000	1.5165885E+001	3.6892917E+000	7.4834114E+001	-1.523537790273420E-006	-6.8832765E-006	1.1531067E+004
1.4678594E+004	1.9328866E+000	5.5521590E-001	2.0110483E+000	-1.6026554E+001	4.533486855303636E+000	2.8172061E-001	-2.4450837E-002	1.9528719E+001	1.4885128E+000	1.000000000000000E+000	9	5.0340872E-003	2.5032153E-003	0	-1.087913532780173E-006	4.7792676E-001	1.3728304E-001	4.9725309E-001	1.6026554E+001	1.4885125E+003	5.1819961E+003	5.3915444E+003	-7.3973450E+001	0.0000000E+000	0.0000000E+000	0.0000000E+000	7.3973450E+001	0.0000000E+000	0.0000000E+000	0.0000000E+000	-7.3973450E+001	0.0000000E+000	0.0000000E+000	0.0000000E+000	-1.6026554E+001	0.0000000E+000	0.0000000E+000	0.0000000E+000	1.6026554E+001	3.4813244E+000	7.3973450E+001	1.598038460102139E-007	-6.8883046E-006	1.1521921E+004
1.0002226E+004	2.0658607E+000	6.3788837E-001	2.1621013E+000	-1.7159437E+001	4.829478922678391E+000	2.8172353E-001	-2.8994106E-002	2.4944731E+001	2.1712813E+000	1.000000000000000E+000	9	4.7978428E-003	2.2190649E-003	0	-4.092019271351293E-006	4.4192541E-001	1.3645600E-001	4.6251303E-001	1.7159437E+001	2.1712817E+003	7.0318965E+003	7.3594858E+003	-7.2840561E+001	0.0000000E+000	0.0000000E+000	0.0000000E+000	7.2840561E+001	0.0000000E+000	0.0000000E+000	0.0000000E+000	-7.2840561E+001	0.0000000E+000	0.0000000E+000	0.0000000E+000	-1.7159437E+001	0.0000000E+000	0.0000000E+000	0.0000000E+000	1.7159437E+001	3.2385929E+000	7.2840561E+001	-3.004105738571120E-006	-8.1683220E-006	9.7165791E+003
6.8110674E+003	2.2130082E+000	7.4161512E-001	2.3339663E+000	-1.8526840E+001	5.207514647307107E+000	2.8156069E-001	-8.8764019E-002	3.1508402E+001	3.1812248E+000	1.000000000000000E+000	9	4.6399557E-003	1.9880133E-003	0	-1.250006654696901E-005	4.0625048E-001	1.3614115E-001	4.2845520E-001	1.8526840E+001	3.1812253E+003	9.4928994E+003	1.0011760E+004	-7.1473160E+001	0.0000000E+000	0.0000000E+000	0.0000000E+000	7.1473160E+001	0.0000000E+000	0.0000000E+000	0.0000000E+000	-7.1473160E+001	0.0000000E+000	0.0000000E+000	0.0000000E+000	-1.8526840E+001	0.0000000E+000	0.0000000E+000	0.0000000E+000	1.8526840E+001	2.9840386E+000	7.1473160E+001	-8.408047275617719E-006	-2.4992458E-005	3.1720137E+003
4.6414854E+003	2.3808277E+000	8.4513104E-001	2.5263782E+000	-1.9543520E+001	5.678709229745436E+000	2.8176358E-001	2.2713354E-002	4.0573185E+001	4.5403619E+000	1.000000000000000E+000	9	4.5391852E-003	1.7967165E-003	0	-9.979193599591074E-006	3.7301925E-001	1.3241199E-001	3.9582357E-001	1.9543520E+001	4.5403618E+003	1.2790703E+004	1.3572655E+004	-7.0456482E+001	0.0000000E+000	0.0000000E+000	0.0000000E+000	7.0456482E+001	0.0000000E+000	0.0000000E+000	0.0000000E+000	-7.0456482E+001	0.0000000E+000	0.0000000E+000	0.0000000E+000	-1.9543520E+001	0.0000000E+000	0.0000000E+000	0.0000000E+000	1.9543520E+001	2.8171108E+000	7.0456482E+001	2.520872947377939E-006	6.3997959E-006	1.2405195E+004
3.1610117E+003	2.5606873E+000	9.7892952E-001	2.7414272E+000	-2.0921440E+001	6.368699422520876E+000	2.8176516E-001	2.1409962E-002	5.1433086E+001	6.5583110E+000	1.000000000000000E+000	9	4.9922368E-003	1.8210358E-003	0	-8.183784755076178E-006	3.4072432E-001	1.3025609E-001	3.6477351E-001	2.0921440E+001	6.5583110E+003	1.7155254E+004	1.8366115E+004	-6.9078560E+001	0.0000000E+000	0.0000000E+000	0.0000000E+000	6.9078560E+001	0.0000000E+000	0.0000000E+000	0.0000000E+000	-6.9078560E+001	0.0000000E+000	0.0000000E+000	0.0000000E+000	-2.0921440E+001	0.0000000E+000	0.0000000E+000	0.0000000E+000	2.0921440E+001	2.6158035E+000	6.9078560E+001	1.795408844514896E-006	6.0325815E-006	1.3160470E+004
2.1556899E+003	2.7677486E+000	1.1316875E+000	2.9901755E+000	-2.2238855E+001	6.835704431367049E+000	2.8176284E-001	2.3625730E-002	6.5238998E+001	9.3447351E+000	1.000000000000000E+000	9	4.9526347E-003	1.6563024E-003	0	-6.721817482573291E-006	3.0955178E-001	1.2657069E-001	3.3442852E-001	2.2238855E+001	9.3447334E+003	2.2854258E+004	2.4690912E+004	-6.7761147E+001	0.0000000E+000	0.0000000E+000	0.0000000E+000	6.7761147E+001	0.0000000E+000	0.0000000E+000	0.0000000E+000	-6.7761147E+001	0.0000000E+000	0.0000000E+000	0.0000000E+000	-2.2238855E+001	0.0000000E+000	0.0000000E+000	0.0000000E+000	2.2238855E+001	2.4456828E+000	6.7761147E+001	1.461967272502887E-006	6.6568527E-006	1.1926101E+004
1.4685898E+003	2.9828284E+000	1.3302606E+000	3.2660158E+000	-2.4035576E+001	7.302954693528591E+000	2.8176877E-001	2.0050710E-002	8.1467216E+001	1.3515117E+001	1.000000000000000E+000	9	4.9310154E-003	1.5097953E-003	0	-3.743646455935151E-006	2.7963513E-001	1.2470969E-001	3.0618346E-001	2.4035576E+001	1.3515116E+004	3.0304793E+004	3.3181906E+004	-6.5964424E+001	0.0000000E+000	0.0000000E+000	0.0000000E+000	6.5964424E+001	0.0000000E+000	0.0000000E+000	0.0000000E+000	-6.5964424E+001	0.0000000E+000	0.0000000E+000	0.0000000E+000	-2.4035576E+001	0.0000000E+000	0.0000000E+000	0.0000000E+000	2.4035576E+001	2.2422886E+000	6.5964424E+001	2.978171026638140E-006	5.6496638E-006	1.4052808E+004
1.0003202E+003	3.2158105E+000	1.5922658E+000	3.5884185E+000	-2.6341702E+001	8.025684674554213E+000	2.8171772E-001	-9.0891123E-003	9.9923012E+001	1.9673903E+001	1.000000000000000E+000	10	5.0085559E-003	1.3957558E-003	0	-5.110234624609196E-006	2.4973780E-001	1.2365436E-001	2.7867430E-001	2.6341702E+001	1.9673902E+004	3.9734281E+004	4.4338195E+004	-6.3658298E+001	0.0000000E+000	0.0000000E+000	0.0000000E+000	6.3658298E+001	0.0000000E+000	0.0000000E+000	0.0000000E+000	-6.3658298E+001	0.0000000E+000	0.0000000E+000	0.0000000E+000	-2.6341702E+001	0.0000000E+000	0.0000000E+000	0.0000000E+000	2.6341702E+001	2.0196443E+000	6.3658295E+001	-1.366588168674046E-006	-2.5605639E-006	3.0995074E+004
6.8108978E+002	3.5083225E+000	1.9525533E+000	4.0150704E+000	-2.9098082E+001	8.491417496610666E+000	2.8171512E-001	-9.2417616E-003	1.1967760E+002	2.8302992E+001	1.000000000000000E+000	10	4.9736821E-003	1.2387534E-003	0	-6.034619455186960E-006	2.1762718E-001	1.2112019E-001	2.4906163E-001	2.9098082E+001	2.8302992E+004	5.0854441E+004	5.8199945E+004	-6.0901917E+001	0.0000000E+000	0.0000000E+000	0.0000000E+000	6.0901917E+001	0.0000000E+000	0.0000000E+000	0.0000000E+000	-6.0901917E+001	0.0000000E+000	0.0000000E+000	0.0000000E+000	-2.9098082E+001	0.0000000E+000	0.0000000E+000	0.0000000E+000	2.9098082E+001	1.7967870E+000	6.0901917E+001	-9.243848305777639E-007	-2.6035441E-006	3.0482838E+004
4.6396069E+002	3.8584948E+000	2.4340940E+000	4.5621042E+000	-3.2245380E+001	8.960215785569744E+000	2.8171259E-001	-8.8340528E-003	1.4092940E+002	4.0118607E+001	1.000000000000000E+000	10	4.9425131E-003	1.0833845E-003	0	-7.359760006627767E-006	1.8539052E-001	1.1695180E-001	2.1919709E-001	3.2245380E+001	4.0118609E+004	6.3595512E+004	7.5192367E+004	-5.7754620E+001	0.0000000E+000	0.0000000E+000	0.0000000E+000	5.7754620E+001	0.0000000E+000	0.0000000E+000	0.0000000E+000	-5.7754620E+001	0.0000000E+000	0.0000000E+000	0.0000000E+000	-3.2245380E+001	0.0000000E+000	0.0000000E+000	0.0000000E+000	3.2245380E+001	1.5851873E+000	5.7754623E+001	-1.325140551440807E-006	-2.4886640E-006	3.1889395E+004
3.1631589E+002	4.3148108E+000	3.0672197E+000	5.2939048E+000	-3.5407440E+001	9.426917247765232E+000	2.8171459E-001	-9.0388432E-003	1.6404170E+002	5.5067043E+001	1.000000000000000E+000	10	4.9204961E-003	9.2946441E-004	0	-9.071267007552605E-006	1.5396056E-001	1.0944416E-001	1.8889648E-001	3.5407440E+001	5.5067043E+004	7.7465547E+004	9.5043625E+004	-5.4592560E+001	0.0000000E+000	0.0000000E+000	0.0000000E+000	5.4592560E+001	0.0000000E+000	0.0000000E+000	0.0000000E+000	-5.4592560E+001	0.0000000E+000	0.0000000E+000	0.0000000E+000	-3.5407440E+001	0.0000000E+000	0.0000000E+000	0.0000000E+000	3.5407440E+001	1.4067498E+000	5.4592560E+001	-1.711507000924838E-006	-2.5463739E-006	3.1167105E+004
2.1534457E+002	4.9590769E+000	3.8914573E+000	6.3036404E+000	-3.8121777E+001	9.894438976625679E+000	2.8170654E-001	-9.6383272E-003	1.8992142E+002	7.2379509E+001	1.000000000000000E+000	10	4.9070781E-003	7.7845145E-004	0	-1.058943034845935E-005	1.2480097E-001	9.7933084E-002	1.5863849E-001	3.8121777E+001	7.2379508E+004	9.2236789E+004	1.1724513E+005	-5.1878223E+001	0.0000000E+000	0.0000000E+000	0.0000000E+000	5.1878223E+001	0.0000000E+000	0.0000000E+000	0.0000000E+000	-5.1878223E+001	0.0000000E+000	0.0000000E+000	0.0000000E+000	-3.8121777E+001	0.0000000E+000	0.0000000E+000	0.0000000E+000	3.8121777E+001	1.2743496E+000	5.1878220E+001	-1.518163340906742E-006	-2.7151798E-006	2.9227742E+004
1.4673740E+002	5.8566618E+000	4.8916841E+000	7.6307969E+000	-3.9869785E+001	1.035736419857130E+001	2.8170612E-001	-9.6234391E-003	2.2172820E+002	9.1116684E+001	1.000000000000000E+000	10	4.8934584E-003	6.4127753E-004	0	-1.131807089266820E-005	1.0057970E-001	8.4007598E-002	1.3104790E-001	3.9869785E+001	9.1116688E+004	1.0909120E+005	1.4213775E+005	-5.0130215E+001	0.0000000E+000	0.0000000E+000	0.0000000E+000	5.0130215E+001	0.0000000E+000	0.0000000E+000	0.0000000E+000	-5.0130215E+001	0.0000000E+000	0.0000000E+000	0.0000000E+000	-3.9869785E+001	0.0000000E+000	0.0000000E+000	0.0000000E+000	3.9869785E+001	1.1972691E+000	5.0130219E+001	-7.286405442088527E-007	-2.7109818E-006	2.9272916E+004
1.0003201E+002	7.1257768E+000	6.0089278E+000	9.3211536E+000	-4.0139809E+001	1.082569632754894E+001	2.8170946E-001	-9.1933878E-003	2.6477936E+002	1.1003701E+002	1.000000000000000E+000	10	4.8852051E-003	5.2409875E-004	0	-1.190730638569544E-005	8.2014918E-002	6.9160424E-002	1.0728285E-001	4.0139809E+001	1.1003701E+005	1.3048903E+005	1.7069133E+005	-4.9860191E+001	0.0000000E+000	0.0000000E+000	0.0000000E+000	4.9860191E+001	0.0000000E+000	0.0000000E+000	0.0000000E+000	-4.9860191E+001	0.0000000E+000	0.0000000E+000	0.0000000E+000	-4.0139809E+001	0.0000000E+000	0.0000000E+000	0.0000000E+000	4.0139809E+001	1.1858649E+000	4.9860199E+001	-5.892354930272432E-007	-2.5898644E-006	3.0642617E+004
6.8103981E+001	8.8503780E+000	7.1754713E+000	1.1393708E+001	-3.9033516E+001	1.130434312354191E+001	2.8170785E-001	-8.5548228E-003	3.2568457E+002	1.2917184E+002	1.000000000000000E+000	10	4.8824628E-003	4.2852270E-004	0	-1.256918500832398E-005	6.8176016E-002	5.5273917E-002	8.7767735E-002	3.9033516E+001	1.2917184E+005	1.5932330E+005	2.0510797E+005	-5.0966484E+001	0.0000000E+000	0.0000000E+000	0.0000000E+000	5.0966484E+001	0.0000000E+000	0.0000000E+000	0.0000000E+000	-5.0966484E+001	0.0000000E+000	0.0000000E+000	0.0000000E+000	-3.9033516E+001	0.0000000E+000	0.0000000E+000	0.0000000E+000	3.9033516E+001	1.2334211E+000	5.0966492E+001	-6.618786226285418E-007	-2.4099606E-006	3.2929711E+004
4.6441547E+001	1.1091985E+001	8.1578484E+000	1.3768900E+001	-3.6333454E+001	1.175955226519727E+001	2.8170684E-001	-1.1016001E-002	4.2008563E+002	1.4746556E+002	1.000000000000000E+000	10	4.8844907E-003	3.5474807E-004	0	-1.358068866391032E-005	5.8507394E-002	4.3030571E-002	7.2627440E-002	3.6333454E+001	1.4746556E+005	2.0050456E+005	2.4889389E+005	-5.3666546E+001	0.0000000E+000	0.0000000E+000	0.0000000E+000	5.3666546E+001	0.0000000E+000	0.0000000E+000	0.0000000E+000	-5.3666546E+001	0.0000000E+000	0.0000000E+000	0.0000000E+000	-3.6333454E+001	0.0000000E+000	0.0000000E+000	0.0000000E+000	3.6333454E+001	1.3596704E+000	5.3666550E+001	-1.011503655586339E-006	-3.1032828E-006	2.5572514E+004
3.1629555E+001	1.3770515E+001	8.7713366E+000	1.6326771E+001	-3.2495712E+001	1.220543879302568E+001	2.8169656E-001	-1.3400846E-002	5.7366882E+002	1.6557404E+002	1.000000000000000E+000	10	4.8819203E-003	2.9901322E-004	0	-1.520547274161820E-005	5.1659428E-002	3.2905251E-002	6.1249100E-002	3.2495712E+001	1.6557403E+005	2.5994211E+005	3.0819581E+005	-5.7504288E+001	0.0000000E+000	0.0000000E+000	0.0000000E+000	5.7504288E+001	0.0000000E+000	0.0000000E+000	0.0000000E+000	-5.7504288E+001	0.0000000E+000	0.0000000E+000	0.0000000E+000	-3.2495712E+001	0.0000000E+000	0.0000000E+000	0.0000000E+000	3.2495712E+001	1.5699450E+000	5.7504288E+001	-1.624784077707875E-006	-3.7749721E-006	2.1020805E+004
2.1551722E+001	1.6716232E+001	8.7568359E+000	1.8870998E+001	-2.7647898E+001	1.288533797199489E+001	2.8172743E-001	-4.3615680E-003	8.4331714E+002	1.8159154E+002	1.000000000000000E+000	11	4.8790178E-003	2.5854583E-004	0	-1.672168620236011E-005	4.6940599E-002	2.4589941E-002	5.2991368E-002	2.7647898E+001	1.8159153E+005	3.4664647E+005	3.9133013E+005	-6.2352104E+001	0.0000000E+000	0.0000000E+000	0.0000000E+000	6.2352104E+001	0.0000000E+000	0.0000000E+000	0.0000000E+000	-6.2352104E+001	0.0000000E+000	0.0000000E+000	0.0000000E+000	-2.7647898E+001	0.0000000E+000	0.0000000E+000	0.0000000E+000	2.7647898E+001	1.9089352E+000	6.2352104E+001	-1.516213460741911E-006	-1.2287734E-006	6.4593152E+004
1.4685154E+001	1.9383181E+001	8.0849676E+000	2.1001772E+001	-2.2641628E+001	1.336306252804934E+001	2.8172910E-001	-3.7783275E-003	1.3404893E+003	1.9865891E+002	1.000000000000000E+000	11	4.8802043E-003	2.3237107E-004	0	-1.690299283963557E-005	4.3945376E-002	1.8330166E-002	4.7615029E-002	2.2641628E+001	1.9865894E+005	4.7627172E+005	5.1604275E+005	-6.7358368E+001	0.0000000E+000	0.0000000E+000	0.0000000E+000	6.7358368E+001	0.0000000E+000	0.0000000E+000	0.0000000E+000	-6.7358368E+001	0.0000000E+000	0.0000000E+000	0.0000000E+000	-2.2641628E+001	0.0000000E+000	0.0000000E+000	0.0000000E+000	2.2641628E+001	2.3974345E+000	6.7358368E+001	-1.813066372754607E-007	-1.0644648E-006	7.4564500E+004
