
EC-Lab ASCII FILE
Nb header lines : 63                          

Potentio Electrochemical Impedance Spectroscopy

Run on channel : 6 (SN 65795)
User : 
CE vs. WE compliance from -10 V to 10 V
Electrode connection : standard
Potential control : Ewe
Ewe ctrl range : min = -10.00 V, max = 10.00 V
Safety Limits :
	Do not start on E overload
Acquisition started on : 09/15/2025 08:59:57.177
Loaded Setting File :  C:\Users\Celltest\OneDrive - store-dot.com\Documents\EC-Lab\Data\Charmaine\R279\17383.mps
Saved on :
	File : 17488_C06.mpr
	Directory : C:\Users\Celltest\OneDrive - store-dot.com\Documents\EC-Lab\Data\Charmaine\R279\
	Host : 169.254.61.224
Device : VMP-3e (SN .003165)
Address : USB
EC-LAB for windows v11.62 (software)
Internet server v27.00 (firmware)
Command interpretor v12.03 (firmware)
Electrode material : 
Initial state : 
Electrolyte : 
Comments : 
Electrode surface area : 0.001 cm²
Characteristic mass : 0.001 g
Equivalent Weight : 0.000 g/eq.
Density : 0.000 g/cm3
Volume (V) : 0.001 cm³
Cycle Definition : Charge/Discharge alternance
Mode                Single sine         
E (V)               0.0000              
vs.                 Eoc                 
tE (h:m:s)          0:00:0.0000         
record              0                   
dI                  0.000               
unit dI             mA                  
dt (s)              0.000               
fi                  100.000             
unit fi             kHz                 
ff                  10.000              
unit ff             mHz                 
Nd                  6                   
Points              per decade          
spacing             Logarithmic         
Va (mV)             5.0                 
pw                  0.10                
Na                  2                   
corr                0                   
E range min (V)     -10.000             
E range max (V)     10.000              
I Range             Auto                
Bandwidth           5                   
nc cycles           0                   
goto Ns'            0                   
nr cycles           0                   
inc. cycle          0                   

freq/Hz	Re(Z)/Ohm	-Im(Z)/Ohm	|Z|/Ohm	Phase(Z)/deg	time/s	<Ewe>/V	<I>/mA	Cs/µF	Cp/µF	cycle number	I Range	|Ewe|/V	|I|/A	Ns	(Q-Qo)/mA.h	Re(Y)/Ohm-1	Im(Y)/Ohm-1	|Y|/Ohm-1	Phase(Y)/deg	Re(C)/nF	Im(C)/nF	|C|/nF	Phase(C)/deg	Re(M)	Im(M)	|M|	Phase(M)/deg	Re(Permittivity)	Im(Permittivity)	|Permittivity|	Phase(Permittivity)/deg	Re(Resistivity)/Ohm.cm	Im(Resistivity)/Ohm.cm	|Resistivity|/Ohm.cm	Phase(Resistivity)/deg	Re(Conductivity)/mS/cm	Im(Conductivity)/mS/cm	|Conductivity|/mS/cm	Phase(Conductivity)/deg	Tan(Delta)	Loss Angle(Delta)/deg	dq/mA.h	Pwe/W	Rwe/Ohm	
1.0000371E+005	1.3980017E+000	1.4099437E-001	1.4050937E+000	-5.7590475E+000	1.918499611114385E+000	2.7678391E-001	5.7674728E-002	1.1287617E+001	1.1365674E-001	1.000000000000000E+000	9	3.8454861E-003	2.7368183E-003	0	3.789343467525517E-006	7.0810419E-001	7.1415290E-002	7.1169633E-001	5.7590475E+000	1.1365677E+002	1.1269409E+003	1.1326578E+003	-8.4240952E+001	0.0000000E+000	0.0000000E+000	0.0000000E+000	8.4240952E+001	0.0000000E+000	0.0000000E+000	0.0000000E+000	-8.4240952E+001	0.0000000E+000	0.0000000E+000	0.0000000E+000	-5.7590475E+000	0.0000000E+000	0.0000000E+000	0.0000000E+000	5.7590475E+000	9.9153013E+000	8.4240952E+001	3.789343467525517E-006	1.5963436E-005	4.7990503E+003
6.8132047E+004	1.4625286E+000	1.0619518E-001	1.4663789E+000	-4.1529965E+000	2.355480058497051E+000	2.7678275E-001	5.6408204E-002	2.1997021E+001	1.1536686E-001	1.000000000000000E+000	9	2.8392142E-003	1.9362076E-003	0	1.439588156852147E-005	6.8016136E-001	4.9386971E-002	6.8195200E-001	4.1529965E+000	1.1536696E+002	1.5888417E+003	1.5930247E+003	-8.5847000E+001	0.0000000E+000	0.0000000E+000	0.0000000E+000	8.5847000E+001	0.0000000E+000	0.0000000E+000	0.0000000E+000	-8.5847000E+001	0.0000000E+000	0.0000000E+000	0.0000000E+000	-4.1529965E+000	0.0000000E+000	0.0000000E+000	0.0000000E+000	4.1529965E+000	1.3772080E+001	8.5847000E+001	1.060653810099595E-005	1.5612817E-005	4.9067817E+003
4.6420355E+004	1.4545666E+000	3.1538218E-001	1.4883648E+000	-1.2233628E+001	3.074495826003840E+000	2.7669969E-001	2.6347533E-002	1.0871126E+001	4.8812386E-001	1.000000000000000E+000	9	5.1192157E-003	3.4394898E-003	0	-1.724756509709793E-005	6.5662104E-001	1.4236996E-001	6.7187828E-001	1.2233628E+001	4.8812378E+002	2.2512642E+003	2.3035745E+003	-7.7766373E+001	0.0000000E+000	0.0000000E+000	0.0000000E+000	7.7766373E+001	0.0000000E+000	0.0000000E+000	0.0000000E+000	-7.7766373E+001	0.0000000E+000	0.0000000E+000	0.0000000E+000	-1.2233628E+001	0.0000000E+000	0.0000000E+000	0.0000000E+000	1.2233628E+001	4.6120758E+000	7.7766373E+001	-3.164344666561940E-005	7.2903540E-006	1.0501920E+004
3.1621139E+004	1.5283703E+000	3.6267230E-001	1.5708109E+000	-1.3349017E+001	3.511491420067614E+000	2.7669290E-001	2.2119664E-002	1.3878044E+001	7.3979127E-001	1.000000000000000E+000	9	5.4505742E-003	3.4699112E-003	0	-1.136937033491106E-005	6.1941361E-001	1.4698282E-001	6.3661385E-001	1.3349017E+001	7.3979114E+002	3.1176216E+003	3.2041934E+003	-7.6650986E+001	0.0000000E+000	0.0000000E+000	0.0000000E+000	7.6650986E+001	0.0000000E+000	0.0000000E+000	0.0000000E+000	-7.6650986E+001	0.0000000E+000	0.0000000E+000	0.0000000E+000	-1.3349017E+001	0.0000000E+000	0.0000000E+000	0.0000000E+000	1.3349017E+001	4.2141910E+000	7.6650986E+001	5.878194762186873E-006	6.1203536E-006	1.2508911E+004
2.1544684E+004	1.6139748E+000	4.1122264E-001	1.6655385E+000	-1.4294188E+001	3.948485174187226E+000	2.7669179E-001	2.1896163E-002	1.7963999E+001	1.0950845E+000	1.000000000000000E+000	9	5.3166579E-003	3.1921554E-003	0	-6.570014590966618E-006	5.8181828E-001	1.4824077E-001	6.0040641E-001	1.4294188E+001	1.0950847E+003	4.2980098E+003	4.4353237E+003	-7.5705811E+001	0.0000000E+000	0.0000000E+000	0.0000000E+000	7.5705811E+001	0.0000000E+000	0.0000000E+000	0.0000000E+000	-7.5705811E+001	0.0000000E+000	0.0000000E+000	0.0000000E+000	-1.4294188E+001	0.0000000E+000	0.0000000E+000	0.0000000E+000	1.4294188E+001	3.9248199E+000	7.5705811E+001	4.799355743944439E-006	6.0584885E-006	1.2636543E+004
1.4678594E+004	1.7055694E+000	4.6928585E-001	1.7689534E+000	-1.5384192E+001	4.385483941616258E+000	2.7669320E-001	2.3386152E-002	2.3104588E+001	1.6260741E+000	1.000000000000000E+000	9	5.1189293E-003	2.8937615E-003	0	-2.353773317442069E-006	5.4505032E-001	1.4997008E-001	5.6530601E-001	1.5384192E+001	1.6260742E+003	5.9097930E+003	6.1294185E+003	-7.4615807E+001	0.0000000E+000	0.0000000E+000	0.0000000E+000	7.4615807E+001	0.0000000E+000	0.0000000E+000	0.0000000E+000	-7.4615807E+001	0.0000000E+000	0.0000000E+000	0.0000000E+000	-1.5384192E+001	0.0000000E+000	0.0000000E+000	0.0000000E+000	1.5384192E+001	3.6343935E+000	7.4615807E+001	4.216241273524549E-006	6.4707892E-006	1.1831497E+004
1.0002226E+004	1.8108913E+000	5.3505599E-001	1.8882829E+000	-1.6460596E+001	4.681487102323445E+000	2.7669123E-001	2.5937771E-002	2.9738855E+001	2.3877487E+000	1.000000000000000E+000	9	5.2951323E-003	2.8042051E-003	0	-1.602810075632685E-006	5.0787669E-001	1.5006007E-001	5.2958167E-001	1.6460596E+001	2.3877485E+003	8.0813101E+003	8.4266787E+003	-7.3539406E+001	0.0000000E+000	0.0000000E+000	0.0000000E+000	7.3539406E+001	0.0000000E+000	0.0000000E+000	0.0000000E+000	-7.3539406E+001	0.0000000E+000	0.0000000E+000	0.0000000E+000	-1.6460596E+001	0.0000000E+000	0.0000000E+000	0.0000000E+000	1.6460596E+001	3.3844893E+000	7.3539406E+001	7.509632418093839E-007	7.1767540E-006	1.0667502E+004
6.8110674E+003	1.9352633E+000	6.1255705E-001	2.0298941E+000	-1.7563824E+001	5.059520586946746E+000	2.7657822E-001	-3.1408541E-002	3.8146828E+001	3.4737992E+000	1.000000000000000E+000	9	5.2513219E-003	2.5869932E-003	0	-3.272889765108832E-006	4.6967050E-001	1.4866194E-001	4.9263653E-001	1.7563824E+001	3.4738003E+003	1.0974841E+004	1.1511491E+004	-7.2436172E+001	0.0000000E+000	0.0000000E+000	0.0000000E+000	7.2436172E+001	0.0000000E+000	0.0000000E+000	0.0000000E+000	-7.2436172E+001	0.0000000E+000	0.0000000E+000	0.0000000E+000	-1.7563824E+001	0.0000000E+000	0.0000000E+000	0.0000000E+000	1.7563824E+001	3.1593192E+000	7.2436172E+001	-1.670079689476147E-006	-8.6869186E-006	8.8058281E+003
4.6414854E+003	2.0757327E+000	7.0961678E-001	2.1936779E+000	-1.8873674E+001	5.530671862718009E+000	2.7668008E-001	4.1880731E-002	4.8321373E+001	5.0563984E+000	1.000000000000000E+000	9	5.1712384E-003	2.3573372E-003	0	2.511023568054144E-006	4.3134594E-001	1.4746134E-001	4.5585543E-001	1.8873674E+001	5.0563984E+003	1.4790705E+004	1.5631127E+004	-7.1126328E+001	0.0000000E+000	0.0000000E+000	0.0000000E+000	7.1126328E+001	0.0000000E+000	0.0000000E+000	0.0000000E+000	-7.1126328E+001	0.0000000E+000	0.0000000E+000	0.0000000E+000	-1.8873674E+001	0.0000000E+000	0.0000000E+000	0.0000000E+000	1.8873674E+001	2.9251461E+000	7.1126328E+001	5.783913333162976E-006	1.1587564E-005	6.6063813E+003
3.1610117E+003	2.2279427E+000	8.1462866E-001	2.3722034E+000	-2.0084518E+001	5.997676578233950E+000	2.7669007E-001	4.4041224E-002	6.1806530E+001	7.2886968E+000	1.000000000000000E+000	9	5.1014051E-003	2.1504923E-003	0	9.577494849230991E-006	3.9591339E-001	1.4476244E-001	4.2154902E-001	2.0084518E+001	7.2886973E+003	1.9933988E+004	2.1224727E+004	-6.9915482E+001	0.0000000E+000	0.0000000E+000	0.0000000E+000	6.9915482E+001	0.0000000E+000	0.0000000E+000	0.0000000E+000	-6.9915482E+001	0.0000000E+000	0.0000000E+000	0.0000000E+000	-2.0084518E+001	0.0000000E+000	0.0000000E+000	0.0000000E+000	2.0084518E+001	2.7349181E+000	6.9915482E+001	7.066471281176847E-006	1.2185769E-005	6.2825244E+003
2.1556899E+003	2.3927996E+000	9.4624406E-001	2.5731046E+000	-2.1576557E+001	6.464665427076397E+000	2.7669400E-001	5.0206084E-002	7.8024437E+001	1.0551692E+001	1.000000000000000E+000	9	5.0505078E-003	1.9628070E-003	0	1.372142242223425E-005	3.6140272E-001	1.4291844E-001	3.8863558E-001	2.1576557E+001	1.0551689E+004	2.6682422E+004	2.8693027E+004	-6.8423447E+001	0.0000000E+000	0.0000000E+000	0.0000000E+000	6.8423447E+001	0.0000000E+000	0.0000000E+000	0.0000000E+000	-6.8423447E+001	0.0000000E+000	0.0000000E+000	0.0000000E+000	-2.1576557E+001	0.0000000E+000	0.0000000E+000	0.0000000E+000	2.1576557E+001	2.5287342E+000	6.8423447E+001	4.143927573003262E-006	1.3891722E-005	5.5111646E+003
1.4685898E+003	2.5679555E+000	1.1179775E+000	2.8007622E+000	-2.3526239E+001	6.931961102585774E+000	2.7668881E-001	4.5680214E-002	9.6936333E+001	1.5445437E+001	1.000000000000000E+000	9	5.0101117E-003	1.7888387E-003	0	2.017494778614491E-005	3.2736710E-001	1.4252158E-001	3.5704568E-001	2.3526239E+001	1.5445437E+004	3.5477637E+004	3.8693980E+004	-6.6473763E+001	0.0000000E+000	0.0000000E+000	0.0000000E+000	6.6473763E+001	0.0000000E+000	0.0000000E+000	0.0000000E+000	-6.6473763E+001	0.0000000E+000	0.0000000E+000	0.0000000E+000	-2.3526239E+001	0.0000000E+000	0.0000000E+000	0.0000000E+000	2.3526239E+001	2.2969654E+000	6.6473763E+001	6.453525363910660E-006	1.2639204E-005	6.0570825E+003
1.0003202E+003	2.7882240E+000	1.3526568E+000	3.0990117E+000	-2.5879511E+001	7.400706244872708E+000	2.7668408E-001	4.4450961E-002	1.1762333E+002	2.2408991E+001	1.000000000000000E+000	9	4.9911691E-003	1.6105680E-003	0	2.537963513681380E-005	2.9032284E-001	1.4084493E-001	3.2268351E-001	2.5879511E+001	2.2408992E+004	4.6191531E+004	5.1340242E+004	-6.4120491E+001	0.0000000E+000	0.0000000E+000	0.0000000E+000	6.4120491E+001	0.0000000E+000	0.0000000E+000	0.0000000E+000	-6.4120491E+001	0.0000000E+000	0.0000000E+000	0.0000000E+000	-2.5879511E+001	0.0000000E+000	0.0000000E+000	0.0000000E+000	2.5879511E+001	2.0612943E+000	6.4120491E+001	5.204687350668891E-006	1.2298873E-005	6.2244790E+003
6.8108978E+002	3.0428665E+000	1.6540394E+000	3.4633629E+000	-2.8527590E+001	8.120451292343205E+000	2.7668923E-001	-9.8331785E-003	1.4127650E+002	3.2222973E+001	1.000000000000000E+000	10	5.0508678E-003	1.4583709E-003	0	2.739636304455861E-005	2.5368038E-001	1.3789542E-001	2.8873670E-001	2.8527590E+001	3.2222971E+004	5.9279242E+004	6.7471094E+004	-6.1472412E+001	0.0000000E+000	0.0000000E+000	0.0000000E+000	6.1472412E+001	0.0000000E+000	0.0000000E+000	0.0000000E+000	-6.1472412E+001	0.0000000E+000	0.0000000E+000	0.0000000E+000	-2.8527590E+001	0.0000000E+000	0.0000000E+000	0.0000000E+000	2.8527590E+001	1.8396578E+000	6.1472412E+001	2.016727907744807E-006	-2.7207345E-006	2.8138330E+004
4.6396069E+002	3.3434346E+000	2.0636089E+000	3.9289994E+000	-3.1683393E+001	8.589198194589699E+000	2.7668622E-001	-9.2481114E-003	1.6623080E+002	4.5856655E+001	1.000000000000000E+000	10	5.0061899E-003	1.2741641E-003	0	2.571580147736111E-005	2.1658526E-001	1.3367909E-001	2.5451773E-001	3.1683393E+001	4.5856656E+004	7.4296406E+004	8.7308586E+004	-5.8316605E+001	0.0000000E+000	0.0000000E+000	0.0000000E+000	5.8316605E+001	0.0000000E+000	0.0000000E+000	0.0000000E+000	-5.8316605E+001	0.0000000E+000	0.0000000E+000	0.0000000E+000	-3.1683393E+001	0.0000000E+000	0.0000000E+000	0.0000000E+000	3.1683393E+001	1.6201881E+000	5.8316605E+001	-1.680561567197502E-006	-2.5588249E-006	2.9918133E+004
3.1631589E+002	3.7536335E+000	2.5947077E+000	4.5631428E+000	-3.4654255E+001	9.055906243476784E+000	2.7668694E-001	-9.7213853E-003	1.9391467E+002	6.2698833E+001	1.000000000000000E+000	10	4.9804230E-003	1.0914458E-003	0	2.403505915206753E-005	1.8027012E-001	1.2461213E-001	2.1914721E-001	3.4654255E+001	6.2698832E+004	9.0703258E+004	1.1026434E+005	-5.5345745E+001	0.0000000E+000	0.0000000E+000	0.0000000E+000	5.5345745E+001	0.0000000E+000	0.0000000E+000	0.0000000E+000	-5.5345745E+001	0.0000000E+000	0.0000000E+000	0.0000000E+000	-3.4654255E+001	0.0000000E+000	0.0000000E+000	0.0000000E+000	3.4654255E+001	1.4466498E+000	5.5345749E+001	-1.680742325293575E-006	-2.6897803E-006	2.8461678E+004
2.1534457E+002	4.3213358E+000	3.2689121E+000	5.4184618E+000	-3.7105999E+001	9.523431865643943E+000	2.7668458E-001	-9.4288522E-003	2.2609085E+002	8.2288177E+001	1.000000000000000E+000	10	4.9663056E-003	9.1655267E-004	0	2.308264825432949E-005	1.4718582E-001	1.1133999E-001	1.8455422E-001	3.7105999E+001	8.2288164E+004	1.0878079E+005	1.3639869E+005	-5.2894001E+001	0.0000000E+000	0.0000000E+000	0.0000000E+000	5.2894001E+001	0.0000000E+000	0.0000000E+000	0.0000000E+000	-5.2894001E+001	0.0000000E+000	0.0000000E+000	0.0000000E+000	-3.7105999E+001	0.0000000E+000	0.0000000E+000	0.0000000E+000	3.7105999E+001	1.3219492E+000	5.2893997E+001	-9.524108977380423E-007	-2.6088180E-006	2.9344461E+004
1.4673740E+002	5.1139684E+000	4.0670428E+000	6.5340271E+000	-3.8494572E+001	9.986364500975469E+000	2.7668178E-001	-1.0200258E-002	2.6668622E+002	1.0332281E+002	1.000000000000000E+000	10	4.9480903E-003	7.5728033E-004	0	2.212270228804361E-005	1.1978327E-001	9.5261388E-002	1.5304497E-001	3.8494572E+001	1.0332280E+005	1.2991984E+005	1.6599628E+005	-5.1505428E+001	0.0000000E+000	0.0000000E+000	0.0000000E+000	5.1505428E+001	0.0000000E+000	0.0000000E+000	0.0000000E+000	-5.1505428E+001	0.0000000E+000	0.0000000E+000	0.0000000E+000	-3.8494572E+001	0.0000000E+000	0.0000000E+000	0.0000000E+000	3.8494572E+001	1.2574168E+000	5.1505432E+001	-9.599459662858829E-007	-2.8222257E-006	2.7124979E+004
1.0003201E+002	6.2177868E+000	4.9276066E+000	7.9336109E+000	-3.8396885E+001	1.045469622992823E+001	2.7668983E-001	-8.9574559E-003	3.2288293E+002	1.2455907E+002	1.000000000000000E+000	10	4.9431990E-003	6.2307052E-004	0	2.128895324452444E-005	9.8785698E-002	7.8287832E-002	1.2604602E-001	3.8396885E+001	1.2455907E+005	1.5717198E+005	2.0054425E+005	-5.1603115E+001	0.0000000E+000	0.0000000E+000	0.0000000E+000	5.1603115E+001	0.0000000E+000	0.0000000E+000	0.0000000E+000	-5.1603115E+001	0.0000000E+000	0.0000000E+000	0.0000000E+000	-3.8396885E+001	0.0000000E+000	0.0000000E+000	0.0000000E+000	3.8396885E+001	1.2618270E+000	5.1603119E+001	-8.337490435191697E-007	-2.4784370E-006	3.0889332E+004
6.8103981E+001	7.6817713E+000	5.7653580E+000	9.6046324E+000	-3.6889126E+001	1.093330166596570E+001	2.7668190E-001	-8.4655536E-003	4.0534177E+002	1.4605365E+002	1.000000000000000E+000	10	4.9372711E-003	5.1405100E-004	0	2.047646243868965E-005	8.3272174E-002	6.2497806E-002	1.0411642E-001	3.6889126E+001	1.4605366E+005	1.9460211E+005	2.4331389E+005	-5.3110874E+001	0.0000000E+000	0.0000000E+000	0.0000000E+000	5.3110874E+001	0.0000000E+000	0.0000000E+000	0.0000000E+000	-5.3110874E+001	0.0000000E+000	0.0000000E+000	0.0000000E+000	-3.6889126E+001	0.0000000E+000	0.0000000E+000	0.0000000E+000	3.6889126E+001	1.3324014E+000	5.3110870E+001	-8.124908058347915E-007	-2.3422654E-006	3.2683262E+004
4.6441547E+001	9.5088148E+000	6.4094567E+000	1.1467288E+001	-3.3982105E+001	1.138852454090375E+001	2.7668962E-001	-1.0621367E-002	5.3467792E+002	1.6703722E+002	1.000000000000000E+000	10	4.9353954E-003	4.3038907E-004	0	1.953252428530120E-005	7.2311096E-002	4.8741598E-002	8.7204576E-002	3.3982105E+001	1.6703720E+005	2.4780975E+005	2.9884963E+005	-5.6017895E+001	0.0000000E+000	0.0000000E+000	0.0000000E+000	5.6017895E+001	0.0000000E+000	0.0000000E+000	0.0000000E+000	-5.6017895E+001	0.0000000E+000	0.0000000E+000	0.0000000E+000	-3.3982105E+001	0.0000000E+000	0.0000000E+000	0.0000000E+000	3.3982105E+001	1.4835602E+000	5.6017899E+001	-9.439381533884444E-007	-2.9388220E-006	2.6050283E+004
3.1629555E+001	1.1608169E+001	6.6783252E+000	1.3392147E+001	-2.9912359E+001	1.183443368205917E+001	2.7668744E-001	-1.2320681E-002	7.5345874E+002	1.8736746E+002	1.000000000000000E+000	10	4.9305158E-003	3.6816471E-004	0	1.803874430452965E-005	6.4723693E-002	3.7236355E-002	7.4670628E-002	2.9912359E+001	1.8736748E+005	3.2567944E+005	3.7573084E+005	-6.0087639E+001	0.0000000E+000	0.0000000E+000	0.0000000E+000	6.0087639E+001	0.0000000E+000	0.0000000E+000	0.0000000E+000	-6.0087639E+001	0.0000000E+000	0.0000000E+000	0.0000000E+000	-2.9912359E+001	0.0000000E+000	0.0000000E+000	0.0000000E+000	2.9912359E+001	1.7381856E+000	6.0087639E+001	-1.493779980771554E-006	-3.4089776E-006	2.2457156E+004
2.1551722E+001	1.3746895E+001	6.4590344E+000	1.5188688E+001	-2.5166676E+001	1.227336468957947E+001	2.7668422E-001	-1.4524941E-002	1.1433273E+003	2.0675937E+002	1.000000000000000E+000	10	4.9366937E-003	3.2502436E-004	0	1.756802667764552E-005	5.9588723E-002	2.7998004E-002	6.5838471E-002	2.5166676E+001	2.0675934E+005	4.4005019E+005	4.8620325E+005	-6.4833328E+001	0.0000000E+000	0.0000000E+000	0.0000000E+000	6.4833328E+001	0.0000000E+000	0.0000000E+000	0.0000000E+000	-6.4833328E+001	0.0000000E+000	0.0000000E+000	0.0000000E+000	-2.5166676E+001	0.0000000E+000	0.0000000E+000	0.0000000E+000	2.5166676E+001	2.1283205E+000	6.4833328E+001	-4.707176268841260E-007	-4.0188220E-006	1.9048904E+004
1.4685154E+001	1.5710718E+001	5.8228865E+000	1.6755079E+001	-2.0336290E+001	1.301005960462498E+001	2.7670920E-001	-6.5885019E-003	1.8612439E+003	2.2479517E+002	1.000000000000000E+000	11	4.9357875E-003	2.9458455E-004	0	1.512227306227497E-005	5.5963267E-002	2.0741748E-002	5.9683394E-002	2.0336290E+001	2.2479513E+005	6.0651938E+005	6.4683738E+005	-6.9663712E+001	0.0000000E+000	0.0000000E+000	0.0000000E+000	6.9663712E+001	0.0000000E+000	0.0000000E+000	0.0000000E+000	-6.9663712E+001	0.0000000E+000	0.0000000E+000	0.0000000E+000	-2.0336290E+001	0.0000000E+000	0.0000000E+000	0.0000000E+000	2.0336290E+001	2.6980979E+000	6.9663712E+001	-2.445753615370552E-006	-1.8230991E-006	4.1998805E+004
1.0003201E+001	1.7163088E+001	4.9368553E+000	1.7859007E+001	-1.6047552E+001	1.347866936022911E+001	2.7670798E-001	-6.5032579E-003	3.2227805E+003	2.4627307E+002	1.000000000000000E+000	11	4.9307058E-003	2.7609069E-004	0	1.226172497604320E-005	5.3812210E-002	1.5478748E-002	5.5994157E-002	1.6047552E+001	2.4627309E+005	8.5617381E+005	8.9088944E+005	-7.3952446E+001	0.0000000E+000	0.0000000E+000	0.0000000E+000	7.3952446E+001	0.0000000E+000	0.0000000E+000	0.0000000E+000	-7.3952446E+001	0.0000000E+000	0.0000000E+000	0.0000000E+000	-1.6047552E+001	0.0000000E+000	0.0000000E+000	0.0000000E+000	1.6047552E+001	3.4765224E+000	7.3952446E+001	-2.860548086231776E-006	-1.7995034E-006	4.2549133E+004
