EC-Lab ASCII FILE
Nb header lines : 63                          

Potentio Electrochemical Impedance Spectroscopy

Run on channel : 4 (SN 66756)
User : 
CE vs. WE compliance from -10 V to 10 V
Electrode connection : standard
Potential control : Ewe
Ewe ctrl range : min = -10.00 V, max = 10.00 V
Safety Limits :
	Do not start on E overload
Acquisition started on : 09/15/2025 08:59:30.852
Loaded Setting File :  C:\Users\Celltest\OneDrive - store-dot.com\Documents\EC-Lab\Data\Charmaine\R279\17382.mps
Saved on :
	File : 17485_C04.mpr
	Directory : C:\Users\Celltest\OneDrive - store-dot.com\Documents\EC-Lab\Data\Charmaine\R279\
	Host : 169.254.61.224
Device : VMP-3e (SN .003165)
Address : USB
EC-LAB for windows v11.62 (software)
Internet server v27.00 (firmware)
Command interpretor v12.03 (firmware)
Electrode material : 
Initial state : 
Electrolyte : 
Comments : 
Electrode surface area : 0.001 cm²
Characteristic mass : 0.001 g
Equivalent Weight : 0.000 g/eq.
Density : 0.000 g/cm3
Volume (V) : 0.001 cm³
Cycle Definition : Charge/Discharge alternance
Mode                Single sine         
E (V)               0.0000              
vs.                 Eoc                 
tE (h:m:s)          0:00:0.0000         
record              0                   
dI                  0.000               
unit dI             mA                  
dt (s)              0.000               
fi                  100.000             
unit fi             kHz                 
ff                  10.000              
unit ff             mHz                 
Nd                  6                   
Points              per decade          
spacing             Logarithmic         
Va (mV)             5.0                 
pw                  0.10                
Na                  2                   
corr                0                   
E range min (V)     -10.000             
E range max (V)     10.000              
I Range             Auto                
Bandwidth           5                   
nc cycles           0                   
goto Ns'            0                   
nr cycles           0                   
inc. cycle          0                   

freq/Hz	Re(Z)/Ohm	-Im(Z)/Ohm	|Z|/Ohm	Phase(Z)/deg	time/s	<Ewe>/V	<I>/mA	Cs/µF	Cp/µF	cycle number	I Range	|Ewe|/V	|I|/A	Ns	(Q-Qo)/mA.h	Re(Y)/Ohm-1	Im(Y)/Ohm-1	|Y|/Ohm-1	Phase(Y)/deg	Re(C)/nF	Im(C)/nF	|C|/nF	Phase(C)/deg	Re(M)	Im(M)	|M|	Phase(M)/deg	Re(Permittivity)	Im(Permittivity)	|Permittivity|	Phase(Permittivity)/deg	Re(Resistivity)/Ohm.cm	Im(Resistivity)/Ohm.cm	|Resistivity|/Ohm.cm	Phase(Resistivity)/deg	Re(Conductivity)/mS/cm	Im(Conductivity)/mS/cm	|Conductivity|/mS/cm	Phase(Conductivity)/deg	Tan(Delta)	Loss Angle(Delta)/deg	dq/mA.h	Pwe/W	Rwe/Ohm	
1.0000371E+005	1.1909169E+000	1.9310139E-001	1.2064706E+000	-9.2100763E+000	1.715497521479847E+000	2.7022451E-001	-7.0682257E-002	8.2417345E+000	2.1113290E-001	1.000000000000000E+000	9	5.2177696E-003	4.3248213E-003	0	-3.187796980361196E-005	8.1817836E-001	1.3266365E-001	8.2886398E-001	9.2100763E+000	2.1113287E+002	1.3021229E+003	1.3191289E+003	-8.0789925E+001	0.0000000E+000	0.0000000E+000	0.0000000E+000	8.0789925E+001	0.0000000E+000	0.0000000E+000	0.0000000E+000	-8.0789925E+001	0.0000000E+000	0.0000000E+000	0.0000000E+000	-9.2100763E+000	0.0000000E+000	0.0000000E+000	0.0000000E+000	9.2100763E+000	6.1673141E+000	8.0789925E+001	-3.187796980361196E-005	-1.9100078E-005	3.8230884E+003
6.8132047E+004	1.2228847E+000	2.5286910E-001	1.2487552E+000	-1.1683011E+001	2.293484268913744E+000	2.7021220E-001	-7.6892272E-002	9.2378931E+000	3.7879986E-001	1.000000000000000E+000	9	5.2753720E-003	4.2245043E-003	0	-4.967894824793459E-005	7.8420728E-001	1.6215903E-001	8.0079746E-001	1.1683011E+001	3.7879996E+002	1.8318905E+003	1.8706449E+003	-7.8316986E+001	0.0000000E+000	0.0000000E+000	0.0000000E+000	7.8316986E+001	0.0000000E+000	0.0000000E+000	0.0000000E+000	-7.8316986E+001	0.0000000E+000	0.0000000E+000	0.0000000E+000	-1.1683011E+001	0.0000000E+000	0.0000000E+000	0.0000000E+000	1.1683011E+001	4.8360381E+000	7.8316986E+001	-1.780097844432263E-005	-2.0777230E-005	3.5141660E+003
4.6420355E+004	1.2819936E+000	2.8487298E-001	1.3132632E+000	-1.2528191E+001	2.731474209722364E+000	2.7021393E-001	-7.8458764E-002	1.2035398E+001	5.6631672E-001	1.000000000000000E+000	9	5.4722335E-003	4.1668979E-003	0	-5.836178844797218E-005	7.4333107E-001	1.6517629E-001	7.6146197E-001	1.2528191E+001	5.6631677E+002	2.5485549E+003	2.6107178E+003	-7.7471809E+001	0.0000000E+000	0.0000000E+000	0.0000000E+000	7.7471809E+001	0.0000000E+000	0.0000000E+000	0.0000000E+000	-7.7471809E+001	0.0000000E+000	0.0000000E+000	0.0000000E+000	-1.2528191E+001	0.0000000E+000	0.0000000E+000	0.0000000E+000	1.2528191E+001	4.5002289E+000	7.7471809E+001	-8.682840200037592E-006	-2.1200651E-005	3.4440249E+003
3.1621139E+004	1.3470556E+000	3.2011205E-001	1.3845687E+000	-1.3367722E+001	3.309491863852600E+000	2.7019635E-001	-7.9503119E-002	1.5723188E+001	8.4045726E-001	1.000000000000000E+000	9	5.0859805E-003	3.6733320E-003	0	-7.908877770900210E-005	7.0267826E-001	1.6698329E-001	7.2224659E-001	1.3367722E+001	8.4045728E+002	3.5367073E+003	3.6351982E+003	-7.6632278E+001	0.0000000E+000	0.0000000E+000	0.0000000E+000	7.6632278E+001	0.0000000E+000	0.0000000E+000	0.0000000E+000	-7.6632278E+001	0.0000000E+000	0.0000000E+000	0.0000000E+000	-1.3367722E+001	0.0000000E+000	0.0000000E+000	0.0000000E+000	1.3367722E+001	4.2080750E+000	7.6632278E+001	-2.072698926102992E-005	-2.1481452E-005	3.3985630E+003
2.1544684E+004	1.4192412E+000	3.5749263E-001	1.4635732E+000	-1.4138116E+001	3.746480364614399E+000	2.7020898E-001	-7.4262850E-002	2.0663931E+001	1.2328726E+000	1.000000000000000E+000	9	5.4075387E-003	3.6947511E-003	0	-9.234353737711596E-005	6.6256320E-001	1.6689304E-001	6.8325931E-001	1.4138116E+001	1.2328724E+003	4.8944883E+003	5.0473745E+003	-7.5861885E+001	0.0000000E+000	0.0000000E+000	0.0000000E+000	7.5861885E+001	0.0000000E+000	0.0000000E+000	0.0000000E+000	-7.5861885E+001	0.0000000E+000	0.0000000E+000	0.0000000E+000	-1.4138116E+001	0.0000000E+000	0.0000000E+000	0.0000000E+000	1.4138116E+001	3.9699874E+000	7.5861885E+001	-1.325475966811386E-005	-2.0066489E-005	3.6385486E+003
1.4678594E+004	1.5021429E+000	4.0642405E-001	1.5561535E+000	-1.5139628E+001	4.183475611993345E+000	2.7023780E-001	-7.4803665E-002	2.6678183E+001	1.8197435E+000	1.000000000000000E+000	9	5.4985890E-003	3.5334488E-003	0	-1.026903903532721E-004	6.2030655E-001	1.6783191E-001	6.4261013E-001	1.5139628E+001	1.8197432E+003	6.7257705E+003	6.9676001E+003	-7.4860374E+001	0.0000000E+000	0.0000000E+000	0.0000000E+000	7.4860374E+001	0.0000000E+000	0.0000000E+000	0.0000000E+000	-7.4860374E+001	0.0000000E+000	0.0000000E+000	0.0000000E+000	-1.5139628E+001	0.0000000E+000	0.0000000E+000	0.0000000E+000	1.5139628E+001	3.6959991E+000	7.4860374E+001	-1.034685297615619E-005	-2.0214778E-005	3.6126279E+003
1.0002226E+004	1.5876790E+000	4.6363446E-001	1.6539896E+000	-1.6278875E+001	4.621494086139137E+000	2.7021843E-001	-7.6500699E-002	3.4320038E+001	2.6967065E+000	1.000000000000000E+000	9	5.4792161E-003	3.3127272E-003	0	-1.104463538268917E-004	5.8035964E-001	1.6947678E-001	6.0459876E-001	1.6278875E+001	2.6967068E+003	9.2346543E+003	9.6203467E+003	-7.3721123E+001	0.0000000E+000	0.0000000E+000	0.0000000E+000	7.3721123E+001	0.0000000E+000	0.0000000E+000	0.0000000E+000	-7.3721123E+001	0.0000000E+000	0.0000000E+000	0.0000000E+000	-1.6278875E+001	0.0000000E+000	0.0000000E+000	0.0000000E+000	1.6278875E+001	3.4244199E+000	7.3721123E+001	-7.755963473619581E-006	-2.0671900E-005	3.5322349E+003
6.8110674E+003	1.6866819E+000	5.3183258E-001	1.7685422E+000	-1.7500736E+001	5.177516085881507E+000	2.7020824E-001	-7.9447187E-002	4.3936962E+001	3.9732788E+000	1.000000000000000E+000	9	5.4520541E-003	3.0827955E-003	0	-1.310501676398368E-004	5.3926510E-001	1.7003724E-001	5.6543744E-001	1.7500736E+001	3.9732781E+003	1.2601066E+004	1.3212639E+004	-7.2499268E+001	0.0000000E+000	0.0000000E+000	0.0000000E+000	7.2499268E+001	0.0000000E+000	0.0000000E+000	0.0000000E+000	-7.2499268E+001	0.0000000E+000	0.0000000E+000	0.0000000E+000	-1.7500736E+001	0.0000000E+000	0.0000000E+000	0.0000000E+000	1.7500736E+001	3.1714528E+000	7.2499268E+001	-2.060381381294509E-005	-2.1467285E-005	3.4011052E+003
4.6414854E+003	1.7960604E+000	6.1388326E-001	1.8980743E+000	-1.8870136E+001	5.870706652196532E+000	2.7021998E-001	-7.7787466E-002	5.5856968E+001	5.8428202E+000	1.000000000000000E+000	9	5.4222150E-003	2.8566928E-003	0	-1.463669905147205E-004	4.9853373E-001	1.7039599E-001	5.2684975E-001	1.8870136E+001	5.8428193E+003	1.7094551E+004	1.8065498E+004	-7.1129868E+001	0.0000000E+000	0.0000000E+000	0.0000000E+000	7.1129868E+001	0.0000000E+000	0.0000000E+000	0.0000000E+000	-7.1129868E+001	0.0000000E+000	0.0000000E+000	0.0000000E+000	-1.8870136E+001	0.0000000E+000	0.0000000E+000	0.0000000E+000	1.8870136E+001	2.9257362E+000	7.1129868E+001	-1.531682287488366E-005	-2.1019729E-005	3.4738242E+003
3.1610117E+003	1.9190959E+000	7.2736192E-001	2.0523119E+000	-2.0757349E+001	6.560692311635648E+000	2.7022251E-001	-7.4617207E-002	6.9221893E+001	8.6947651E+000	1.000000000000000E+000	9	5.2631320E-003	2.5644894E-003	0	-1.574515600201622E-004	4.5562750E-001	1.7268865E-001	4.8725536E-001	2.0757349E+001	8.6947646E+003	2.2940559E+004	2.4533002E+004	-6.9242653E+001	0.0000000E+000	0.0000000E+000	0.0000000E+000	6.9242653E+001	0.0000000E+000	0.0000000E+000	0.0000000E+000	-6.9242653E+001	0.0000000E+000	0.0000000E+000	0.0000000E+000	-2.0757349E+001	0.0000000E+000	0.0000000E+000	0.0000000E+000	2.0757349E+001	2.6384332E+000	6.9242653E+001	-1.108456950544174E-005	-2.0163250E-005	3.6214504E+003
2.1556899E+003	2.0566812E+000	8.6308450E-001	2.2304378E+000	-2.2765314E+001	7.250684877748427E+000	2.7023456E-001	-7.6444775E-002	8.5542221E+001	1.2808755E+001	1.000000000000000E+000	9	4.9917316E-003	2.2380054E-003	0	-1.724297734721719E-004	4.1341552E-001	1.7348945E-001	4.4834247E-001	2.2765314E+001	1.2808754E+004	3.0522535E+004	3.3101199E+004	-6.7234688E+001	0.0000000E+000	0.0000000E+000	0.0000000E+000	6.7234688E+001	0.0000000E+000	0.0000000E+000	0.0000000E+000	-6.7234688E+001	0.0000000E+000	0.0000000E+000	0.0000000E+000	-2.2765314E+001	0.0000000E+000	0.0000000E+000	0.0000000E+000	2.2765314E+001	2.3829429E+000	6.7234688E+001	-1.497821345200969E-005	-2.0658019E-005	3.5350298E+003
1.4685898E+003	2.2172613E+000	1.0501420E+000	2.4533744E+000	-2.5343231E+001	7.717929219914367E+000	2.7021837E-001	-7.2472617E-002	1.0319807E+002	1.8907757E+001	1.000000000000000E+000	9	5.1627639E-003	2.1043522E-003	0	-1.831718028302744E-004	3.6837420E-001	1.7446986E-001	4.0760186E-001	2.5343231E+001	1.8907758E+004	3.9921680E+004	4.4172887E+004	-6.4656769E+001	0.0000000E+000	0.0000000E+000	0.0000000E+000	6.4656769E+001	0.0000000E+000	0.0000000E+000	0.0000000E+000	-6.4656769E+001	0.0000000E+000	0.0000000E+000	0.0000000E+000	-2.5343231E+001	0.0000000E+000	0.0000000E+000	0.0000000E+000	2.5343231E+001	2.1113918E+000	6.4656769E+001	-1.074202935810251E-005	-1.9583433E-005	3.7285581E+003
1.0003202E+003	2.4066181E+000	1.2854967E+000	2.7284267E+000	-2.8108934E+001	8.186669642200286E+000	2.7024302E-001	-7.3945865E-002	1.2376849E+002	2.7474354E+001	1.000000000000000E+000	9	5.1115048E-003	1.8734258E-003	0	-1.924795717579546E-004	3.2328278E-001	1.7268172E-001	3.6651158E-001	2.8108934E+001	2.7474352E+004	5.1435586E+004	5.8313461E+004	-6.1891068E+001	0.0000000E+000	0.0000000E+000	0.0000000E+000	6.1891068E+001	0.0000000E+000	0.0000000E+000	0.0000000E+000	-6.1891068E+001	0.0000000E+000	0.0000000E+000	0.0000000E+000	-2.8108934E+001	0.0000000E+000	0.0000000E+000	0.0000000E+000	2.8108934E+001	1.8721309E+000	6.1891068E+001	-9.307768927680138E-006	-1.9983354E-005	3.6546062E+003
6.8108978E+002	2.6647732E+000	1.6136947E+000	3.1152892E+000	-3.1197651E+001	8.906419942999491E+000	2.7036145E-001	-5.9632830E-002	1.4480862E+002	3.8854420E+001	1.000000000000000E+000	10	5.0936234E-003	1.6350403E-003	0	-2.052960996590296E-004	2.7457657E-001	1.6627410E-001	3.2099748E-001	3.1197651E+001	3.8854418E+004	6.4162207E+004	7.5009695E+004	-5.8802349E+001	0.0000000E+000	0.0000000E+000	0.0000000E+000	5.8802349E+001	0.0000000E+000	0.0000000E+000	0.0000000E+000	-5.8802349E+001	0.0000000E+000	0.0000000E+000	0.0000000E+000	-3.1197651E+001	0.0000000E+000	0.0000000E+000	0.0000000E+000	3.1197651E+001	1.6513491E+000	5.8802353E+001	-1.281652790107506E-005	-1.6122418E-005	4.5337686E+003
4.6396069E+002	2.9779341E+000	2.0326610E+000	3.6055238E+000	-3.4316437E+001	9.375220871967031E+000	2.7024922E-001	-5.7704329E-002	1.6876173E+002	5.3637329E+001	1.000000000000000E+000	10	4.9669673E-003	1.3775993E-003	0	-2.121008290903830E-004	2.2907534E-001	1.5636092E-001	2.7735221E-001	3.4316437E+001	5.3637332E+004	7.8580953E+004	9.5141633E+004	-5.5683563E+001	0.0000000E+000	0.0000000E+000	0.0000000E+000	5.5683563E+001	0.0000000E+000	0.0000000E+000	0.0000000E+000	-5.5683563E+001	0.0000000E+000	0.0000000E+000	0.0000000E+000	-3.4316437E+001	0.0000000E+000	0.0000000E+000	0.0000000E+000	3.4316437E+001	1.4650422E+000	5.5683563E+001	-6.804729431353411E-006	-1.5594549E-005	4.6833438E+003
3.1631589E+002	3.4257846E+000	2.5521004E+000	4.2719102E+000	-3.6684937E+001	9.841924520791508E+000	2.7023247E-001	-5.7435751E-002	1.9715208E+002	7.0364349E+001	1.000000000000000E+000	10	4.8779021E-003	1.1418550E-003	0	-2.186583583842213E-004	1.8772228E-001	1.3984711E-001	2.3408732E-001	3.6684937E+001	7.0364344E+004	9.4452828E+004	1.1778148E+005	-5.3315063E+001	0.0000000E+000	0.0000000E+000	0.0000000E+000	5.3315063E+001	0.0000000E+000	0.0000000E+000	0.0000000E+000	-5.3315063E+001	0.0000000E+000	0.0000000E+000	0.0000000E+000	-3.6684937E+001	0.0000000E+000	0.0000000E+000	0.0000000E+000	3.6684937E+001	1.3423393E+000	5.3315063E+001	-6.557529293838249E-006	-1.5521005E-005	4.7049521E+003
2.1534457E+002	4.0469799E+000	3.1781638E+000	5.1457529E+000	-3.8143166E+001	1.030944552962319E+001	2.7023199E-001	-5.6525595E-002	2.3254657E+002	8.8708374E+001	1.000000000000000E+000	10	4.8217950E-003	9.3704363E-004	0	-2.256117666084578E-004	1.5283866E-001	1.2002686E-001	1.9433503E-001	3.8143166E+001	8.8708375E+004	1.1295863E+005	1.4362739E+005	-5.1856834E+001	0.0000000E+000	0.0000000E+000	0.0000000E+000	5.1856834E+001	0.0000000E+000	0.0000000E+000	0.0000000E+000	-5.1856834E+001	0.0000000E+000	0.0000000E+000	0.0000000E+000	-3.8143166E+001	0.0000000E+000	0.0000000E+000	0.0000000E+000	3.8143166E+001	1.2733705E+000	5.1856842E+001	-6.953408224236532E-006	-1.5275024E-005	4.7807012E+003
1.4673740E+002	4.9112649E+000	3.8706031E+000	6.2531667E+000	-3.8241898E+001	1.077237523163785E+001	2.7023908E-001	-5.6566648E-002	2.8022098E+002	1.0736382E+002	1.000000000000000E+000	10	4.7865277E-003	7.6545659E-004	0	-2.330943620843593E-004	1.2560108E-001	9.8987110E-002	1.5991898E-001	3.8241898E+001	1.0736382E+005	1.3622997E+005	1.7345200E+005	-5.1758102E+001	0.0000000E+000	0.0000000E+000	0.0000000E+000	5.1758102E+001	0.0000000E+000	0.0000000E+000	0.0000000E+000	-5.1758102E+001	0.0000000E+000	0.0000000E+000	0.0000000E+000	-3.8241898E+001	0.0000000E+000	0.0000000E+000	0.0000000E+000	3.8241898E+001	1.2688630E+000	5.1758102E+001	-7.482595475901478E-006	-1.5286520E-005	4.7773574E+003
1.0003201E+002	6.0464950E+000	4.5462580E+000	7.5649562E+000	-3.6938889E+001	1.124070429393032E+001	2.7021599E-001	-5.4526236E-002	3.4996698E+002	1.2639281E+002	1.000000000000000E+000	10	4.7586579E-003	6.2903971E-004	0	-2.405613520007594E-004	1.0565519E-001	7.9440363E-002	1.3218847E-001	3.6938889E+001	1.2639281E+005	1.6810167E+005	2.1031717E+005	-5.3061111E+001	0.0000000E+000	0.0000000E+000	0.0000000E+000	5.3061111E+001	0.0000000E+000	0.0000000E+000	0.0000000E+000	-5.3061111E+001	0.0000000E+000	0.0000000E+000	0.0000000E+000	-3.6938889E+001	0.0000000E+000	0.0000000E+000	0.0000000E+000	3.6938889E+001	1.3299938E+000	5.3061111E+001	-7.466989916400072E-006	-1.4733861E-005	4.9557061E+003
6.8103981E+001	7.5381670E+000	5.0674033E+000	9.0830908E+000	-3.3910290E+001	1.171930922326283E+001	2.7024791E-001	-5.3457547E-002	4.6117117E+002	1.4353763E+002	1.000000000000000E+000	10	4.7535859E-003	5.2334456E-004	0	-2.478580420159495E-004	9.1368906E-002	6.1421178E-002	1.1009468E-001	3.3910290E+001	1.4353764E+005	2.1352369E+005	2.5728470E+005	-5.6089710E+001	0.0000000E+000	0.0000000E+000	0.0000000E+000	5.6089710E+001	0.0000000E+000	0.0000000E+000	0.0000000E+000	-5.6089710E+001	0.0000000E+000	0.0000000E+000	0.0000000E+000	-3.3910290E+001	0.0000000E+000	0.0000000E+000	0.0000000E+000	3.3910290E+001	1.4875798E+000	5.6089706E+001	-7.296690015190174E-006	-1.4446790E-005	5.0553740E+003
4.6441547E+001	9.1698227E+000	5.2351804E+000	1.0559013E+001	-2.9722651E+001	1.217453140488942E+001	2.7022931E-001	-5.5667676E-002	6.5460876E+002	1.6091571E+002	1.000000000000000E+000	10	4.7230530E-003	4.4730058E-004	0	-2.551138616334421E-004	8.2245901E-002	4.6955336E-002	9.4705820E-002	2.9722651E+001	1.6091569E+005	2.8185628E+005	3.2455634E+005	-6.0277351E+001	0.0000000E+000	0.0000000E+000	0.0000000E+000	6.0277351E+001	0.0000000E+000	0.0000000E+000	0.0000000E+000	-6.0277351E+001	0.0000000E+000	0.0000000E+000	0.0000000E+000	-2.9722651E+001	0.0000000E+000	0.0000000E+000	0.0000000E+000	2.9722651E+001	1.7515773E+000	6.0277351E+001	-7.255819617492539E-006	-1.5043038E-005	4.8543306E+003
3.1629555E+001	1.0905190E+001	5.0706091E+000	1.2026399E+001	-2.4937111E+001	1.262045121277333E+001	2.7021718E-001	-5.5233117E-002	9.9235461E+002	1.7640707E+002	1.000000000000000E+000	10	4.7400096E-003	3.9413373E-004	0	-2.616444097104492E-004	7.5398393E-002	3.5058144E-002	8.3150409E-002	2.4937111E+001	1.7640706E+005	3.7939284E+005	4.1839978E+005	-6.5062889E+001	0.0000000E+000	0.0000000E+000	0.0000000E+000	6.5062889E+001	0.0000000E+000	0.0000000E+000	0.0000000E+000	-6.5062889E+001	0.0000000E+000	0.0000000E+000	0.0000000E+000	-2.4937111E+001	0.0000000E+000	0.0000000E+000	0.0000000E+000	2.4937111E+001	2.1506667E+000	6.5062889E+001	-6.530548077007153E-006	-1.4924937E-005	4.8923037E+003
2.1551722E+001	1.2264938E+001	4.5008693E+000	1.3064706E+001	-2.0151642E+001	1.305933792694123E+001	2.7021235E-001	-5.5479307E-002	1.6407474E+003	1.9473108E+002	1.000000000000000E+000	10	4.6990900E-003	3.5967820E-004	0	-2.693379717342395E-004	7.1856514E-002	2.6369212E-002	7.6542102E-002	2.0151642E+001	1.9473108E+005	5.3064519E+005	5.6524731E+005	-6.9848358E+001	0.0000000E+000	0.0000000E+000	0.0000000E+000	6.9848358E+001	0.0000000E+000	0.0000000E+000	0.0000000E+000	-6.9848358E+001	0.0000000E+000	0.0000000E+000	0.0000000E+000	-2.0151642E+001	0.0000000E+000	0.0000000E+000	0.0000000E+000	2.0151642E+001	2.7250154E+000	6.9848358E+001	-7.693562023790323E-006	-1.4991194E-005	4.8705068E+003
1.4685154E+001	1.3460356E+001	3.9206119E+000	1.4019713E+001	-1.6239313E+001	1.379602801529109E+001	2.7025452E-001	-4.8119847E-002	2.7643164E+003	2.1618083E+002	1.000000000000000E+000	11	4.7149602E-003	3.3630931E-004	0	-2.786696164575559E-004	6.8482287E-002	1.9946909E-002	7.1328133E-002	1.6239313E+001	2.1618083E+005	7.4219819E+005	7.7304094E+005	-7.3760689E+001	0.0000000E+000	0.0000000E+000	0.0000000E+000	7.3760689E+001	0.0000000E+000	0.0000000E+000	0.0000000E+000	-7.3760689E+001	0.0000000E+000	0.0000000E+000	0.0000000E+000	-1.6239313E+001	0.0000000E+000	0.0000000E+000	0.0000000E+000	1.6239313E+001	3.4332283E+000	7.3760689E+001	-9.331644723316356E-006	-1.3004606E-005	5.6162798E+003
