EC-Lab ASCII FILE
Nb header lines : 63                          

Potentio Electrochemical Impedance Spectroscopy

Run on channel : 7 (SN 66126)
User : 
CE vs. WE compliance from -10 V to 10 V
Electrode connection : standard
Potential control : Ewe
Ewe ctrl range : min = -10.00 V, max = 10.00 V
Safety Limits :
	Do not start on E overload
Acquisition started on : 09/15/2025 09:00:10.151
Loaded Setting File :  C:\Users\Celltest\OneDrive - store-dot.com\Documents\EC-Lab\Data\Charmaine\R279\17382_C01.mpr
Saved on :
	File : 17489_C07.mpr
	Directory : C:\Users\Celltest\OneDrive - store-dot.com\Documents\EC-Lab\Data\Charmaine\R279\
	Host : 169.254.61.224
Device : VMP-3e (SN .003165)
Address : USB
EC-LAB for windows v11.62 (software)
Internet server v27.00 (firmware)
Command interpretor v12.03 (firmware)
Electrode material : 
Initial state : 
Electrolyte : 
Comments : 
Electrode surface area : 0.001 cm²
Characteristic mass : 0.001 g
Equivalent Weight : 0.000 g/eq.
Density : 0.000 g/cm3
Volume (V) : 0.001 cm³
Cycle Definition : Charge/Discharge alternance
Mode                Single sine         
E (V)               0.0000              
vs.                 Eoc                 
tE (h:m:s)          0:00:0.0000         
record              0                   
dI                  0.000               
unit dI             mA                  
dt (s)              0.000               
fi                  100.000             
unit fi             kHz                 
ff                  10.000              
unit ff             mHz                 
Nd                  6                   
Points              per decade          
spacing             Logarithmic         
Va (mV)             5.0                 
pw                  0.10                
Na                  2                   
corr                0                   
E range min (V)     -10.000             
E range max (V)     10.000              
I Range             Auto                
Bandwidth           5                   
nc cycles           0                   
goto Ns'            0                   
nr cycles           0                   
inc. cycle          0                   

freq/Hz	Re(Z)/Ohm	-Im(Z)/Ohm	|Z|/Ohm	Phase(Z)/deg	time/s	<Ewe>/V	<I>/mA	Cs/µF	Cp/µF	cycle number	I Range	|Ewe|/V	|I|/A	Ns	(Q-Qo)/mA.h	Re(Y)/Ohm-1	Im(Y)/Ohm-1	|Y|/Ohm-1	Phase(Y)/deg	Re(C)/nF	Im(C)/nF	|C|/nF	Phase(C)/deg	Re(M)	Im(M)	|M|	Phase(M)/deg	Re(Permittivity)	Im(Permittivity)	|Permittivity|	Phase(Permittivity)/deg	Re(Resistivity)/Ohm.cm	Im(Resistivity)/Ohm.cm	|Resistivity|/Ohm.cm	Phase(Resistivity)/deg	Re(Conductivity)/mS/cm	Im(Conductivity)/mS/cm	|Conductivity|/mS/cm	Phase(Conductivity)/deg	Tan(Delta)	Loss Angle(Delta)/deg	dq/mA.h	Pwe/W	Rwe/Ohm	
1.0000371E+005	1.9142859E+000	2.8134197E-001	1.9348499E+000	-8.3608856E+000	2.066485058137914E+000	2.7826017E-001	3.5884276E-002	5.6567822E+000	1.1960352E-001	1.000000000000000E+000	9	4.5909216E-003	2.3727533E-003	0	5.227474757767697E-006	5.1134294E-001	7.5151905E-002	5.1683599E-001	8.3608856E+000	1.1960352E+002	8.1379736E+002	8.2253943E+002	-8.1639114E+001	0.0000000E+000	0.0000000E+000	0.0000000E+000	8.1639114E+001	0.0000000E+000	0.0000000E+000	0.0000000E+000	-8.1639114E+001	0.0000000E+000	0.0000000E+000	0.0000000E+000	-8.3608856E+000	0.0000000E+000	0.0000000E+000	0.0000000E+000	8.3608856E+000	6.8041248E+000	8.1639114E+001	5.227474757767697E-006	9.9851650E-006	7.7543760E+003
6.8132047E+004	1.9794270E+000	3.1243595E-001	2.0039330E+000	-8.9696569E+000	2.644499512243783E+000	2.7827746E-001	3.7783317E-002	7.4766612E+000	1.8174535E-001	1.000000000000000E+000	9	5.0402149E-003	2.5151614E-003	0	9.414590304885576E-006	4.9291623E-001	7.7802695E-002	4.9901870E-001	8.9696569E+000	1.8174538E+002	1.1514413E+003	1.1656965E+003	-8.1030342E+001	0.0000000E+000	0.0000000E+000	0.0000000E+000	8.1030342E+001	0.0000000E+000	0.0000000E+000	0.0000000E+000	-8.1030342E+001	0.0000000E+000	0.0000000E+000	0.0000000E+000	-8.9696569E+000	0.0000000E+000	0.0000000E+000	0.0000000E+000	8.9696569E+000	6.3354650E+000	8.1030342E+001	4.187115547117880E-006	1.0514245E-005	7.3650879E+003
4.6420355E+004	2.0522578E+000	3.4352559E-001	2.0808103E+000	-9.5025921E+000	3.222495966387214E+000	2.7827263E-001	3.3166043E-002	9.9805069E+000	2.7202311E-001	1.000000000000000E+000	9	5.0651217E-003	2.4342064E-003	0	1.517151888074457E-005	4.7398752E-001	7.9340354E-002	4.8058200E-001	9.5025921E+000	2.7202316E+002	1.6250944E+003	1.6477040E+003	-8.0497406E+001	0.0000000E+000	0.0000000E+000	0.0000000E+000	8.0497406E+001	0.0000000E+000	0.0000000E+000	0.0000000E+000	-8.0497406E+001	0.0000000E+000	0.0000000E+000	0.0000000E+000	-9.5025921E+000	0.0000000E+000	0.0000000E+000	0.0000000E+000	9.5025921E+000	5.9741044E+000	8.0497406E+001	5.756928575858992E-006	9.2292021E-006	8.3902871E+003
3.1621139E+004	2.1334119E+000	3.9596647E-001	2.1698470E+000	-1.0514589E+001	3.659487187134800E+000	2.7827835E-001	3.5791192E-002	1.2711131E+001	4.2329469E-001	1.000000000000000E+000	9	5.3843148E-003	2.4814259E-003	0	1.574844271985866E-005	4.5312339E-001	8.4100805E-002	4.6086198E-001	1.0514589E+001	4.2329456E+002	2.2806523E+003	2.3196021E+003	-7.9485413E+001	0.0000000E+000	0.0000000E+000	0.0000000E+000	7.9485413E+001	0.0000000E+000	0.0000000E+000	0.0000000E+000	-7.9485413E+001	0.0000000E+000	0.0000000E+000	0.0000000E+000	-1.0514589E+001	0.0000000E+000	0.0000000E+000	0.0000000E+000	1.0514589E+001	5.3878598E+000	7.9485413E+001	5.769238391140878E-007	9.9599138E-006	7.7750513E+003
2.1544684E+004	2.2241759E+000	4.4476873E-001	2.2682102E+000	-1.1308287E+001	4.096476407867158E+000	2.7828583E-001	3.2235131E-002	1.6609089E+001	6.3862759E-001	1.000000000000000E+000	9	5.2734595E-003	2.3249430E-003	0	1.645021454579870E-005	4.3231720E-001	8.6450525E-002	4.4087625E-001	1.1308287E+001	6.3862769E+002	3.1936150E+003	3.2568423E+003	-7.8691711E+001	0.0000000E+000	0.0000000E+000	0.0000000E+000	7.8691711E+001	0.0000000E+000	0.0000000E+000	0.0000000E+000	-7.8691711E+001	0.0000000E+000	0.0000000E+000	0.0000000E+000	-1.1308287E+001	0.0000000E+000	0.0000000E+000	0.0000000E+000	1.1308287E+001	5.0007472E+000	7.8691711E+001	7.017718259400392E-007	8.9705800E-006	8.6329980E+003
1.4678594E+004	2.3287053E+000	5.0022405E-001	2.3818254E+000	-1.2123354E+001	4.533495281968499E+000	2.7828324E-001	3.3221874E-002	2.1675598E+001	9.5604950E-001	1.000000000000000E+000	9	5.0324230E-003	2.1128429E-003	0	1.715718776040012E-005	4.1048253E-001	8.8174850E-002	4.1984606E-001	1.2123354E+001	9.5604944E+002	4.4507212E+003	4.5522466E+003	-7.7876648E+001	0.0000000E+000	0.0000000E+000	0.0000000E+000	7.7876648E+001	0.0000000E+000	0.0000000E+000	0.0000000E+000	-7.7876648E+001	0.0000000E+000	0.0000000E+000	0.0000000E+000	-1.2123354E+001	0.0000000E+000	0.0000000E+000	0.0000000E+000	1.2123354E+001	4.6553245E+000	7.7876648E+001	7.069732146014262E-007	9.2450910E-006	8.3765059E+003
1.0002226E+004	2.4396355E+000	5.6787008E-001	2.5048549E+000	-1.3103322E+001	4.829489456053125E+000	2.7828458E-001	3.2942601E-002	2.8020411E+001	1.4401487E+000	1.000000000000000E+000	9	5.1112915E-003	2.0405538E-003	0	1.813054898360537E-005	3.8883004E-001	9.0507351E-002	3.9922473E-001	1.3103322E+001	1.4401489E+003	6.1870449E+003	6.3524448E+003	-7.6896675E+001	0.0000000E+000	0.0000000E+000	0.0000000E+000	7.6896675E+001	0.0000000E+000	0.0000000E+000	0.0000000E+000	-7.6896675E+001	0.0000000E+000	0.0000000E+000	0.0000000E+000	-1.3103322E+001	0.0000000E+000	0.0000000E+000	0.0000000E+000	1.3103322E+001	4.2961154E+000	7.6896675E+001	9.733612232052500E-007	9.1674174E-006	8.4475596E+003
6.8110674E+003	2.5678592E+000	6.4809924E-001	2.6483831E+000	-1.4164995E+001	5.207524887315230E+000	2.7824479E-001	1.4250091E-002	3.6054829E+001	2.1591601E+000	1.000000000000000E+000	9	5.0648036E-003	1.9124135E-003	0	1.924319736920814E-005	3.6610830E-001	9.2401683E-002	3.7758887E-001	1.4164995E+001	2.1591597E+003	8.5548916E+003	8.8231592E+003	-7.5835007E+001	0.0000000E+000	0.0000000E+000	0.0000000E+000	7.5835007E+001	0.0000000E+000	0.0000000E+000	0.0000000E+000	-7.5835007E+001	0.0000000E+000	0.0000000E+000	0.0000000E+000	-1.4164995E+001	0.0000000E+000	0.0000000E+000	0.0000000E+000	1.4164995E+001	3.9621389E+000	7.5835007E+001	1.112648385602772E-006	3.9650135E-006	1.9525826E+004
4.6414854E+003	2.7066576E+000	7.4107438E-001	2.8062763E+000	-1.5312143E+001	5.678694536414696E+000	2.7830988E-001	5.6513038E-002	4.6270195E+001	3.2267408E+000	1.000000000000000E+000	9	5.0149565E-003	1.7870502E-003	0	2.498751805993056E-005	3.4369442E-001	9.4102450E-002	3.5634410E-001	1.5312143E+001	3.2267405E+003	1.1785164E+004	1.2218918E+004	-7.4687859E+001	0.0000000E+000	0.0000000E+000	0.0000000E+000	7.4687859E+001	0.0000000E+000	0.0000000E+000	0.0000000E+000	-7.4687859E+001	0.0000000E+000	0.0000000E+000	0.0000000E+000	-1.5312143E+001	0.0000000E+000	0.0000000E+000	0.0000000E+000	1.5312143E+001	3.6523428E+000	7.4687859E+001	5.744320690722412E-006	1.5728137E-005	4.9247021E+003
3.1610117E+003	2.8656380E+000	8.5584885E-001	2.9907119E+000	-1.6628735E+001	6.145704958595161E+000	2.7830884E-001	5.1411688E-002	5.8829739E+001	4.8177242E+000	1.000000000000000E+000	9	4.9687852E-003	1.6614054E-003	0	3.242846460022135E-005	3.2038498E-001	9.5685899E-002	3.3436856E-001	1.6628735E+001	4.8177256E+003	1.6131182E+004	1.6835246E+004	-7.3371262E+001	0.0000000E+000	0.0000000E+000	0.0000000E+000	7.3371262E+001	0.0000000E+000	0.0000000E+000	0.0000000E+000	-7.3371262E+001	0.0000000E+000	0.0000000E+000	0.0000000E+000	-1.6628735E+001	0.0000000E+000	0.0000000E+000	0.0000000E+000	1.6628735E+001	3.3482993E+000	7.3371262E+001	7.440946540290798E-006	1.4308327E-005	5.4133379E+003
2.1556899E+003	3.0517583E+000	9.8982948E-001	3.2082691E+000	-1.7970329E+001	6.612708714106702E+000	2.7831796E-001	5.2770801E-002	7.4588768E+001	7.0999064E+000	1.000000000000000E+000	9	4.9437555E-003	1.5409417E-003	0	3.734885498281478E-005	2.9648897E-001	9.6165389E-002	3.1169456E-001	1.7970329E+001	7.0999067E+003	2.1889830E+004	2.3012461E+004	-7.2029671E+001	0.0000000E+000	0.0000000E+000	0.0000000E+000	7.2029671E+001	0.0000000E+000	0.0000000E+000	0.0000000E+000	-7.2029671E+001	0.0000000E+000	0.0000000E+000	0.0000000E+000	-1.7970329E+001	0.0000000E+000	0.0000000E+000	0.0000000E+000	1.7970329E+001	3.0831151E+000	7.2029671E+001	4.920390382593426E-006	1.4687062E-005	5.2740903E+003
1.4685898E+003	3.2627275E+000	1.1652521E+000	3.4645638E+000	-1.9653704E+001	7.333934241672978E+000	2.7830505E-001	-8.6490680E-003	9.3003593E+001	1.0520645E+001	1.000000000000000E+000	10	5.0046043E-003	1.4445120E-003	0	4.074774510969615E-005	2.7182141E-001	9.7078428E-002	2.8863662E-001	1.9653704E+001	1.0520644E+004	2.9458000E+004	3.1280309E+004	-7.0346298E+001	0.0000000E+000	0.0000000E+000	0.0000000E+000	7.0346298E+001	0.0000000E+000	0.0000000E+000	0.0000000E+000	-7.0346298E+001	0.0000000E+000	0.0000000E+000	0.0000000E+000	-1.9653704E+001	0.0000000E+000	0.0000000E+000	0.0000000E+000	1.9653704E+001	2.8000185E+000	7.0346298E+001	3.398890126881366E-006	-2.4070794E-006	3.2177461E+004
1.0003202E+003	3.4889114E+000	1.3952346E+000	3.7575500E+000	-2.1796740E+001	7.802699783962453E+000	2.7830672E-001	-8.8500949E-003	1.1403386E+002	1.5722398E+001	1.000000000000000E+000	10	4.9707196E-003	1.3228619E-003	0	3.995538535437340E-005	2.4710436E-001	9.8818384E-002	2.6613086E-001	2.1796740E+001	1.5722398E+004	3.9315293E+004	4.2342484E+004	-6.8203262E+001	0.0000000E+000	0.0000000E+000	0.0000000E+000	6.8203262E+001	0.0000000E+000	0.0000000E+000	0.0000000E+000	-6.8203262E+001	0.0000000E+000	0.0000000E+000	0.0000000E+000	-2.1796740E+001	0.0000000E+000	0.0000000E+000	0.0000000E+000	2.1796740E+001	2.5005913E+000	6.8203262E+001	-7.923597553227492E-007	-2.4630408E-006	3.1446750E+004
6.8108978E+002	3.7551901E+000	1.6952815E+000	4.1201253E+000	-2.4296808E+001	8.268434872705257E+000	2.7830684E-001	-9.8291868E-003	1.3783958E+002	2.3336555E+001	1.000000000000000E+000	10	4.9375072E-003	1.1983876E-003	0	3.979361051633411E-005	2.2121322E-001	9.9866763E-002	2.4271107E-001	2.4296808E+001	2.3336555E+004	5.1692422E+004	5.6715969E+004	-6.5703194E+001	0.0000000E+000	0.0000000E+000	0.0000000E+000	6.5703194E+001	0.0000000E+000	0.0000000E+000	0.0000000E+000	-6.5703194E+001	0.0000000E+000	0.0000000E+000	0.0000000E+000	-2.4296808E+001	0.0000000E+000	0.0000000E+000	0.0000000E+000	2.4296808E+001	2.2150836E+000	6.5703194E+001	-1.617748380392916E-007	-2.7355300E-006	2.8314330E+004
4.6396069E+002	4.0881529E+000	2.0872347E+000	4.5901570E+000	-2.7046900E+001	8.737206868332578E+000	2.7831292E-001	-9.1367541E-003	1.6434921E+002	3.3982487E+001	1.000000000000000E+000	10	4.9138987E-003	1.0705296E-003	0	3.824286266110398E-005	1.9403140E-001	9.9064074E-002	2.1785747E-001	2.7046900E+001	3.3982480E+004	6.6559641E+004	7.4732820E+004	-6.2953102E+001	0.0000000E+000	0.0000000E+000	0.0000000E+000	6.2953102E+001	0.0000000E+000	0.0000000E+000	0.0000000E+000	-6.2953102E+001	0.0000000E+000	0.0000000E+000	0.0000000E+000	-2.7046900E+001	0.0000000E+000	0.0000000E+000	0.0000000E+000	2.7046900E+001	1.9586455E+000	6.2953102E+001	-1.550747855230126E-006	-2.5428767E-006	3.0460809E+004
3.1631589E+002	4.5243864E+000	2.5932226E+000	5.2148705E+000	-2.9819851E+001	9.203912917175330E+000	2.7830678E-001	-9.4848350E-003	1.9402574E+002	4.7979076E+001	1.000000000000000E+000	10	4.8980936E-003	9.3925511E-004	0	3.679272388780535E-005	1.6636908E-001	9.5357038E-002	1.9175932E-001	2.9819851E+001	4.7979074E+004	8.3708922E+004	9.6484070E+004	-6.0180149E+001	0.0000000E+000	0.0000000E+000	0.0000000E+000	6.0180149E+001	0.0000000E+000	0.0000000E+000	0.0000000E+000	-6.0180149E+001	0.0000000E+000	0.0000000E+000	0.0000000E+000	-2.9819851E+001	0.0000000E+000	0.0000000E+000	0.0000000E+000	2.9819851E+001	1.7446965E+000	6.0180145E+001	-1.450138773298633E-006	-2.6396940E-006	2.9342291E+004
2.1534457E+002	5.1203952E+000	3.2149098E+000	6.0459981E+000	-3.2123215E+001	9.671449899353320E+000	2.7830184E-001	-1.0677982E-002	2.2988860E+002	6.5000847E+001	1.000000000000000E+000	10	4.8856521E-003	8.0808031E-004	0	3.600830629234487E-005	1.4007720E-001	8.7949373E-002	1.6539866E-001	3.2123215E+001	6.5000836E+004	1.0352701E+005	1.2224136E+005	-5.7876785E+001	0.0000000E+000	0.0000000E+000	0.0000000E+000	5.7876785E+001	0.0000000E+000	0.0000000E+000	0.0000000E+000	-5.7876785E+001	0.0000000E+000	0.0000000E+000	0.0000000E+000	-3.2123215E+001	0.0000000E+000	0.0000000E+000	0.0000000E+000	3.2123215E+001	1.5927026E+000	5.7876785E+001	-7.844175954604810E-007	-2.9717021E-006	2.6063148E+004
1.4673740E+002	5.9169831E+000	3.9334857E+000	7.1051388E+000	-3.3615124E+001	1.013436874802574E+001	2.7830291E-001	-1.0007894E-002	2.7574124E+002	8.4510712E+001	1.000000000000000E+000	10	4.8668105E-003	6.8497052E-004	0	3.484722002019084E-005	1.1720745E-001	7.7917047E-002	1.4074321E-001	3.3615124E+001	8.4510719E+004	1.2712604E+005	1.5265350E+005	-5.6384876E+001	0.0000000E+000	0.0000000E+000	0.0000000E+000	5.6384876E+001	0.0000000E+000	0.0000000E+000	0.0000000E+000	-5.6384876E+001	0.0000000E+000	0.0000000E+000	0.0000000E+000	-3.3615124E+001	0.0000000E+000	0.0000000E+000	0.0000000E+000	3.3615124E+001	1.5042595E+000	5.6384872E+001	-1.161086272154024E-006	-2.7852259E-006	2.7808340E+004
1.0003201E+002	7.0026865E+000	4.6982570E+000	8.4327478E+000	-3.3858532E+001	1.060267559695785E+001	2.7830479E-001	-9.8515376E-003	3.3864478E+002	1.0511863E+002	1.000000000000000E+000	10	4.8648105E-003	5.7689502E-004	0	3.381859112894098E-005	9.8475106E-002	6.6069126E-002	1.1858531E-001	3.3858532E+001	1.0511863E+005	1.5667784E+005	1.8867398E+005	-5.6141468E+001	0.0000000E+000	0.0000000E+000	0.0000000E+000	5.6141468E+001	0.0000000E+000	0.0000000E+000	0.0000000E+000	-5.6141468E+001	0.0000000E+000	0.0000000E+000	0.0000000E+000	-3.3858532E+001	0.0000000E+000	0.0000000E+000	0.0000000E+000	3.3858532E+001	1.4904860E+000	5.6141464E+001	-1.028628891249865E-006	-2.7417300E-006	2.8249883E+004
6.8103981E+001	8.4219265E+000	5.4208469E+000	1.0015709E+001	-3.2767712E+001	1.108132897966425E+001	2.7830976E-001	-7.0576095E-003	4.3110245E+002	1.2628489E+002	1.000000000000000E+000	10	4.8647863E-003	4.8571560E-004	0	3.302936808770109E-005	8.3955288E-002	5.4038554E-002	9.9843159E-002	3.2767712E+001	1.2628488E+005	1.9619850E+005	2.3332750E+005	-5.7232288E+001	0.0000000E+000	0.0000000E+000	0.0000000E+000	5.7232288E+001	0.0000000E+000	0.0000000E+000	0.0000000E+000	-5.7232288E+001	0.0000000E+000	0.0000000E+000	0.0000000E+000	-3.2767712E+001	0.0000000E+000	0.0000000E+000	0.0000000E+000	3.2767712E+001	1.5536182E+000	5.7232285E+001	-7.892230412398916E-007	-1.9642016E-006	3.9434000E+004
4.6441547E+001	1.0161877E+001	5.9262028E+000	1.1763657E+001	-3.0249880E+001	1.153655022793100E+001	2.7830574E-001	-1.1752010E-002	5.7827838E+002	1.4675919E+002	1.000000000000000E+000	10	4.8563159E-003	4.1282366E-004	0	3.193467404522825E-005	7.3432654E-002	4.2824451E-002	8.5007578E-002	3.0249880E+001	1.4675919E+005	2.5165336E+005	2.9132056E+005	-5.9750122E+001	0.0000000E+000	0.0000000E+000	0.0000000E+000	5.9750122E+001	0.0000000E+000	0.0000000E+000	0.0000000E+000	-5.9750122E+001	0.0000000E+000	0.0000000E+000	0.0000000E+000	-3.0249880E+001	0.0000000E+000	0.0000000E+000	0.0000000E+000	3.0249880E+001	1.7147366E+000	5.9750122E+001	-1.094694042472839E-006	-3.2706519E-006	2.3681543E+004
3.1629555E+001	1.2127715E+001	6.0303211E+000	1.3544233E+001	-2.6438160E+001	1.198344078249647E+001	2.7828911E-001	-1.3436561E-002	8.3442358E+002	1.6540880E+002	1.000000000000000E+000	10	4.8576798E-003	3.5865299E-004	0	3.026140063750467E-005	6.6110454E-002	3.2872416E-002	7.3832162E-002	2.6438160E+001	1.6540881E+005	3.3265741E+005	3.7151181E+005	-6.3561840E+001	0.0000000E+000	0.0000000E+000	0.0000000E+000	6.3561840E+001	0.0000000E+000	0.0000000E+000	0.0000000E+000	-6.3561840E+001	0.0000000E+000	0.0000000E+000	0.0000000E+000	-2.6438160E+001	0.0000000E+000	0.0000000E+000	0.0000000E+000	2.6438160E+001	2.0111227E+000	6.3561844E+001	-1.673273407723574E-006	-3.7392488E-006	2.0711334E+004
2.1551722E+001	1.3976755E+001	5.7108183E+000	1.5098448E+001	-2.2224630E+001	1.242236723002861E+001	2.7828747E-001	-1.5083882E-002	1.2931229E+003	1.8500006E+002	1.000000000000000E+000	10	4.8552123E-003	3.2157029E-004	0	2.970270534890814E-005	6.1311472E-002	2.5051501E-002	6.6231973E-002	2.2224630E+001	1.8500009E+005	4.5277238E+005	4.8910925E+005	-6.7775368E+001	0.0000000E+000	0.0000000E+000	0.0000000E+000	6.7775368E+001	0.0000000E+000	0.0000000E+000	0.0000000E+000	-6.7775368E+001	0.0000000E+000	0.0000000E+000	0.0000000E+000	-2.2224630E+001	0.0000000E+000	0.0000000E+000	0.0000000E+000	2.2224630E+001	2.4474173E+000	6.7775368E+001	-5.586952885965341E-007	-4.1976555E-006	1.8449326E+004
1.4685154E+001	1.5668093E+001	5.0551620E+000	1.6463408E+001	-1.7881805E+001	1.315905699835275E+001	2.7833185E-001	-6.1554820E-003	2.1439099E+003	2.0213301E+002	1.000000000000000E+000	11	4.8589786E-003	2.9513807E-004	0	2.696527489636598E-005	5.7806499E-002	1.8650720E-002	6.0740765E-002	1.7881805E+001	2.0213302E+005	6.2649600E+005	6.5829706E+005	-7.2118195E+001	0.0000000E+000	0.0000000E+000	0.0000000E+000	7.2118195E+001	0.0000000E+000	0.0000000E+000	0.0000000E+000	-7.2118195E+001	0.0000000E+000	0.0000000E+000	0.0000000E+000	-1.7881805E+001	0.0000000E+000	0.0000000E+000	0.0000000E+000	1.7881805E+001	3.0994246E+000	7.2118195E+001	-2.737430452542159E-006	-1.7132667E-006	4.5216906E+004
1.0003201E+001	1.6875912E+001	4.2860775E+000	1.7411688E+001	-1.4250452E+001	1.362766720729996E+001	2.7833718E-001	-6.3999980E-003	3.7121123E+003	2.2493622E+002	1.000000000000000E+000	11	4.8572519E-003	2.7896502E-004	0	2.418086812135860E-005	5.5665422E-002	1.4137683E-002	5.7432685E-002	1.4250452E+001	2.2493619E+005	8.8565919E+005	9.1377706E+005	-7.5749550E+001	0.0000000E+000	0.0000000E+000	0.0000000E+000	7.5749550E+001	0.0000000E+000	0.0000000E+000	0.0000000E+000	-7.5749550E+001	0.0000000E+000	0.0000000E+000	0.0000000E+000	-1.4250452E+001	0.0000000E+000	0.0000000E+000	0.0000000E+000	1.4250452E+001	3.9373791E+000	7.5749550E+001	-2.784406775007381E-006	-1.7813574E-006	4.3490199E+004
