
EC-Lab ASCII FILE
Nb header lines : 63                          

Potentio Electrochemical Impedance Spectroscopy

Run on channel : 2 (SN 66139)
User : 
CE vs. WE compliance from -10 V to 10 V
Electrode connection : standard
Potential control : Ewe
Ewe ctrl range : min = -10.00 V, max = 10.00 V
Safety Limits :
	Do not start on E overload
Acquisition started on : 09/15/2025 08:58:56.927
Loaded Setting File :  C:\Users\Celltest\OneDrive - store-dot.com\Documents\EC-Lab\Data\Charmaine\R279\17382_C01.mpr
Saved on :
	File : 17483_C02.mpr
	Directory : C:\Users\Celltest\OneDrive - store-dot.com\Documents\EC-Lab\Data\Charmaine\R279\
	Host : 169.254.61.224
Device : VMP-3e (SN .003165)
Address : USB
EC-LAB for windows v11.62 (software)
Internet server v27.00 (firmware)
Command interpretor v12.03 (firmware)
Electrode material : 
Initial state : 
Electrolyte : 
Comments : 
Electrode surface area : 0.001 cm²
Characteristic mass : 0.001 g
Equivalent Weight : 0.000 g/eq.
Density : 0.000 g/cm3
Volume (V) : 0.001 cm³
Cycle Definition : Charge/Discharge alternance
Mode                Single sine         
E (V)               0.0000              
vs.                 Eoc                 
tE (h:m:s)          0:00:0.0000         
record              0                   
dI                  0.000               
unit dI             mA                  
dt (s)              0.000               
fi                  100.000             
unit fi             kHz                 
ff                  10.000              
unit ff             mHz                 
Nd                  6                   
Points              per decade          
spacing             Logarithmic         
Va (mV)             5.0                 
pw                  0.10                
Na                  2                   
corr                0                   
E range min (V)     -10.000             
E range max (V)     10.000              
I Range             Auto                
Bandwidth           5                   
nc cycles           0                   
goto Ns'            0                   
nr cycles           0                   
inc. cycle          0                   

freq/Hz	Re(Z)/Ohm	-Im(Z)/Ohm	|Z|/Ohm	Phase(Z)/deg	time/s	<Ewe>/V	<I>/mA	Cs/µF	Cp/µF	cycle number	I Range	|Ewe|/V	|I|/A	Ns	(Q-Qo)/mA.h	Re(Y)/Ohm-1	Im(Y)/Ohm-1	|Y|/Ohm-1	Phase(Y)/deg	Re(C)/nF	Im(C)/nF	|C|/nF	Phase(C)/deg	Re(M)	Im(M)	|M|	Phase(M)/deg	Re(Permittivity)	Im(Permittivity)	|Permittivity|	Phase(Permittivity)/deg	Re(Resistivity)/Ohm.cm	Im(Resistivity)/Ohm.cm	|Resistivity|/Ohm.cm	Phase(Resistivity)/deg	Re(Conductivity)/mS/cm	Im(Conductivity)/mS/cm	|Conductivity|/mS/cm	Phase(Conductivity)/deg	Tan(Delta)	Loss Angle(Delta)/deg	dq/mA.h	Pwe/W	Rwe/Ohm	
1.0000371E+005	1.0045459E+000	2.3705420E-001	1.0321372E+000	-1.3277830E+001	2.025490922824247E+000	2.6017696E-001	-1.0277512E-002	6.7136135E+000	3.5414150E-001	1.000000000000000E+000	9	4.9268208E-003	4.7734166E-003	0	-9.479675228293572E-006	9.4296366E-001	2.2252195E-001	9.6886349E-001	1.3277830E+001	3.5414160E+002	1.5007177E+003	1.5419370E+003	-7.6722168E+001	0.0000000E+000	0.0000000E+000	0.0000000E+000	7.6722168E+001	0.0000000E+000	0.0000000E+000	0.0000000E+000	-7.6722168E+001	0.0000000E+000	0.0000000E+000	0.0000000E+000	-1.3277830E+001	0.0000000E+000	0.0000000E+000	0.0000000E+000	1.3277830E+001	4.2376213E+000	7.6722168E+001	-9.479675228293572E-006	-2.6739717E-006	2.5315170E+004
6.8132047E+004	1.0640339E+000	2.6605800E-001	1.0967931E+000	-1.4038754E+001	2.463491343631176E+000	2.6017308E-001	-1.1655605E-002	8.7799568E+000	5.1664901E-001	1.000000000000000E+000	9	5.4693832E-003	4.9867048E-003	0	-1.100800997208312E-005	8.8451678E-001	2.2117037E-001	9.1174901E-001	1.4038754E+001	5.1664917E+002	2.0662114E+003	2.1298254E+003	-7.5961243E+001	0.0000000E+000	0.0000000E+000	0.0000000E+000	7.5961243E+001	0.0000000E+000	0.0000000E+000	0.0000000E+000	-7.5961243E+001	0.0000000E+000	0.0000000E+000	0.0000000E+000	-1.4038754E+001	0.0000000E+000	0.0000000E+000	0.0000000E+000	1.4038754E+001	3.9992554E+000	7.5961243E+001	-1.528334743789551E-006	-3.0324748E-006	2.2321713E+004
4.6420355E+004	1.1275215E+000	2.9302001E-001	1.1649745E+000	-1.4567762E+001	2.901477204432013E+000	2.6016611E-001	-1.2158433E-002	1.1700768E+001	7.4024618E-001	1.000000000000000E+000	9	5.4712174E-003	4.6964269E-003	0	-1.464138716450220E-005	8.3079147E-001	2.1590589E-001	8.5838795E-001	1.4567762E+001	7.4024622E+002	2.8484180E+003	2.9430339E+003	-7.5432236E+001	0.0000000E+000	0.0000000E+000	0.0000000E+000	7.5432236E+001	0.0000000E+000	0.0000000E+000	0.0000000E+000	-7.5432236E+001	0.0000000E+000	0.0000000E+000	0.0000000E+000	-1.4567762E+001	0.0000000E+000	0.0000000E+000	0.0000000E+000	1.4567762E+001	3.8479335E+000	7.5432236E+001	-3.633377192419074E-006	-3.1632121E-006	2.1397996E+004
3.1621139E+004	1.1974940E+000	3.2459807E-001	1.2407078E+000	-1.5166406E+001	3.338498611847172E+000	2.6016989E-001	-1.1916351E-002	1.5505890E+001	1.0613279E+000	1.000000000000000E+000	9	5.4250271E-003	4.3725260E-003	0	-2.071016654771908E-005	7.7791893E-001	2.1086620E-001	8.0599159E-001	1.5166406E+001	1.0613279E+003	3.9154077E+003	4.0567024E+003	-7.4833595E+001	0.0000000E+000	0.0000000E+000	0.0000000E+000	7.4833595E+001	0.0000000E+000	0.0000000E+000	0.0000000E+000	-7.4833595E+001	0.0000000E+000	0.0000000E+000	0.0000000E+000	-1.5166406E+001	0.0000000E+000	0.0000000E+000	0.0000000E+000	1.5166406E+001	3.6891594E+000	7.4833595E+001	-6.068779383216883E-006	-3.1002758E-006	2.1833018E+004
2.1544684E+004	1.2708172E+000	3.6049193E-001	1.3209583E+000	-1.5837016E+001	3.775496872636722E+000	2.6016876E-001	-8.4152557E-003	2.0492006E+001	1.5261506E+000	1.000000000000000E+000	9	5.3909970E-003	4.0811258E-003	0	-2.429169842347296E-005	7.2829092E-001	2.0659384E-001	7.5702620E-001	1.5837016E+001	1.5261504E+003	5.3800327E+003	5.5923062E+003	-7.4162987E+001	0.0000000E+000	0.0000000E+000	0.0000000E+000	7.4162987E+001	0.0000000E+000	0.0000000E+000	0.0000000E+000	-7.4162987E+001	0.0000000E+000	0.0000000E+000	0.0000000E+000	-1.5837016E+001	0.0000000E+000	0.0000000E+000	0.0000000E+000	1.5837016E+001	3.5252304E+000	7.4162987E+001	-3.581531875753877E-006	-2.1893866E-006	3.0916322E+004
1.4678594E+004	1.3521445E+000	4.0258363E-001	1.4108042E+000	-1.6580223E+001	4.213489613408456E+000	2.6017174E-001	-1.5436127E-002	2.6932680E+001	2.1930995E+000	1.000000000000000E+000	9	5.3608133E-003	3.7998280E-003	0	-3.195402323012240E-005	6.7934388E-001	2.0226590E-001	7.0881563E-001	1.6580223E+001	2.1930996E+003	7.3658916E+003	7.6854438E+003	-7.3419777E+001	0.0000000E+000	0.0000000E+000	0.0000000E+000	7.3419777E+001	0.0000000E+000	0.0000000E+000	0.0000000E+000	-7.3419777E+001	0.0000000E+000	0.0000000E+000	0.0000000E+000	-1.6580223E+001	0.0000000E+000	0.0000000E+000	0.0000000E+000	1.6580223E+001	3.3586674E+000	7.3419777E+001	-7.662324806649444E-006	-4.0160439E-006	1.6854729E+004
1.0002226E+004	1.4380548E+000	4.5484266E-001	1.5082717E+000	-1.7551653E+001	4.650476807524683E+000	2.6017153E-001	-9.4395317E-003	3.4983425E+001	3.1814530E+000	1.000000000000000E+000	9	5.2829869E-003	3.5026758E-003	0	-3.249846093581679E-005	6.3214439E-001	1.9994108E-001	6.6301054E-001	1.7551653E+001	3.1814529E+003	1.0058652E+004	1.0549793E+004	-7.2448349E+001	0.0000000E+000	0.0000000E+000	0.0000000E+000	7.2448349E+001	0.0000000E+000	0.0000000E+000	0.0000000E+000	-7.2448349E+001	0.0000000E+000	0.0000000E+000	0.0000000E+000	-1.7551653E+001	0.0000000E+000	0.0000000E+000	0.0000000E+000	1.7551653E+001	3.1616533E+000	7.2448349E+001	-5.444377056943893E-007	-2.4558974E-006	2.7561910E+004
6.8110674E+003	1.5401956E+000	5.1649791E-001	1.6244915E+000	-1.8538654E+001	5.206510407238966E+000	2.6014665E-001	-1.9197965E-002	4.5241432E+001	4.5733943E+000	1.000000000000000E+000	9	5.1791873E-003	3.1881898E-003	0	-3.932505686356065E-005	5.8363461E-001	1.9571933E-001	6.1557728E-001	1.8538654E+001	4.5733931E+003	1.3637851E+004	1.4384259E+004	-7.1461349E+001	0.0000000E+000	0.0000000E+000	0.0000000E+000	7.1461349E+001	0.0000000E+000	0.0000000E+000	0.0000000E+000	-7.1461349E+001	0.0000000E+000	0.0000000E+000	0.0000000E+000	-1.8538654E+001	0.0000000E+000	0.0000000E+000	0.0000000E+000	1.8538654E+001	2.9819977E+000	7.1461349E+001	-6.826595927743864E-006	-4.9942864E-006	1.3550741E+004
4.6414854E+003	1.6493124E+000	5.9433937E-001	1.7531316E+000	-1.9816925E+001	5.900701506958285E+000	2.6016447E-001	-1.3871803E-002	5.7693737E+001	6.6308408E+000	1.000000000000000E+000	9	5.1032314E-003	2.9109232E-003	0	-3.965791239573931E-005	5.3662866E-001	1.9337729E-001	5.7040781E-001	1.9816925E+001	6.6308413E+003	1.8400814E+004	1.9559090E+004	-7.0183075E+001	0.0000000E+000	0.0000000E+000	0.0000000E+000	7.0183075E+001	0.0000000E+000	0.0000000E+000	0.0000000E+000	-7.0183075E+001	0.0000000E+000	0.0000000E+000	0.0000000E+000	-1.9816925E+001	0.0000000E+000	0.0000000E+000	0.0000000E+000	1.9816925E+001	2.7750347E+000	7.0183075E+001	-3.328555321786527E-007	-3.6089502E-006	1.8754914E+004
3.1610117E+003	1.7625471E+000	6.9756407E-001	1.8955654E+000	-2.1592196E+001	6.367704809141287E+000	2.6016212E-001	-1.0929379E-002	7.2178848E+001	9.7746353E+000	1.000000000000000E+000	9	5.2395822E-003	2.7641263E-003	0	-4.321878948631800E-005	4.9052730E-001	1.9413622E-001	5.2754706E-001	2.1592196E+001	9.7746348E+003	2.4697740E+004	2.6561662E+004	-6.8407806E+001	0.0000000E+000	0.0000000E+000	0.0000000E+000	6.8407806E+001	0.0000000E+000	0.0000000E+000	0.0000000E+000	-6.8407806E+001	0.0000000E+000	0.0000000E+000	0.0000000E+000	-2.1592196E+001	0.0000000E+000	0.0000000E+000	0.0000000E+000	2.1592196E+001	2.5267172E+000	6.8407806E+001	-3.560877090578694E-006	-2.8434104E-006	2.3803926E+004
2.1556899E+003	1.8943405E+000	8.2568777E-001	2.0664670E+000	-2.3550982E+001	6.834690031319042E+000	2.6016292E-001	-7.7634836E-003	8.9416565E+001	1.4275545E+001	1.000000000000000E+000	9	5.2026114E-003	2.5176359E-003	0	-4.263085800418372E-005	4.4360974E-001	1.9335653E-001	4.8391771E-001	2.3550982E+001	1.4275543E+004	3.2751779E+004	3.5727723E+004	-6.6449020E+001	0.0000000E+000	0.0000000E+000	0.0000000E+000	6.6449020E+001	0.0000000E+000	0.0000000E+000	0.0000000E+000	-6.6449020E+001	0.0000000E+000	0.0000000E+000	0.0000000E+000	-2.3550982E+001	0.0000000E+000	0.0000000E+000	0.0000000E+000	2.3550982E+001	2.2942576E+000	6.6449020E+001	5.879314821342839E-007	-2.0197706E-006	3.3511105E+004
1.4685898E+003	2.0417056E+000	9.9883723E-001	2.2729359E+000	-2.6068670E+001	7.301933733484475E+000	2.6015121E-001	-6.3481503E-003	1.0849879E+002	2.0952700E+001	1.000000000000000E+000	9	5.1372643E-003	2.2601888E-003	0	-4.229807524669579E-005	3.9520165E-001	1.9333939E-001	4.3995962E-001	2.6068670E+001	2.0952701E+004	4.2829043E+004	4.7679582E+004	-6.3931328E+001	0.0000000E+000	0.0000000E+000	0.0000000E+000	6.3931328E+001	0.0000000E+000	0.0000000E+000	0.0000000E+000	-6.3931328E+001	0.0000000E+000	0.0000000E+000	0.0000000E+000	-2.6068670E+001	0.0000000E+000	0.0000000E+000	0.0000000E+000	2.6068670E+001	2.0440824E+000	6.3931328E+001	3.327827574879262E-007	-1.6514790E-006	4.0980633E+004
1.0003202E+003	2.2265158E+000	1.2357467E+000	2.5464568E+000	-2.9030876E+001	7.770708742442366E+000	2.6015374E-001	-9.1416081E-003	1.2875130E+002	3.0320610E+001	1.000000000000000E+000	9	5.0718146E-003	1.9917144E-003	0	-4.514051856967206E-005	3.4336272E-001	1.9057103E-001	3.9270252E-001	2.9030876E+001	3.0320611E+004	5.4630379E+004	6.2480539E+004	-6.0969124E+001	0.0000000E+000	0.0000000E+000	0.0000000E+000	6.0969124E+001	0.0000000E+000	0.0000000E+000	0.0000000E+000	-6.0969124E+001	0.0000000E+000	0.0000000E+000	0.0000000E+000	-2.9030876E+001	0.0000000E+000	0.0000000E+000	0.0000000E+000	2.9030876E+001	1.8017573E+000	6.0969124E+001	-2.842443322976274E-006	-2.3782236E-006	2.8458203E+004
6.8108978E+002	2.4518669E+000	1.5564760E+000	2.9041812E+000	-3.2407894E+001	8.236450284515740E+000	2.6015520E-001	-1.1041153E-002	1.5013203E+002	4.3123180E+001	1.000000000000000E+000	9	5.0190282E-003	1.7282077E-003	0	-4.767511162514671E-005	2.9070294E-001	1.8454190E-001	3.4433112E-001	3.2407894E+001	4.3123180E+004	6.7930570E+004	8.0462234E+004	-5.7592106E+001	0.0000000E+000	0.0000000E+000	0.0000000E+000	5.7592106E+001	0.0000000E+000	0.0000000E+000	0.0000000E+000	-5.7592106E+001	0.0000000E+000	0.0000000E+000	0.0000000E+000	-3.2407894E+001	0.0000000E+000	0.0000000E+000	0.0000000E+000	3.2407894E+001	1.5752680E+000	5.7592102E+001	-2.534593055474643E-006	-2.8724135E-006	2.3562322E+004
4.6396069E+002	2.7462442E+000	1.9711565E+000	3.3804312E+000	-3.5669441E+001	8.959215385519201E+000	2.6017126E-001	-1.9065412E-002	1.7402748E+002	5.9171944E+001	1.000000000000000E+000	10	5.0447709E-003	1.4923454E-003	0	-4.853713290409198E-005	2.4032280E-001	1.7249517E-001	2.9582027E-001	3.5669441E+001	5.9171941E+004	8.2439219E+004	1.0147681E+005	-5.4330559E+001	0.0000000E+000	0.0000000E+000	0.0000000E+000	5.4330559E+001	0.0000000E+000	0.0000000E+000	0.0000000E+000	-5.4330559E+001	0.0000000E+000	0.0000000E+000	0.0000000E+000	-3.5669441E+001	0.0000000E+000	0.0000000E+000	0.0000000E+000	3.5669441E+001	1.3932147E+000	5.4330559E+001	-8.620212789452734E-007	-4.9602722E-006	1.3646244E+004
3.1631589E+002	3.1698539E+000	2.5059190E+000	4.0407429E+000	-3.8328033E+001	9.425928447715705E+000	2.6017240E-001	-1.8439576E-002	2.0078539E+002	7.7222473E+001	1.000000000000000E+000	10	4.9934979E-003	1.2357871E-003	0	-5.170519353395664E-005	1.9414079E-001	1.5347746E-001	2.4747925E-001	3.8328033E+001	7.7222469E+004	9.7682305E+004	1.2451965E+005	-5.1671967E+001	0.0000000E+000	0.0000000E+000	0.0000000E+000	5.1671967E+001	0.0000000E+000	0.0000000E+000	0.0000000E+000	-5.1671967E+001	0.0000000E+000	0.0000000E+000	0.0000000E+000	-3.8328033E+001	0.0000000E+000	0.0000000E+000	0.0000000E+000	3.8328033E+001	1.2649467E+000	5.1671967E+001	-3.168060629864662E-006	-4.7974686E-006	1.4109457E+004
2.1534457E+002	3.7817681E+000	3.1429048E+000	4.9172778E+000	-3.9728870E+001	9.893416576524032E+000	2.6017100E-001	-1.8849349E-002	2.3515541E+002	9.6065613E+001	1.000000000000000E+000	10	4.9555209E-003	1.0077773E-003	0	-5.463696653114554E-005	1.5640312E-001	1.2998156E-001	2.0336455E-001	3.9728870E+001	9.6065609E+004	1.1559302E+005	1.5030086E+005	-5.0271130E+001	0.0000000E+000	0.0000000E+000	0.0000000E+000	5.0271130E+001	0.0000000E+000	0.0000000E+000	0.0000000E+000	-5.0271130E+001	0.0000000E+000	0.0000000E+000	0.0000000E+000	-3.9728870E+001	0.0000000E+000	0.0000000E+000	0.0000000E+000	3.9728870E+001	1.2032716E+000	5.0271133E+001	-2.931772997188898E-006	-4.9040536E-006	1.3802651E+004
1.4673740E+002	4.6513619E+000	3.8404751E+000	6.0319495E+000	-3.9545357E+001	1.035639593188534E+001	2.6016879E-001	-1.8888475E-002	2.8241928E+002	1.1448508E+002	1.000000000000000E+000	10	4.9369456E-003	8.1846601E-004	0	-5.648709425282302E-005	1.2783940E-001	1.0555275E-001	1.6578388E-001	3.9545357E+001	1.1448509E+005	1.3865772E+005	1.7981323E+005	-5.0454643E+001	0.0000000E+000	0.0000000E+000	0.0000000E+000	5.0454643E+001	0.0000000E+000	0.0000000E+000	0.0000000E+000	-5.0454643E+001	0.0000000E+000	0.0000000E+000	0.0000000E+000	-3.9545357E+001	0.0000000E+000	0.0000000E+000	0.0000000E+000	3.9545357E+001	1.2111423E+000	5.0454651E+001	-1.850127721677484E-006	-4.9141918E-006	1.3773943E+004
1.0003201E+002	5.8084407E+000	4.5176239E+000	7.3584585E+000	-3.7874664E+001	1.082470339416614E+001	2.6016685E-001	-1.8357636E-002	3.5218518E+002	1.3274480E+002	1.000000000000000E+000	10	4.9243625E-003	6.6921115E-004	0	-5.810559165726752E-005	1.0727187E-001	8.3432719E-002	1.3589802E-001	3.7874664E+001	1.3274480E+005	1.7067384E+005	2.1621920E+005	-5.2125336E+001	0.0000000E+000	0.0000000E+000	0.0000000E+000	5.2125336E+001	0.0000000E+000	0.0000000E+000	0.0000000E+000	-5.2125336E+001	0.0000000E+000	0.0000000E+000	0.0000000E+000	-3.7874664E+001	0.0000000E+000	0.0000000E+000	0.0000000E+000	3.7874664E+001	1.2857292E+000	5.2125336E+001	-1.618497404444493E-006	-4.7760486E-006	1.4172133E+004
6.8103981E+001	7.2696557E+000	5.0110898E+000	8.8294344E+000	-3.4579117E+001	1.130330099017010E+001	2.6017463E-001	-1.6709229E-002	4.6635370E+002	1.5021526E+002	1.000000000000000E+000	10	4.9139643E-003	5.5654353E-004	0	-5.977832657988377E-005	9.3249828E-002	6.4278603E-002	1.1325753E-001	3.4579117E+001	1.5021527E+005	2.1791931E+005	2.6467613E+005	-5.5420883E+001	0.0000000E+000	0.0000000E+000	0.0000000E+000	5.5420883E+001	0.0000000E+000	0.0000000E+000	0.0000000E+000	-5.5420883E+001	0.0000000E+000	0.0000000E+000	0.0000000E+000	-3.4579117E+001	0.0000000E+000	0.0000000E+000	0.0000000E+000	3.4579117E+001	1.4507135E+000	5.5420883E+001	-1.672734922616253E-006	-4.3473174E-006	1.5570715E+004
4.6441547E+001	8.9483376E+000	5.2127304E+000	1.0355931E+001	-3.0222347E+001	1.175852826514165E+001	2.6016739E-001	-1.9635389E-002	6.5742798E+002	1.6657138E+002	1.000000000000000E+000	10	4.9143061E-003	4.7454023E-004	0	-6.177678232794925E-005	8.3438031E-002	4.8605673E-002	9.6563019E-002	3.0222347E+001	1.6657139E+005	2.8594172E+005	3.3092097E+005	-5.9777653E+001	0.0000000E+000	0.0000000E+000	0.0000000E+000	5.9777653E+001	0.0000000E+000	0.0000000E+000	0.0000000E+000	-5.9777653E+001	0.0000000E+000	0.0000000E+000	0.0000000E+000	-3.0222347E+001	0.0000000E+000	0.0000000E+000	0.0000000E+000	3.0222347E+001	1.7166315E+000	5.9777649E+001	-1.998455748065477E-006	-5.1084880E-006	1.3249923E+004
3.1629555E+001	1.0602922E+001	4.9712377E+000	1.1710473E+001	-2.5119787E+001	1.220444735299679E+001	2.6016298E-001	-2.1009998E-002	1.0121911E+003	1.8240750E+002	1.000000000000000E+000	10	4.9109831E-003	4.1936676E-004	0	-6.445338453965491E-005	7.7317305E-002	3.6250640E-002	8.5393645E-002	2.5119787E+001	1.8240753E+005	3.8904853E+005	4.2968741E+005	-6.4880211E+001	0.0000000E+000	0.0000000E+000	0.0000000E+000	6.4880211E+001	0.0000000E+000	0.0000000E+000	0.0000000E+000	-6.4880211E+001	0.0000000E+000	0.0000000E+000	0.0000000E+000	-2.5119787E+001	0.0000000E+000	0.0000000E+000	0.0000000E+000	2.5119787E+001	2.1328537E+000	6.4880211E+001	-2.676602211705659E-006	-5.4660236E-006	1.2382817E+004
2.1551722E+001	1.2058229E+001	4.4042258E+000	1.2837372E+001	-2.0064543E+001	1.264334078718093E+001	2.6015541E-001	-2.2054924E-002	1.6767510E+003	1.9735834E+002	1.000000000000000E+000	10	4.9099871E-003	3.8247605E-004	0	-6.621522032568424E-005	7.3169708E-002	2.6724977E-002	7.7897564E-002	2.0064543E+001	1.9735838E+005	5.4034294E+005	5.7525719E+005	-6.9935455E+001	0.0000000E+000	0.0000000E+000	0.0000000E+000	6.9935455E+001	0.0000000E+000	0.0000000E+000	0.0000000E+000	-6.9935455E+001	0.0000000E+000	0.0000000E+000	0.0000000E+000	-2.0064543E+001	0.0000000E+000	0.0000000E+000	0.0000000E+000	2.0064543E+001	2.7378771E+000	6.9935455E+001	-1.761835786029333E-006	-5.7377079E-006	1.1795797E+004
1.4685154E+001	1.3191213E+001	3.6705847E+000	1.3692381E+001	-1.5549748E+001	1.338105820890632E+001	2.6017800E-001	-1.2836320E-002	2.9526118E+003	2.1218707E+002	1.000000000000000E+000	11	4.9137333E-003	3.5886624E-004	0	-6.753262821031927E-005	7.0360154E-002	1.9578405E-002	7.3033318E-002	1.5549748E+001	2.1218711E+005	7.6255013E+005	7.9152138E+005	-7.4450249E+001	0.0000000E+000	0.0000000E+000	0.0000000E+000	7.4450249E+001	0.0000000E+000	0.0000000E+000	0.0000000E+000	-7.4450249E+001	0.0000000E+000	0.0000000E+000	0.0000000E+000	-1.5549748E+001	0.0000000E+000	0.0000000E+000	0.0000000E+000	1.5549748E+001	3.5937634E+000	7.4450249E+001	-1.317407884635031E-006	-3.3397282E-006	2.0268893E+004
