
EC-Lab ASCII FILE
Nb header lines : 63                          

Potentio Electrochemical Impedance Spectroscopy

Run on channel : 1 (SN 66354)
User : 
CE vs. WE compliance from -10 V to 10 V
Electrode connection : standard
Potential control : Ewe
Ewe ctrl range : min = -10.00 V, max = 10.00 V
Safety Limits :
	Do not start on E overload
Acquisition started on : 09/15/2025 08:58:46.793
Loaded Setting File :  C:\Users\Celltest\OneDrive - store-dot.com\Documents\EC-Lab\Data\Gyutae\EIS_SOC0_C01.mpr
Saved on :
	File : 17482_C01.mpr
	Directory : C:\Users\Celltest\OneDrive - store-dot.com\Documents\EC-Lab\Data\Charmaine\R279\
	Host : 169.254.61.224
Device : VMP-3e (SN .003165)
Address : USB
EC-LAB for windows v11.62 (software)
Internet server v27.00 (firmware)
Command interpretor v12.03 (firmware)
Electrode material : 
Initial state : 
Electrolyte : 
Comments : 
Electrode surface area : 0.001 cm²
Characteristic mass : 0.001 g
Equivalent Weight : 0.000 g/eq.
Density : 0.000 g/cm3
Volume (V) : 0.001 cm³
Cycle Definition : Charge/Discharge alternance
Mode                Single sine         
E (V)               0.0000              
vs.                 Eoc                 
tE (h:m:s)          0:00:0.0000         
record              0                   
dI                  0.000               
unit dI             mA                  
dt (s)              0.000               
fi                  100.000             
unit fi             kHz                 
ff                  10.000              
unit ff             mHz                 
Nd                  6                   
Points              per decade          
spacing             Logarithmic         
Va (mV)             5.0                 
pw                  0.10                
Na                  2                   
corr                0                   
E range min (V)     -10.000             
E range max (V)     10.000              
I Range             Auto                
Bandwidth           5                   
nc cycles           0                   
goto Ns'            0                   
nr cycles           0                   
inc. cycle          0                   

freq/Hz	Re(Z)/Ohm	-Im(Z)/Ohm	|Z|/Ohm	Phase(Z)/deg	time/s	<Ewe>/V	<I>/mA	Cs/µF	Cp/µF	cycle number	I Range	|Ewe|/V	|I|/A	Ns	(Q-Qo)/mA.h	Re(Y)/Ohm-1	Im(Y)/Ohm-1	|Y|/Ohm-1	Phase(Y)/deg	Re(C)/nF	Im(C)/nF	|C|/nF	Phase(C)/deg	Re(M)	Im(M)	|M|	Phase(M)/deg	Re(Permittivity)	Im(Permittivity)	|Permittivity|	Phase(Permittivity)/deg	Re(Resistivity)/Ohm.cm	Im(Resistivity)/Ohm.cm	|Resistivity|/Ohm.cm	Phase(Resistivity)/deg	Re(Conductivity)/mS/cm	Im(Conductivity)/mS/cm	|Conductivity|/mS/cm	Phase(Conductivity)/deg	Tan(Delta)	Loss Angle(Delta)/deg	dq/mA.h	Pwe/W	Rwe/Ohm	
1.0000371E+005	1.3196036E+000	3.8702932E-001	1.3751892E+000	-1.6345997E+001	1.864479555195430E+000	2.7388620E-001	7.7279568E-002	4.1120667E+000	3.2570392E-001	1.000000000000000E+000	9	4.6409122E-003	3.3747444E-003	0	1.106077079992327E-005	6.9778013E-001	2.0465340E-001	7.2717267E-001	1.6345997E+001	3.2570383E+002	1.1105103E+003	1.1572882E+003	-7.3654007E+001	0.0000000E+000	0.0000000E+000	0.0000000E+000	7.3654007E+001	0.0000000E+000	0.0000000E+000	0.0000000E+000	-7.3654007E+001	0.0000000E+000	0.0000000E+000	0.0000000E+000	-1.6345997E+001	0.0000000E+000	0.0000000E+000	0.0000000E+000	1.6345997E+001	3.4095700E+000	7.3654007E+001	1.106077079992327E-005	2.1165808E-005	3.5440959E+003
6.8132047E+004	1.4140429E+000	4.3054950E-001	1.4781375E+000	-1.6934505E+001	2.442493582639145E+000	2.7389511E-001	7.7689372E-002	5.4255729E+000	4.6032241E-001	1.000000000000000E+000	9	5.0405576E-003	3.4100735E-003	0	2.594422386185680E-005	6.4719170E-001	1.9705768E-001	6.7652702E-001	1.6934505E+001	4.6032248E+002	1.5118253E+003	1.5803521E+003	-7.3065491E+001	0.0000000E+000	0.0000000E+000	0.0000000E+000	7.3065491E+001	0.0000000E+000	0.0000000E+000	0.0000000E+000	-7.3065491E+001	0.0000000E+000	0.0000000E+000	0.0000000E+000	-1.6934505E+001	0.0000000E+000	0.0000000E+000	0.0000000E+000	1.6934505E+001	3.2842751E+000	7.3065491E+001	1.488345306193353E-005	2.1278740E-005	3.5255159E+003
4.6420355E+004	1.5192186E+000	4.7158262E-001	1.5907279E+000	-1.7244934E+001	3.020476916775806E+000	2.7389902E-001	8.3333395E-002	7.2703266E+000	6.3896585E-001	1.000000000000000E+000	9	5.0476342E-003	3.1731599E-003	0	4.541704531145903E-005	6.0038310E-001	1.8636571E-001	6.2864304E-001	1.7244934E+001	6.3896588E+002	2.0584490E+003	2.1553398E+003	-7.2755066E+001	0.0000000E+000	0.0000000E+000	0.0000000E+000	7.2755066E+001	0.0000000E+000	0.0000000E+000	0.0000000E+000	-7.2755066E+001	0.0000000E+000	0.0000000E+000	0.0000000E+000	-1.7244934E+001	0.0000000E+000	0.0000000E+000	0.0000000E+000	1.7244934E+001	3.2215321E+000	7.2755066E+001	1.947282144960223E-005	2.2824936E-005	3.2867859E+003
3.1621139E+004	1.6322043E+000	5.2994674E-001	1.7160811E+000	-1.7987659E+001	3.598491664248286E+000	2.7389586E-001	8.7636262E-002	9.4975243E+000	9.0573096E-001	1.000000000000000E+000	9	5.0474168E-003	2.9412459E-003	0	4.950248181455148E-005	5.5424130E-001	1.7995195E-001	5.8272302E-001	1.7987659E+001	9.0573071E+002	2.7895974E+003	2.9329509E+003	-7.2012344E+001	0.0000000E+000	0.0000000E+000	0.0000000E+000	7.2012344E+001	0.0000000E+000	0.0000000E+000	0.0000000E+000	-7.2012344E+001	0.0000000E+000	0.0000000E+000	0.0000000E+000	-1.7987659E+001	0.0000000E+000	0.0000000E+000	0.0000000E+000	1.7987659E+001	3.0799403E+000	7.2012344E+001	4.085436503092453E-006	2.4003210E-005	3.1253713E+003
2.1544684E+004	1.7648631E+000	5.9126437E-001	1.8612726E+000	-1.8521877E+001	4.035483631625539E+000	2.7389598E-001	8.0837347E-002	1.2493909E+001	1.2607871E+000	1.000000000000000E+000	9	5.1208637E-003	2.7512701E-003	0	5.893150418113995E-005	5.0943774E-001	1.7067181E-001	5.3726685E-001	1.8521877E+001	1.2607874E+003	3.7633196E+003	3.9688989E+003	-7.1478119E+001	0.0000000E+000	0.0000000E+000	0.0000000E+000	7.1478119E+001	0.0000000E+000	0.0000000E+000	0.0000000E+000	-7.1478119E+001	0.0000000E+000	0.0000000E+000	0.0000000E+000	-1.8521877E+001	0.0000000E+000	0.0000000E+000	0.0000000E+000	1.8521877E+001	2.9848969E+000	7.1478119E+001	9.429022366588468E-006	2.2141025E-005	3.3882356E+003
1.4678594E+004	1.9017909E+000	6.4891851E-001	2.0094535E+000	-1.8840384E+001	4.473492105811602E+000	2.7389139E-001	8.3799072E-002	1.6708809E+001	1.7424884E+000	1.000000000000000E+000	9	4.9261437E-003	2.4514843E-003	0	6.861226460372564E-005	4.7098470E-001	1.6070679E-001	4.9764773E-001	1.8840384E+001	1.7424886E+003	5.1067251E+003	5.3958232E+003	-7.1159615E+001	0.0000000E+000	0.0000000E+000	0.0000000E+000	7.1159615E+001	0.0000000E+000	0.0000000E+000	0.0000000E+000	-7.1159615E+001	0.0000000E+000	0.0000000E+000	0.0000000E+000	-1.8840384E+001	0.0000000E+000	0.0000000E+000	0.0000000E+000	1.8840384E+001	2.9307084E+000	7.1159615E+001	9.680760422585687E-006	2.2951845E-005	3.2684299E+003
1.0002226E+004	2.0551145E+000	7.2234136E-001	2.1783648E+000	-1.9365795E+001	4.910487566521624E+000	2.7390313E-001	7.9645202E-002	2.2028301E+001	2.4221709E+000	1.000000000000000E+000	9	4.9640066E-003	2.2787766E-003	0	7.765169840092615E-005	4.3308669E-001	1.5222335E-001	4.5905995E-001	1.9365795E+001	2.4221714E+003	6.8912554E+003	7.3045405E+003	-7.0634201E+001	0.0000000E+000	0.0000000E+000	0.0000000E+000	7.0634201E+001	0.0000000E+000	0.0000000E+000	0.0000000E+000	-7.0634201E+001	0.0000000E+000	0.0000000E+000	0.0000000E+000	-1.9365795E+001	0.0000000E+000	0.0000000E+000	0.0000000E+000	1.9365795E+001	2.8450739E+000	7.0634201E+001	9.039433797200519E-006	2.1815071E-005	3.4390413E+003
6.8110674E+003	2.2165737E+000	8.1624520E-001	2.3620870E+000	-2.0216047E+001	5.288503717834828E+000	2.7365965E-001	-1.1087752E-002	2.8627558E+001	3.4184859E+000	1.000000000000000E+000	9	4.7008079E-003	1.9901078E-003	0	7.856468672150125E-005	3.9727420E-001	1.4629479E-001	4.2335442E-001	2.0216047E+001	3.4184866E+003	9.2831494E+003	9.8925684E+003	-6.9783951E+001	0.0000000E+000	0.0000000E+000	0.0000000E+000	6.9783951E+001	0.0000000E+000	0.0000000E+000	0.0000000E+000	-6.9783951E+001	0.0000000E+000	0.0000000E+000	0.0000000E+000	-2.0216047E+001	0.0000000E+000	0.0000000E+000	0.0000000E+000	2.0216047E+001	2.7155733E+000	6.9783951E+001	9.129883205750993E-007	-3.0342703E-006	2.4681256E+004
4.6414854E+003	2.3919761E+000	9.0714782E-001	2.5582156E+000	-2.0769041E+001	5.759674086926680E+000	2.7392429E-001	1.3411103E-001	3.7799416E+001	4.7529902E+000	1.000000000000000E+000	9	4.5788651E-003	1.7898667E-003	0	9.618511516716616E-005	3.6549592E-001	1.3861294E-001	3.9089745E-001	2.0769041E+001	4.7529912E+003	1.2532731E+004	1.3403741E+004	-6.9230957E+001	0.0000000E+000	0.0000000E+000	0.0000000E+000	6.9230957E+001	0.0000000E+000	0.0000000E+000	0.0000000E+000	-6.9230957E+001	0.0000000E+000	0.0000000E+000	0.0000000E+000	-2.0769041E+001	0.0000000E+000	0.0000000E+000	0.0000000E+000	2.0769041E+001	2.6368096E+000	6.9230957E+001	1.762042844566490E-005	3.6736270E-005	2.0425187E+003
3.1610117E+003	2.5773902E+000	1.0347185E+000	2.7773337E+000	-2.1873476E+001	6.226680802443298E+000	2.7392077E-001	1.3288164E-001	4.8659966E+001	6.7539849E+000	1.000000000000000E+000	9	4.5136325E-003	1.6251674E-003	0	1.132879119427542E-004	3.3413661E-001	1.3414240E-001	3.6005756E-001	2.1873476E+001	6.7539844E+003	1.6823566E+004	1.8128670E+004	-6.8126526E+001	0.0000000E+000	0.0000000E+000	0.0000000E+000	6.8126526E+001	0.0000000E+000	0.0000000E+000	0.0000000E+000	-6.8126526E+001	0.0000000E+000	0.0000000E+000	0.0000000E+000	-2.1873476E+001	0.0000000E+000	0.0000000E+000	0.0000000E+000	2.1873476E+001	2.4909096E+000	6.8126526E+001	1.710279677558800E-005	3.6399044E-005	2.0613892E+003
2.1556899E+003	2.7992902E+000	1.1905881E+000	3.0419607E+000	-2.3040916E+001	6.916712328551512E+000	2.7391371E-001	1.3515414E-001	6.2011509E+001	9.4992247E+000	1.000000000000000E+000	9	4.9844296E-003	1.6385581E-003	0	1.346904920522615E-004	3.0251068E-001	1.2866320E-001	3.2873535E-001	2.3040916E+001	9.4992236E+003	2.2334410E+004	2.4270582E+004	-6.6959084E+001	0.0000000E+000	0.0000000E+000	0.0000000E+000	6.6959084E+001	0.0000000E+000	0.0000000E+000	0.0000000E+000	-6.6959084E+001	0.0000000E+000	0.0000000E+000	0.0000000E+000	-2.3040916E+001	0.0000000E+000	0.0000000E+000	0.0000000E+000	2.3040916E+001	2.3511827E+000	6.6959084E+001	2.140258010950736E-005	3.7020574E-005	2.0266764E+003
1.4685898E+003	3.0314939E+000	1.4039308E+000	3.3408048E+000	-2.4849571E+001	7.383962724066805E+000	2.7392185E-001	1.3500513E-001	7.7192291E+001	1.3632111E+001	1.000000000000000E+000	9	4.9616038E-003	1.4851523E-003	0	1.506042782713970E-004	2.7161548E-001	1.2578924E-001	2.9932907E-001	2.4849571E+001	1.3632111E+004	2.9435682E+004	3.2439078E+004	-6.5150429E+001	0.0000000E+000	0.0000000E+000	0.0000000E+000	6.5150429E+001	0.0000000E+000	0.0000000E+000	0.0000000E+000	-6.5150429E+001	0.0000000E+000	0.0000000E+000	0.0000000E+000	-2.4849571E+001	0.0000000E+000	0.0000000E+000	0.0000000E+000	2.4849571E+001	2.1592901E+000	6.5150429E+001	1.591378621913544E-005	3.6980855E-005	2.0289736E+003
1.0003202E+003	3.3346670E+000	1.6682231E+000	3.7286689E+000	-2.6577278E+001	8.107711238451884E+000	2.7385345E-001	5.3719520E-003	9.5373329E+001	1.9090952E+001	1.000000000000000E+000	10	5.0488473E-003	1.3540615E-003	0	1.607743195275535E-004	2.3985283E-001	1.1999040E-001	2.6819223E-001	2.6577278E+001	1.9090951E+004	3.8161539E+004	4.2670453E+004	-6.3422722E+001	0.0000000E+000	0.0000000E+000	0.0000000E+000	6.3422722E+001	0.0000000E+000	0.0000000E+000	0.0000000E+000	-6.3422722E+001	0.0000000E+000	0.0000000E+000	0.0000000E+000	-2.6577278E+001	0.0000000E+000	0.0000000E+000	0.0000000E+000	2.6577278E+001	1.9989334E+000	6.3422722E+001	1.017004125615655E-005	1.4711276E-006	5.0978387E+004
6.8108978E+002	3.6658242E+000	2.0215194E+000	4.1862640E+000	-2.8874546E+001	8.573447793867672E+000	2.7386945E-001	5.8024111E-003	1.1559469E+002	2.6955070E+001	1.000000000000000E+000	10	5.0136610E-003	1.1976457E-003	0	1.624288609190326E-004	2.0917915E-001	1.1535188E-001	2.3887648E-001	2.8874546E+001	2.6955068E+004	4.8880336E+004	5.5819914E+004	-6.1125454E+001	0.0000000E+000	0.0000000E+000	0.0000000E+000	6.1125454E+001	0.0000000E+000	0.0000000E+000	0.0000000E+000	-6.1125454E+001	0.0000000E+000	0.0000000E+000	0.0000000E+000	-2.8874546E+001	0.0000000E+000	0.0000000E+000	0.0000000E+000	2.8874546E+001	1.8134004E+000	6.1125458E+001	1.654541391479141E-006	1.5891031E-006	4.7199250E+004
4.6396069E+002	4.0762086E+000	2.4737093E+000	4.7680936E+000	-3.1252108E+001	9.042195496120257E+000	2.7385882E-001	5.0327955E-003	1.3867247E+002	3.7324848E+001	1.000000000000000E+000	10	4.9893558E-003	1.0464047E-003	0	1.627308872824522E-004	1.7929447E-001	1.0880757E-001	2.0972742E-001	3.1252108E+001	3.7324852E+004	6.1504355E+004	7.1943938E+004	-5.8747894E+001	0.0000000E+000	0.0000000E+000	0.0000000E+000	5.8747894E+001	0.0000000E+000	0.0000000E+000	0.0000000E+000	-5.8747894E+001	0.0000000E+000	0.0000000E+000	0.0000000E+000	-3.1252108E+001	0.0000000E+000	0.0000000E+000	0.0000000E+000	3.1252108E+001	1.6478122E+000	5.8747894E+001	3.020263634195429E-007	1.3782754E-006	5.4414852E+004
3.1631589E+002	4.6003799E+000	3.0414276E+000	5.5148687E+000	-3.3469700E+001	9.508902798319468E+000	2.7386063E-001	4.7663180E-003	1.6543282E+002	5.0316017E+001	1.000000000000000E+000	10	4.9644108E-003	9.0018654E-004	0	1.631045845296764E-004	1.5125974E-001	1.0000164E-001	1.8132798E-001	3.3469700E+001	5.0316016E+004	7.6106625E+004	9.1235516E+004	-5.6530300E+001	0.0000000E+000	0.0000000E+000	0.0000000E+000	5.6530300E+001	0.0000000E+000	0.0000000E+000	0.0000000E+000	-5.6530300E+001	0.0000000E+000	0.0000000E+000	0.0000000E+000	-3.3469700E+001	0.0000000E+000	0.0000000E+000	0.0000000E+000	3.3469700E+001	1.5125725E+000	5.6530304E+001	3.736972472241954E-007	1.3053069E-006	5.7457480E+004
2.1534457E+002	5.3060627E+000	3.7260265E+000	6.4836392E+000	-3.5077320E+001	9.976427620480536E+000	2.7385619E-001	4.3134871E-003	1.9835368E+002	6.5508018E+001	1.000000000000000E+000	10	4.9518882E-003	7.6375133E-004	0	1.641811275788283E-004	1.2622190E-001	8.8635616E-002	1.5423436E-001	3.5077320E+001	6.5508012E+004	9.3286945E+004	1.1399015E+005	-5.4922680E+001	0.0000000E+000	0.0000000E+000	0.0000000E+000	5.4922680E+001	0.0000000E+000	0.0000000E+000	0.0000000E+000	-5.4922680E+001	0.0000000E+000	0.0000000E+000	0.0000000E+000	-3.5077320E+001	0.0000000E+000	0.0000000E+000	0.0000000E+000	3.5077320E+001	1.4240539E+000	5.4922684E+001	1.076543049151953E-006	1.1812751E-006	6.3488352E+004
1.4673740E+002	6.2450418E+000	4.5161419E+000	7.7068853E+000	-3.5872814E+001	1.043938286913908E+001	2.7385145E-001	2.6195918E-003	2.4016611E+002	8.2468689E+001	1.000000000000000E+000	10	4.9442356E-003	6.4153486E-004	0	1.647946851683050E-004	1.0514233E-001	7.6034345E-002	1.2975411E-001	3.5872814E+001	8.2468695E+004	1.1403991E+005	1.4073445E+005	-5.4127186E+001	0.0000000E+000	0.0000000E+000	0.0000000E+000	5.4127186E+001	0.0000000E+000	0.0000000E+000	0.0000000E+000	-5.4127186E+001	0.0000000E+000	0.0000000E+000	0.0000000E+000	-3.5872814E+001	0.0000000E+000	0.0000000E+000	0.0000000E+000	3.5872814E+001	1.3828268E+000	5.4127182E+001	6.135575894766277E-007	7.1737901E-007	1.0453974E+005
1.0003201E+002	7.4964437E+000	5.3528442E+000	9.2113848E+000	-3.5528774E+001	1.090769486477802E+001	2.7384955E-001	3.9221542E-003	2.9723267E+002	1.0037276E+002	1.000000000000000E+000	10	4.9408791E-003	5.3638831E-004	0	1.654867786344872E-004	8.8349774E-002	6.3086249E-002	1.0856131E-001	3.5528774E+001	1.0037276E+005	1.4056805E+005	1.7272541E+005	-5.4471226E+001	0.0000000E+000	0.0000000E+000	0.0000000E+000	5.4471226E+001	0.0000000E+000	0.0000000E+000	0.0000000E+000	-5.4471226E+001	0.0000000E+000	0.0000000E+000	0.0000000E+000	-3.5528774E+001	0.0000000E+000	0.0000000E+000	0.0000000E+000	3.5528774E+001	1.4004599E+000	5.4471222E+001	6.920934661821946E-007	1.0740802E-006	6.9821211E+004
6.8103981E+001	9.1118107E+000	6.1471815E+000	1.0991494E+001	-3.4005131E+001	1.138634760744753E+001	2.7386001E-001	6.5775961E-003	3.8016452E+002	1.1890776E+002	1.000000000000000E+000	10	4.9397033E-003	4.4941143E-004	0	1.664819268673633E-004	7.5420819E-002	5.0881814E-002	9.0979442E-002	3.4005131E+001	1.1890775E+005	1.7625395E+005	2.1261352E+005	-5.5994869E+001	0.0000000E+000	0.0000000E+000	0.0000000E+000	5.5994869E+001	0.0000000E+000	0.0000000E+000	0.0000000E+000	-5.5994869E+001	0.0000000E+000	0.0000000E+000	0.0000000E+000	-3.4005131E+001	0.0000000E+000	0.0000000E+000	0.0000000E+000	3.4005131E+001	1.4822745E+000	5.5994873E+001	9.951482328760875E-007	1.8013405E-006	4.1635273E+004
4.6441547E+001	1.1102764E+001	6.6790051E+000	1.2956870E+001	-3.1029531E+001	1.184152522907243E+001	2.7384898E-001	2.7533929E-004	5.1309961E+002	1.3634055E+002	1.000000000000000E+000	10	4.9386062E-003	3.8115736E-004	0	1.669132096485248E-004	6.6134930E-002	3.9784286E-002	7.7179134E-002	3.1029531E+001	1.3634055E+005	2.2664408E+005	2.6449250E+005	-5.8970467E+001	0.0000000E+000	0.0000000E+000	0.0000000E+000	5.8970467E+001	0.0000000E+000	0.0000000E+000	0.0000000E+000	-5.8970467E+001	0.0000000E+000	0.0000000E+000	0.0000000E+000	-3.1029531E+001	0.0000000E+000	0.0000000E+000	0.0000000E+000	3.1029531E+001	1.6623380E+000	5.8970467E+001	4.312827811615340E-007	7.5401381E-008	9.9458738E+005
3.1629555E+001	1.3289927E+001	6.7623119E+000	1.4911439E+001	-2.6968353E+001	1.228742327695363E+001	2.7383646E-001	-8.7815063E-004	7.4410095E+002	1.5303230E+002	1.000000000000000E+000	10	4.9310513E-003	3.3068916E-004	0	1.669247498850972E-004	5.9770029E-002	3.0412778E-002	6.7062609E-002	2.6968353E+001	1.5303231E+005	3.0075338E+005	3.3744850E+005	-6.3031647E+001	0.0000000E+000	0.0000000E+000	0.0000000E+000	6.3031647E+001	0.0000000E+000	0.0000000E+000	0.0000000E+000	-6.3031647E+001	0.0000000E+000	0.0000000E+000	0.0000000E+000	-2.6968353E+001	0.0000000E+000	0.0000000E+000	0.0000000E+000	2.6968353E+001	1.9652933E+000	6.3031647E+001	1.154023657242028E-008	-2.4046966E-007	3.1183313E+005
2.1551722E+001	1.5535437E+001	6.3243127E+000	1.6773394E+001	-2.2150721E+001	1.296734117591404E+001	2.7388468E-001	6.5395236E-003	1.1676826E+003	1.6600058E+002	1.000000000000000E+000	11	4.9436558E-003	2.9473199E-004	0	1.677751452461744E-004	5.5218115E-002	2.2478715E-002	5.9618227E-002	2.2150721E+001	1.6600056E+005	4.0777422E+005	4.4026809E+005	-6.7849281E+001	0.0000000E+000	0.0000000E+000	0.0000000E+000	6.7849281E+001	0.0000000E+000	0.0000000E+000	0.0000000E+000	-6.7849281E+001	0.0000000E+000	0.0000000E+000	0.0000000E+000	-2.2150721E+001	0.0000000E+000	0.0000000E+000	0.0000000E+000	2.2150721E+001	2.4564624E+000	6.7849281E+001	8.503953610771494E-007	1.7910753E-006	4.1881441E+004
1.4685154E+001	1.7265821E+001	5.5125189E+000	1.8124472E+001	-1.7706903E+001	1.344502247861237E+001	2.7389032E-001	7.4213459E-003	1.9660363E+003	1.8186996E+002	1.000000000000000E+000	11	4.9344013E-003	2.7225076E-004	0	1.691243921941124E-004	5.2560143E-002	1.6781060E-002	5.5174023E-002	1.7706903E+001	1.8186997E+005	5.6963706E+005	5.9796575E+005	-7.2293098E+001	0.0000000E+000	0.0000000E+000	0.0000000E+000	7.2293098E+001	0.0000000E+000	0.0000000E+000	0.0000000E+000	-7.2293098E+001	0.0000000E+000	0.0000000E+000	0.0000000E+000	-1.7706903E+001	0.0000000E+000	0.0000000E+000	0.0000000E+000	1.7706903E+001	3.1321111E+000	7.2293098E+001	1.349246947938000E-006	2.0326347E-006	3.6905746E+004
1.0003201E+001	1.8529638E+001	4.5764289E+000	1.9086414E+001	-1.3873211E+001	1.391371074088966E+001	2.7388358E-001	7.0752078E-003	3.4765974E+003	1.9987531E+002	1.000000000000000E+000	11	4.9253302E-003	2.5805424E-004	0	1.704785661126597E-004	5.0864905E-002	1.2562556E-002	5.2393287E-002	1.3873211E+001	1.9987533E+005	8.0928094E+005	8.3359813E+005	-7.6126785E+001	0.0000000E+000	0.0000000E+000	0.0000000E+000	7.6126785E+001	0.0000000E+000	0.0000000E+000	0.0000000E+000	-7.6126785E+001	0.0000000E+000	0.0000000E+000	0.0000000E+000	-1.3873211E+001	0.0000000E+000	0.0000000E+000	0.0000000E+000	1.3873211E+001	4.0489297E+000	7.6126785E+001	1.354173918547330E-006	1.9377833E-006	3.8710324E+004
