
EC-Lab ASCII FILE
Nb header lines : 63                          

Potentio Electrochemical Impedance Spectroscopy

Run on channel : 1 (SN 66354)
User : 
CE vs. WE compliance from -10 V to 10 V
Electrode connection : standard
Potential control : Ewe
Ewe ctrl range : min = -10.00 V, max = 10.00 V
Safety Limits :
	Do not start on E overload
Acquisition started on : 09/15/2025 10:08:03.148
Loaded Setting File :  C:\Users\Celltest\OneDrive - store-dot.com\Documents\EC-Lab\Data\Gyutae\EIS_SOC0_C01.mpr
Saved on :
	File : 17486_C01.mpr
	Directory : C:\Users\Celltest\OneDrive - store-dot.com\Documents\EC-Lab\Data\Charmaine\R279\
	Host : 169.254.61.224
Device : VMP-3e (SN .003165)
Address : USB
EC-LAB for windows v11.62 (software)
Internet server v27.00 (firmware)
Command interpretor v12.03 (firmware)
Electrode material : 
Initial state : 
Electrolyte : 
Comments : 
Electrode surface area : 0.001 cm²
Characteristic mass : 0.001 g
Equivalent Weight : 0.000 g/eq.
Density : 0.000 g/cm3
Volume (V) : 0.001 cm³
Cycle Definition : Charge/Discharge alternance
Mode                Single sine         
E (V)               0.0000              
vs.                 Eoc                 
tE (h:m:s)          0:00:0.0000         
record              0                   
dI                  0.000               
unit dI             mA                  
dt (s)              0.000               
fi                  100.000             
unit fi             kHz                 
ff                  10.000              
unit ff             mHz                 
Nd                  6                   
Points              per decade          
spacing             Logarithmic         
Va (mV)             5.0                 
pw                  0.10                
Na                  2                   
corr                0                   
E range min (V)     -10.000             
E range max (V)     10.000              
I Range             Auto                
Bandwidth           5                   
nc cycles           0                   
goto Ns'            0                   
nr cycles           0                   
inc. cycle          0                   

freq/Hz	Re(Z)/Ohm	-Im(Z)/Ohm	|Z|/Ohm	Phase(Z)/deg	time/s	<Ewe>/V	<I>/mA	Cs/µF	Cp/µF	cycle number	I Range	|Ewe|/V	|I|/A	Ns	(Q-Qo)/mA.h	Re(Y)/Ohm-1	Im(Y)/Ohm-1	|Y|/Ohm-1	Phase(Y)/deg	Re(C)/nF	Im(C)/nF	|C|/nF	Phase(C)/deg	Re(M)	Im(M)	|M|	Phase(M)/deg	Re(Permittivity)	Im(Permittivity)	|Permittivity|	Phase(Permittivity)/deg	Re(Resistivity)/Ohm.cm	Im(Resistivity)/Ohm.cm	|Resistivity|/Ohm.cm	Phase(Resistivity)/deg	Re(Conductivity)/mS/cm	Im(Conductivity)/mS/cm	|Conductivity|/mS/cm	Phase(Conductivity)/deg	Tan(Delta)	Loss Angle(Delta)/deg	dq/mA.h	Pwe/W	Rwe/Ohm	
1.0000371E+005	1.1116335E+000	2.4948065E-001	1.1392847E+000	-1.2649135E+001	2.067492844857043E+000	2.5431153E-001	7.3032603E-002	6.3792133E+000	3.0589777E-001	1.000000000000000E+000	9	4.7059236E-003	4.1305949E-003	0	3.892896407956464E-006	8.5644031E-001	1.9220838E-001	8.7774372E-001	1.2649135E+001	3.0589771E+002	1.3630165E+003	1.3969207E+003	-7.7350868E+001	0.0000000E+000	0.0000000E+000	0.0000000E+000	7.7350868E+001	0.0000000E+000	0.0000000E+000	0.0000000E+000	-7.7350868E+001	0.0000000E+000	0.0000000E+000	0.0000000E+000	-1.2649135E+001	0.0000000E+000	0.0000000E+000	0.0000000E+000	1.2649135E+001	4.4557905E+000	7.7350868E+001	3.892896407956464E-006	1.8573033E-005	3.4821646E+003
6.8132047E+004	1.1723065E+000	2.6656896E-001	1.2022319E+000	-1.2810572E+001	2.646480498980964E+000	2.5431180E-001	7.1058124E-002	8.7631273E+000	4.3082589E-001	1.000000000000000E+000	9	5.0322404E-003	4.1857488E-003	0	2.339757513126824E-005	8.1108183E-001	1.8443066E-001	8.3178627E-001	1.2810572E+001	4.3082587E+002	1.8946692E+003	1.9430343E+003	-7.7189430E+001	0.0000000E+000	0.0000000E+000	0.0000000E+000	7.7189430E+001	0.0000000E+000	0.0000000E+000	0.0000000E+000	-7.7189430E+001	0.0000000E+000	0.0000000E+000	0.0000000E+000	-1.2810572E+001	0.0000000E+000	0.0000000E+000	0.0000000E+000	1.2810572E+001	4.3977609E+000	7.7189430E+001	1.950467872331177E-005	1.8070919E-005	3.5789265E+003
4.6420355E+004	1.2358204E+000	2.8741062E-001	1.2688013E+000	-1.3092356E+001	3.224496233131504E+000	2.5430730E-001	7.2920829E-002	1.1929132E+001	6.1210686E-001	1.000000000000000E+000	9	5.0491970E-003	3.9795018E-003	0	4.156057446486213E-005	7.6765859E-001	1.7853178E-001	7.8814548E-001	1.3092356E+001	6.1210669E+002	2.6319629E+003	2.7022034E+003	-7.6907646E+001	0.0000000E+000	0.0000000E+000	0.0000000E+000	7.6907646E+001	0.0000000E+000	0.0000000E+000	0.0000000E+000	-7.6907646E+001	0.0000000E+000	0.0000000E+000	0.0000000E+000	-1.3092356E+001	0.0000000E+000	0.0000000E+000	0.0000000E+000	1.3092356E+001	4.2998424E+000	7.6907646E+001	1.816299933359389E-005	1.8544299E-005	3.4874438E+003
3.1621139E+004	1.3046300E+000	3.1873965E-001	1.3430021E+000	-1.3729226E+001	3.803496260632528E+000	2.5430566E-001	7.6273717E-002	1.5790888E+001	8.8945782E-001	1.000000000000000E+000	9	5.1219426E-003	3.8138009E-003	0	4.684612173576736E-005	7.2332591E-001	1.7671879E-001	7.4460047E-001	1.3729226E+001	8.8945770E+002	3.6406309E+003	3.7477097E+003	-7.6270775E+001	0.0000000E+000	0.0000000E+000	0.0000000E+000	7.6270775E+001	0.0000000E+000	0.0000000E+000	0.0000000E+000	-7.6270775E+001	0.0000000E+000	0.0000000E+000	0.0000000E+000	-1.3729226E+001	0.0000000E+000	0.0000000E+000	0.0000000E+000	1.3729226E+001	4.0930901E+000	7.6270775E+001	5.285547270905230E-006	1.9396837E-005	3.3341191E+003
2.1544684E+004	1.3765923E+000	3.5052943E-001	1.4205201E+000	-1.4285947E+001	4.240493668039562E+000	2.5431401E-001	6.9046371E-002	2.1074415E+001	1.2832456E+000	1.000000000000000E+000	9	5.3276182E-003	3.7504702E-003	0	6.305563198231781E-005	6.8219823E-001	1.7371196E-001	7.0396751E-001	1.4285947E+001	1.2832457E+003	5.0395361E+003	5.2003506E+003	-7.5714050E+001	0.0000000E+000	0.0000000E+000	0.0000000E+000	7.5714050E+001	0.0000000E+000	0.0000000E+000	0.0000000E+000	-7.5714050E+001	0.0000000E+000	0.0000000E+000	0.0000000E+000	-1.4285947E+001	0.0000000E+000	0.0000000E+000	0.0000000E+000	1.4285947E+001	3.9271803E+000	7.5714050E+001	1.620951024655045E-005	1.7559460E-005	3.6832349E+003
1.4678594E+004	1.4565367E+000	3.8851273E-001	1.5074618E+000	-1.4935199E+001	4.678481715527596E+000	2.5430679E-001	7.3032565E-002	2.7908110E+001	1.8537377E+000	1.000000000000000E+000	9	4.9709077E-003	3.2975348E-003	0	7.478390530359078E-005	6.4095682E-001	1.7096713E-001	6.6336673E-001	1.4935199E+001	1.8537374E+003	6.9496743E+003	7.1926572E+003	-7.5064804E+001	0.0000000E+000	0.0000000E+000	0.0000000E+000	7.5064804E+001	0.0000000E+000	0.0000000E+000	0.0000000E+000	-7.5064804E+001	0.0000000E+000	0.0000000E+000	0.0000000E+000	-1.4935199E+001	0.0000000E+000	0.0000000E+000	0.0000000E+000	1.4935199E+001	3.7490063E+000	7.5064804E+001	1.172827332127297E-005	1.8572677E-005	3.4821013E+003
1.0002226E+004	1.5391905E+000	4.3363523E-001	1.5991082E+000	-1.5734089E+001	5.115475522965426E+000	2.5430819E-001	7.5342335E-002	3.6694328E+001	2.6983132E+000	1.000000000000000E+000	9	4.9280999E-003	3.0817802E-003	0	8.251555471625438E-005	6.0191715E-001	1.6957775E-001	6.2534857E-001	1.5734089E+001	2.6983123E+003	9.5776758E+003	9.9505156E+003	-7.4265915E+001	0.0000000E+000	0.0000000E+000	0.0000000E+000	7.4265915E+001	0.0000000E+000	0.0000000E+000	0.0000000E+000	-7.4265915E+001	0.0000000E+000	0.0000000E+000	0.0000000E+000	-1.5734089E+001	0.0000000E+000	0.0000000E+000	0.0000000E+000	1.5734089E+001	3.5495052E+000	7.4265915E+001	7.731649412663603E-006	1.9160174E-005	3.3753691E+003
6.8110674E+003	1.6345223E+000	4.9348885E-001	1.7073940E+000	-1.6799919E+001	5.493507700884948E+000	2.5409216E-001	-7.6357335E-002	4.7350830E+001	3.9556220E+000	1.000000000000000E+000	9	4.6374113E-003	2.7160756E-003	0	7.491442183570730E-005	5.6069064E-001	1.6928163E-001	5.8568788E-001	1.6799919E+001	3.9556221E+003	1.3101720E+004	1.3685832E+004	-7.3200081E+001	0.0000000E+000	0.0000000E+000	0.0000000E+000	7.3200081E+001	0.0000000E+000	0.0000000E+000	0.0000000E+000	-7.3200081E+001	0.0000000E+000	0.0000000E+000	0.0000000E+000	-1.6799919E+001	0.0000000E+000	0.0000000E+000	0.0000000E+000	1.6799919E+001	3.3121767E+000	7.3200081E+001	-7.601132880547085E-006	-1.9401799E-005	3.3276719E+003
4.6414854E+003	1.7364815E+000	5.6864846E-001	1.8272190E+000	-1.8132153E+001	6.187711840590055E+000	2.5428680E-001	9.2646971E-002	6.0300278E+001	5.8401742E+000	1.000000000000000E+000	9	4.9944622E-003	2.7333682E-003	0	8.854269943907599E-005	5.2010256E-001	1.7031881E-001	5.4727978E-001	1.8132153E+001	5.8401753E+003	1.7834139E+004	1.8766037E+004	-7.1867844E+001	0.0000000E+000	0.0000000E+000	0.0000000E+000	7.1867844E+001	0.0000000E+000	0.0000000E+000	0.0000000E+000	-7.1867844E+001	0.0000000E+000	0.0000000E+000	0.0000000E+000	-1.8132153E+001	0.0000000E+000	0.0000000E+000	0.0000000E+000	1.8132153E+001	3.0536995E+000	7.1867844E+001	1.362827760336869E-005	2.3558901E-005	2.7446855E+003
3.1610117E+003	1.8536388E+000	6.6244018E-001	1.9684521E+000	-1.9665510E+001	6.654710796101426E+000	2.5429019E-001	9.7173370E-002	7.6005905E+001	8.6077766E+000	1.000000000000000E+000	9	4.9159420E-003	2.4973643E-003	0	1.010638179507676E-004	4.7838262E-001	1.7096096E-001	5.0801337E-001	1.9665510E+001	8.6077783E+003	2.4086264E+004	2.5578154E+004	-7.0334488E+001	0.0000000E+000	0.0000000E+000	0.0000000E+000	7.0334488E+001	0.0000000E+000	0.0000000E+000	0.0000000E+000	-7.0334488E+001	0.0000000E+000	0.0000000E+000	0.0000000E+000	-1.9665510E+001	0.0000000E+000	0.0000000E+000	0.0000000E+000	1.9665510E+001	2.7981980E+000	7.0334488E+001	1.252111851169159E-005	2.4710234E-005	2.6168711E+003
2.1556899E+003	1.9694589E+000	7.8816664E-001	2.1213145E+000	-2.1811016E+001	7.121669138286961E+000	2.5428903E-001	9.7396903E-002	9.3673294E+001	1.2931287E+001	1.000000000000000E+000	9	4.9020797E-003	2.3108688E-003	0	1.103770902231206E-004	4.3765995E-001	1.7514910E-001	4.7140580E-001	2.1811016E+001	1.2931290E+004	3.2312506E+004	3.4803969E+004	-6.8188980E+001	0.0000000E+000	0.0000000E+000	0.0000000E+000	6.8188980E+001	0.0000000E+000	0.0000000E+000	0.0000000E+000	-6.8188980E+001	0.0000000E+000	0.0000000E+000	0.0000000E+000	-2.1811016E+001	0.0000000E+000	0.0000000E+000	0.0000000E+000	2.1811016E+001	2.4987850E+000	6.8188980E+001	9.313272272353057E-006	2.4766963E-005	2.6108533E+003
1.4685898E+003	2.1157861E+000	9.5164919E-001	2.3199542E+000	-2.4217508E+001	7.588963800459169E+000	2.5429145E-001	9.1119535E-002	1.1387877E+002	1.9161861E+001	1.000000000000000E+000	9	4.8515722E-003	2.0912362E-003	0	1.200663353518402E-004	3.9310896E-001	1.7681459E-001	4.3104300E-001	2.4217508E+001	1.9161857E+004	4.2602250E+004	4.6713258E+004	-6.5782494E+001	0.0000000E+000	0.0000000E+000	0.0000000E+000	6.5782494E+001	0.0000000E+000	0.0000000E+000	0.0000000E+000	-6.5782494E+001	0.0000000E+000	0.0000000E+000	0.0000000E+000	-2.4217508E+001	0.0000000E+000	0.0000000E+000	0.0000000E+000	2.4217508E+001	2.2232835E+000	6.5782494E+001	9.689245128719550E-006	2.3170918E-005	2.7907456E+003
1.0003202E+003	2.2833347E+000	1.1730812E+000	2.5670483E+000	-2.7192188E+001	8.057701742742211E+000	2.5428596E-001	9.2609696E-002	1.3562915E+002	2.8323118E+001	1.000000000000000E+000	9	4.8361649E-003	1.8839400E-003	0	1.325726029595050E-004	3.4649861E-001	1.7801639E-001	3.8955247E-001	2.7192188E+001	2.8323119E+004	5.5129316E+004	6.1979355E+004	-6.2807812E+001	0.0000000E+000	0.0000000E+000	0.0000000E+000	6.2807812E+001	0.0000000E+000	0.0000000E+000	0.0000000E+000	-6.2807812E+001	0.0000000E+000	0.0000000E+000	0.0000000E+000	-2.7192188E+001	0.0000000E+000	0.0000000E+000	0.0000000E+000	2.7192188E+001	1.9464422E+000	6.2807816E+001	1.250626760766478E-005	2.3549346E-005	2.7457813E+003
6.8108978E+002	2.4987087E+000	1.4641739E+000	2.8960924E+000	-3.0369118E+001	8.523429871507687E+000	2.5428978E-001	8.6686254E-002	1.5959641E+002	4.0792809E+001	1.000000000000000E+000	9	4.8282477E-003	1.6671594E-003	0	1.451895231396581E-004	2.9791394E-001	1.7456928E-001	3.4529284E-001	3.0369118E+001	4.0792809E+004	6.9615602E+004	8.0686961E+004	-5.9630882E+001	0.0000000E+000	0.0000000E+000	0.0000000E+000	5.9630882E+001	0.0000000E+000	0.0000000E+000	0.0000000E+000	-5.9630882E+001	0.0000000E+000	0.0000000E+000	0.0000000E+000	-3.0369118E+001	0.0000000E+000	0.0000000E+000	0.0000000E+000	3.0369118E+001	1.7065655E+000	5.9630882E+001	1.261692018015312E-005	2.2043429E-005	2.9334500E+003
4.6396069E+002	2.8184466E+000	1.8556716E+000	3.3744864E+000	-3.3360996E+001	9.246219372464111E+000	2.5427064E-001	-1.9730847E-002	1.8485780E+002	5.5901657E+001	1.000000000000000E+000	10	4.8813904E-003	1.4465580E-003	0	1.464593481092209E-004	2.4751097E-001	1.6296177E-001	2.9634139E-001	3.3360996E+001	5.5901656E+004	8.4905023E+004	1.0165559E+005	-5.6639004E+001	0.0000000E+000	0.0000000E+000	0.0000000E+000	5.6639004E+001	0.0000000E+000	0.0000000E+000	0.0000000E+000	-5.6639004E+001	0.0000000E+000	0.0000000E+000	0.0000000E+000	-3.3360996E+001	0.0000000E+000	0.0000000E+000	0.0000000E+000	3.3360996E+001	1.5188283E+000	5.6639008E+001	1.269824969562855E-006	-5.0169751E-006	1.2886960E+004
3.1631589E+002	3.2436032E+000	2.3375602E+000	3.9981432E+000	-3.5779076E+001	9.712924728024518E+000	2.5427535E-001	-2.0302935E-002	2.1524661E+002	7.3577538E+001	1.000000000000000E+000	10	4.8567979E-003	1.2147634E-003	0	1.448190084980646E-004	2.0291354E-001	1.4623325E-001	2.5011611E-001	3.5779076E+001	7.3577539E+004	1.0209634E+005	1.2584641E+005	-5.4220924E+001	0.0000000E+000	0.0000000E+000	0.0000000E+000	5.4220924E+001	0.0000000E+000	0.0000000E+000	0.0000000E+000	-5.4220924E+001	0.0000000E+000	0.0000000E+000	0.0000000E+000	-3.5779076E+001	0.0000000E+000	0.0000000E+000	0.0000000E+000	3.5779076E+001	1.3876020E+000	5.4220924E+001	-1.640339611156381E-006	-5.1625357E-006	1.2524069E+004
2.1534457E+002	3.8399174E+000	2.8896098E+000	4.8057060E+000	-3.6962147E+001	1.018043469687109E+001	2.5426698E-001	-2.0705450E-002	2.5576849E+002	9.2472160E+001	1.000000000000000E+000	10	4.8345239E-003	1.0059966E-003	0	1.432243507040580E-004	1.6626754E-001	1.2511945E-001	2.0808597E-001	3.6962147E+001	9.2472156E+004	1.2288352E+005	1.5379031E+005	-5.3037853E+001	0.0000000E+000	0.0000000E+000	0.0000000E+000	5.3037853E+001	0.0000000E+000	0.0000000E+000	0.0000000E+000	-5.3037853E+001	0.0000000E+000	0.0000000E+000	0.0000000E+000	-3.6962147E+001	0.0000000E+000	0.0000000E+000	0.0000000E+000	3.6962147E+001	1.3288705E+000	5.3037857E+001	-1.594657794006519E-006	-5.2647124E-006	1.2280195E+004
1.4673740E+002	4.6770463E+000	3.4592783E+000	5.8173337E+000	-3.6487698E+001	1.064336173215997E+001	2.5426415E-001	-2.2086285E-002	3.1354062E+002	1.1087072E+002	1.000000000000000E+000	10	4.8270933E-003	8.2977762E-004	0	1.402027011808467E-004	1.3820499E-001	1.0222040E-001	1.7190006E-001	3.6487698E+001	1.1087073E+005	1.4990050E+005	1.8644698E+005	-5.3512302E+001	0.0000000E+000	0.0000000E+000	0.0000000E+000	5.3512302E+001	0.0000000E+000	0.0000000E+000	0.0000000E+000	-5.3512302E+001	0.0000000E+000	0.0000000E+000	0.0000000E+000	-3.6487698E+001	0.0000000E+000	0.0000000E+000	0.0000000E+000	3.6487698E+001	1.3520294E+000	5.3512299E+001	-3.021649523211309E-006	-5.6157505E-006	1.1512310E+004
1.0003201E+002	5.7286325E+000	3.9446237E+000	6.9553781E+000	-3.4550537E+001	1.111166546113236E+001	2.5426769E-001	-2.0561973E-002	4.0334393E+002	1.2973145E+002	1.000000000000000E+000	10	4.8016128E-003	6.9034536E-004	0	1.370712607346553E-004	1.1841574E-001	8.1538759E-002	1.4377363E-001	3.4550537E+001	1.2973145E+005	1.8840420E+005	2.2874963E+005	-5.5449463E+001	0.0000000E+000	0.0000000E+000	0.0000000E+000	5.5449463E+001	0.0000000E+000	0.0000000E+000	0.0000000E+000	-5.5449463E+001	0.0000000E+000	0.0000000E+000	0.0000000E+000	-3.4550537E+001	0.0000000E+000	0.0000000E+000	0.0000000E+000	3.4550537E+001	1.4522634E+000	5.5449463E+001	-3.131440446191449E-006	-5.2282453E-006	1.2365919E+004
6.8103981E+001	7.0739112E+000	4.2315741E+000	8.2429628E+000	-3.0887629E+001	1.159031351047452E+001	2.5427616E-001	-1.6853670E-002	5.5226263E+002	1.4554018E+002	1.000000000000000E+000	10	4.8190742E-003	5.8462890E-004	0	1.345276575097232E-004	1.0411011E-001	6.2278084E-002	1.2131560E-001	3.0887629E+001	1.4554017E+005	2.4329914E+005	2.8350734E+005	-5.9112373E+001	0.0000000E+000	0.0000000E+000	0.0000000E+000	5.9112373E+001	0.0000000E+000	0.0000000E+000	0.0000000E+000	-5.9112373E+001	0.0000000E+000	0.0000000E+000	0.0000000E+000	-3.0887629E+001	0.0000000E+000	0.0000000E+000	0.0000000E+000	3.0887629E+001	1.6716974E+000	5.9112373E+001	-2.543603224932061E-006	-4.2854863E-006	1.5087287E+004
4.6441547E+001	8.4502058E+000	4.1982965E+000	9.4356594E+000	-2.6419462E+001	1.204554443879169E+001	2.5426841E-001	-2.3441033E-002	8.1628223E+002	1.6160027E+002	1.000000000000000E+000	10	4.8105740E-003	5.0982914E-004	0	1.315174968981139E-004	9.4912358E-002	4.7155093E-002	1.0598093E-001	2.6419462E+001	1.6160027E+005	3.2526413E+005	3.6319609E+005	-6.3580536E+001	0.0000000E+000	0.0000000E+000	0.0000000E+000	6.3580536E+001	0.0000000E+000	0.0000000E+000	0.0000000E+000	-6.3580536E+001	0.0000000E+000	0.0000000E+000	0.0000000E+000	-2.6419462E+001	0.0000000E+000	0.0000000E+000	0.0000000E+000	2.6419462E+001	2.0127702E+000	6.3580536E+001	-3.010160611609339E-006	-5.9603144E-006	1.0847150E+004
3.1629555E+001	9.7551308E+000	3.8486466E+000	1.0486880E+001	-2.1530493E+001	1.249243976667640E+001	2.5425830E-001	-2.4894545E-002	1.3074316E+003	1.7609315E+002	1.000000000000000E+000	10	4.8125512E-003	4.5891161E-004	0	1.288236254716111E-004	8.8703446E-002	3.4995761E-002	9.5357247E-002	2.1530493E+001	1.7609317E+005	4.4634178E+005	4.7982266E+005	-6.8469505E+001	0.0000000E+000	0.0000000E+000	0.0000000E+000	6.8469505E+001	0.0000000E+000	0.0000000E+000	0.0000000E+000	-6.8469505E+001	0.0000000E+000	0.0000000E+000	0.0000000E+000	-2.1530493E+001	0.0000000E+000	0.0000000E+000	0.0000000E+000	2.1530493E+001	2.5346911E+000	6.8469505E+001	-2.693871426502772E-006	-6.3296447E-006	1.0213414E+004
2.1551722E+001	1.0792585E+001	3.2753875E+000	1.1278655E+001	-1.6882256E+001	1.293033621410723E+001	2.5426090E-001	-2.5993992E-002	2.2546309E+003	1.9014557E+002	1.000000000000000E+000	10	4.8084543E-003	4.2633223E-004	0	1.254232733416478E-004	8.4841996E-002	2.5748271E-002	8.8663056E-002	1.6882256E+001	1.9014558E+005	6.2654031E+005	6.5475806E+005	-7.3117744E+001	0.0000000E+000	0.0000000E+000	0.0000000E+000	7.3117744E+001	0.0000000E+000	0.0000000E+000	0.0000000E+000	-7.3117744E+001	0.0000000E+000	0.0000000E+000	0.0000000E+000	-1.6882256E+001	0.0000000E+000	0.0000000E+000	0.0000000E+000	1.6882256E+001	3.2950561E+000	7.3117744E+001	-3.400352129963319E-006	-6.6092557E-006	9.7815254E+003
1.4685154E+001	1.1513866E+001	2.6772709E+000	1.1821036E+001	-1.3090135E+001	1.340806194351171E+001	2.5427860E-001	-1.7017661E-002	4.0480818E+003	2.0764565E+002	1.000000000000000E+000	10	4.8129349E-003	4.0714999E-004	0	1.227679436917889E-004	8.2396746E-002	1.9159369E-002	8.4594950E-002	1.3090135E+001	2.0764561E+005	8.9300044E+005	9.1682413E+005	-7.6909866E+001	0.0000000E+000	0.0000000E+000	0.0000000E+000	7.6909866E+001	0.0000000E+000	0.0000000E+000	0.0000000E+000	-7.6909866E+001	0.0000000E+000	0.0000000E+000	0.0000000E+000	-1.3090135E+001	0.0000000E+000	0.0000000E+000	0.0000000E+000	1.3090135E+001	4.3005981E+000	7.6909866E+001	-2.655329649858904E-006	-4.3272271E-006	1.4942042E+004
1.0003201E+001	1.2098980E+001	2.1330137E+000	1.2285563E+001	-9.9983330E+000	1.413067419119761E+001	2.5430885E-001	-1.0779460E-002	7.4591182E+003	2.2484572E+002	1.000000000000000E+000	11	4.8113111E-003	3.9162315E-004	0	1.241650872292683E-004	8.0160163E-002	1.4131995E-002	8.1396349E-002	9.9983330E+000	2.2484580E+005	1.2753804E+006	1.2950485E+006	-8.0001663E+001	0.0000000E+000	0.0000000E+000	0.0000000E+000	8.0001663E+001	0.0000000E+000	0.0000000E+000	0.0000000E+000	-8.0001663E+001	0.0000000E+000	0.0000000E+000	0.0000000E+000	-9.9983330E+000	0.0000000E+000	0.0000000E+000	0.0000000E+000	9.9983330E+000	5.6722465E+000	8.0001663E+001	1.397143537479388E-006	-2.7413121E-006	2.3591984E+004
