EC-Lab ASCII FILE
Nb header lines : 63                          

Potentio Electrochemical Impedance Spectroscopy

Run on channel : 3 (SN 65921)
User : 
CE vs. WE compliance from -10 V to 10 V
Electrode connection : standard
Potential control : Ewe
Ewe ctrl range : min = -10.00 V, max = 10.00 V
Safety Limits :
	Do not start on E overload
Acquisition started on : 09/15/2025 08:59:18.803
Loaded Setting File :  C:\Users\Celltest\OneDrive - store-dot.com\Documents\EC-Lab\Data\Charmaine\R279\17382_C01.mpr
Saved on :
	File : 17484_C03.mpr
	Directory : C:\Users\Celltest\OneDrive - store-dot.com\Documents\EC-Lab\Data\Charmaine\R279\
	Host : 169.254.61.224
Device : VMP-3e (SN .003165)
Address : USB
EC-LAB for windows v11.62 (software)
Internet server v27.00 (firmware)
Command interpretor v12.03 (firmware)
Electrode material : 
Initial state : 
Electrolyte : 
Comments : 
Electrode surface area : 0.001 cm²
Characteristic mass : 0.001 g
Equivalent Weight : 0.000 g/eq.
Density : 0.000 g/cm3
Volume (V) : 0.001 cm³
Cycle Definition : Charge/Discharge alternance
Mode                Single sine         
E (V)               0.0000              
vs.                 Eoc                 
tE (h:m:s)          0:00:0.0000         
record              0                   
dI                  0.000               
unit dI             mA                  
dt (s)              0.000               
fi                  100.000             
unit fi             kHz                 
ff                  10.000              
unit ff             mHz                 
Nd                  6                   
Points              per decade          
spacing             Logarithmic         
Va (mV)             5.0                 
pw                  0.10                
Na                  2                   
corr                0                   
E range min (V)     -10.000             
E range max (V)     10.000              
I Range             Auto                
Bandwidth           5                   
nc cycles           0                   
goto Ns'            0                   
nr cycles           0                   
inc. cycle          0                   

freq/Hz	Re(Z)/Ohm	-Im(Z)/Ohm	|Z|/Ohm	Phase(Z)/deg	time/s	<Ewe>/V	<I>/mA	Cs/µF	Cp/µF	cycle number	I Range	|Ewe|/V	|I|/A	Ns	(Q-Qo)/mA.h	Re(Y)/Ohm-1	Im(Y)/Ohm-1	|Y|/Ohm-1	Phase(Y)/deg	Re(C)/nF	Im(C)/nF	|C|/nF	Phase(C)/deg	Re(M)	Im(M)	|M|	Phase(M)/deg	Re(Permittivity)	Im(Permittivity)	|Permittivity|	Phase(Permittivity)/deg	Re(Resistivity)/Ohm.cm	Im(Resistivity)/Ohm.cm	|Resistivity|/Ohm.cm	Phase(Resistivity)/deg	Re(Conductivity)/mS/cm	Im(Conductivity)/mS/cm	|Conductivity|/mS/cm	Phase(Conductivity)/deg	Tan(Delta)	Loss Angle(Delta)/deg	dq/mA.h	Pwe/W	Rwe/Ohm	
1.0000371E+005	1.3110938E+000	2.9028201E-001	1.3428442E+000	-1.2484150E+001	1.864475741836941E+000	2.6650620E-001	3.4805681E-003	5.4825664E+000	2.5619629E-001	1.000000000000000E+000	9	4.5105270E-003	3.3589352E-003	0	-4.237146908249189E-006	7.2708046E-001	1.6097885E-001	7.4468797E-001	1.2484150E+001	2.5619623E+002	1.1571416E+003	1.1851638E+003	-7.7515854E+001	0.0000000E+000	0.0000000E+000	0.0000000E+000	7.7515854E+001	0.0000000E+000	0.0000000E+000	0.0000000E+000	-7.7515854E+001	0.0000000E+000	0.0000000E+000	0.0000000E+000	-1.2484150E+001	0.0000000E+000	0.0000000E+000	0.0000000E+000	1.2484150E+001	4.5166211E+000	7.7515854E+001	-4.237146908249189E-006	9.2759296E-007	7.6569742E+004
6.8132047E+004	1.3845395E+000	3.0404109E-001	1.4175297E+000	-1.2385407E+001	2.301498775981599E+000	2.6652610E-001	7.4336682E-003	7.6830988E+000	3.5345703E-001	1.000000000000000E+000	9	5.4983040E-003	3.8787930E-003	0	-9.616856258854062E-006	6.8903452E-001	1.5131010E-001	7.0545256E-001	1.2385407E+001	3.5345700E+002	1.6095693E+003	1.6479215E+003	-7.7614594E+001	0.0000000E+000	0.0000000E+000	0.0000000E+000	7.7614594E+001	0.0000000E+000	0.0000000E+000	0.0000000E+000	-7.7614594E+001	0.0000000E+000	0.0000000E+000	0.0000000E+000	-1.2385407E+001	0.0000000E+000	0.0000000E+000	0.0000000E+000	1.2385407E+001	4.5537906E+000	7.7614594E+001	-5.379709350604874E-006	1.9812667E-006	3.5853914E+004
4.6420355E+004	1.4564781E+000	3.2377073E-001	1.4920309E+000	-1.2532891E+001	2.879498963389779E+000	2.6651073E-001	-1.8524119E-003	1.0589466E+001	4.9864751E-001	1.000000000000000E+000	9	5.0712046E-003	3.3988603E-003	0	-1.030042332214200E-005	6.5425694E-001	1.4543937E-001	6.7022741E-001	1.2532891E+001	4.9864749E+002	2.2431589E+003	2.2979146E+003	-7.7467110E+001	0.0000000E+000	0.0000000E+000	0.0000000E+000	7.7467110E+001	0.0000000E+000	0.0000000E+000	0.0000000E+000	-7.7467110E+001	0.0000000E+000	0.0000000E+000	0.0000000E+000	-1.2532891E+001	0.0000000E+000	0.0000000E+000	0.0000000E+000	1.2532891E+001	4.4984860E+000	7.7467110E+001	-6.835670632879363E-007	-4.9368765E-007	1.4387228E+005
3.1621139E+004	1.5294017E+000	3.4922728E-001	1.5687667E+000	-1.2862532E+001	3.457487470848719E+000	2.6651362E-001	-1.8710614E-003	1.4412338E+001	7.1422338E-001	1.000000000000000E+000	9	5.0516003E-003	3.2201093E-003	0	-9.909506725897599E-006	6.2144804E-001	1.4190295E-001	6.3744342E-001	1.2862532E+001	7.1422345E+002	3.1278611E+003	3.2083687E+003	-7.7137466E+001	0.0000000E+000	0.0000000E+000	0.0000000E+000	7.7137466E+001	0.0000000E+000	0.0000000E+000	0.0000000E+000	-7.7137466E+001	0.0000000E+000	0.0000000E+000	0.0000000E+000	-1.2862532E+001	0.0000000E+000	0.0000000E+000	0.0000000E+000	1.2862532E+001	4.3793879E+000	7.7137466E+001	3.909165962443999E-007	-4.9866333E-007	1.4243980E+005
2.1544684E+004	1.6097441E+000	3.7647378E-001	1.6531813E+000	-1.3163279E+001	3.894476211600704E+000	2.6651850E-001	4.9350164E-003	1.9622091E+001	1.0175923E+000	1.000000000000000E+000	9	5.2241017E-003	3.1600294E-003	0	-4.514369749352530E-006	5.8900076E-001	1.3775069E-001	6.0489434E-001	1.3163279E+001	1.0175920E+003	4.3510679E+003	4.4684771E+003	-7.6836723E+001	0.0000000E+000	0.0000000E+000	0.0000000E+000	7.6836723E+001	0.0000000E+000	0.0000000E+000	0.0000000E+000	-7.6836723E+001	0.0000000E+000	0.0000000E+000	0.0000000E+000	-1.3163279E+001	0.0000000E+000	0.0000000E+000	0.0000000E+000	1.3163279E+001	4.2758465E+000	7.6836723E+001	5.395136976545069E-006	1.3152732E-006	5.4005598E+004
1.4678594E+004	1.6935127E+000	4.1251355E-001	1.7430297E+000	-1.3689770E+001	4.331495539023308E+000	2.6653007E-001	1.0454462E-002	2.6284361E+001	1.4721915E+000	1.000000000000000E+000	9	5.0289943E-003	2.8852029E-003	0	-2.151592076781930E-006	5.5741525E-001	1.3577776E-001	5.7371366E-001	1.3689770E+001	1.4721920E+003	6.0438623E+003	6.2205806E+003	-7.6310226E+001	0.0000000E+000	0.0000000E+000	0.0000000E+000	7.6310226E+001	0.0000000E+000	0.0000000E+000	0.0000000E+000	-7.6310226E+001	0.0000000E+000	0.0000000E+000	0.0000000E+000	-1.3689770E+001	0.0000000E+000	0.0000000E+000	0.0000000E+000	1.3689770E+001	4.1053505E+000	7.6310226E+001	2.362777672570599E-006	2.7864285E-006	2.5494385E+004
1.0002226E+004	1.7839261E+000	4.5830667E-001	1.8418571E+000	-1.4408204E+001	4.628477553167613E+000	2.6651892E-001	4.8790649E-003	3.4719009E+001	2.1496503E+000	1.000000000000000E+000	9	4.9725883E-003	2.6997689E-003	0	-3.427222791528846E-006	5.2585381E-001	1.3509658E-001	5.4293031E-001	1.4408204E+001	2.1496504E+003	8.3673613E+003	8.6390820E+003	-7.5591797E+001	0.0000000E+000	0.0000000E+000	0.0000000E+000	7.5591797E+001	0.0000000E+000	0.0000000E+000	0.0000000E+000	-7.5591797E+001	0.0000000E+000	0.0000000E+000	0.0000000E+000	-1.4408204E+001	0.0000000E+000	0.0000000E+000	0.0000000E+000	1.4408204E+001	3.8924289E+000	7.5591797E+001	-1.275630714746916E-006	1.3003631E-006	5.4625000E+004
6.8110674E+003	1.8814390E+000	5.1859385E-001	1.9516025E+000	-1.5410167E+001	5.006512504449347E+000	2.6638559E-001	-5.7326626E-002	4.5058586E+001	3.1816294E+000	1.000000000000000E+000	9	4.8638256E-003	2.4922215E-003	0	-1.000990147382213E-005	4.9397779E-001	1.3615847E-001	5.1239944E-001	1.5410167E+001	3.1816289E+003	1.1542832E+004	1.1973293E+004	-7.4589836E+001	0.0000000E+000	0.0000000E+000	0.0000000E+000	7.4589836E+001	0.0000000E+000	0.0000000E+000	0.0000000E+000	-7.4589836E+001	0.0000000E+000	0.0000000E+000	0.0000000E+000	-1.5410167E+001	0.0000000E+000	0.0000000E+000	0.0000000E+000	1.5410167E+001	3.6279624E+000	7.4589836E+001	-6.582678682293286E-006	-1.5270987E-005	4.6468037E+003
4.6414854E+003	1.9890957E+000	5.9469503E-001	2.0760934E+000	-1.6645485E+001	5.476710606817505E+000	2.6651773E-001	3.8033031E-002	5.7659229E+001	4.7311168E+000	1.000000000000000E+000	9	4.7768815E-003	2.3008992E-003	0	-7.821673819704706E-006	4.6148959E-001	1.3797504E-001	4.8167390E-001	1.6645485E+001	4.7311167E+003	1.5824320E+004	1.6516434E+004	-7.3354515E+001	0.0000000E+000	0.0000000E+000	0.0000000E+000	7.3354515E+001	0.0000000E+000	0.0000000E+000	0.0000000E+000	-7.3354515E+001	0.0000000E+000	0.0000000E+000	0.0000000E+000	-1.6645485E+001	0.0000000E+000	0.0000000E+000	0.0000000E+000	1.6645485E+001	3.3447323E+000	7.3354515E+001	2.188227654117427E-006	1.0136477E-005	7.0075332E+003
3.1610117E+003	2.1021402E+000	6.8660027E-001	2.2114279E+000	-1.8088053E+001	5.943667562329210E+000	2.6652297E-001	3.5925936E-002	7.3331413E+001	7.0689092E+000	1.000000000000000E+000	9	4.7161751E-003	2.1326379E-003	0	-4.980108377756551E-006	4.2984918E-001	1.4039716E-001	4.5219651E-001	1.8088053E+001	7.0689087E+003	2.1642637E+004	2.2767811E+004	-7.1911949E+001	0.0000000E+000	0.0000000E+000	0.0000000E+000	7.1911949E+001	0.0000000E+000	0.0000000E+000	0.0000000E+000	-7.1911949E+001	0.0000000E+000	0.0000000E+000	0.0000000E+000	-1.8088053E+001	0.0000000E+000	0.0000000E+000	0.0000000E+000	1.8088053E+001	3.0616653E+000	7.1911949E+001	2.841565441948155E-006	9.5750875E-006	7.4186787E+003
2.1556899E+003	2.2350087E+000	8.1409055E-001	2.3786566E+000	-2.0013895E+001	6.410707504517632E+000	2.6653191E-001	3.9860401E-002	9.0690361E+001	1.0622899E+001	1.000000000000000E+000	9	4.6753995E-003	1.9655630E-003	0	5.569476024377056E-008	3.9501694E-001	1.4388290E-001	4.2040536E-001	2.0013895E+001	1.0622897E+004	2.9164166E+004	3.1038598E+004	-6.9986107E+001	0.0000000E+000	0.0000000E+000	0.0000000E+000	6.9986107E+001	0.0000000E+000	0.0000000E+000	0.0000000E+000	-6.9986107E+001	0.0000000E+000	0.0000000E+000	0.0000000E+000	-2.0013895E+001	0.0000000E+000	0.0000000E+000	0.0000000E+000	2.0013895E+001	2.7454054E+000	6.9986107E+001	5.035803138000321E-006	1.0624069E-005	6.6866338E+003
1.4685898E+003	2.3937712E+000	9.8060632E-001	2.5868378E+000	-2.2276417E+001	6.877955420030048E+000	2.6652819E-001	4.2937111E-002	1.1051594E+002	1.5880930E+001	1.000000000000000E+000	9	4.6473686E-003	1.7965443E-003	0	5.174926392856933E-006	3.5772085E-001	1.4654003E-001	3.8657236E-001	2.2276417E+001	1.5880928E+004	3.8767152E+004	4.1893867E+004	-6.7723587E+001	0.0000000E+000	0.0000000E+000	0.0000000E+000	6.7723587E+001	0.0000000E+000	0.0000000E+000	0.0000000E+000	-6.7723587E+001	0.0000000E+000	0.0000000E+000	0.0000000E+000	-2.2276417E+001	0.0000000E+000	0.0000000E+000	0.0000000E+000	2.2276417E+001	2.4411132E+000	6.7723587E+001	5.119231632613163E-006	1.1443951E-005	6.2074087E+003
1.0003202E+003	2.5717151E+000	1.2063694E+000	2.8406067E+000	-2.5130869E+001	7.346700322304969E+000	2.6653546E-001	3.6578551E-002	1.3188663E+002	2.3786974E+001	1.000000000000000E+000	9	4.6288772E-003	1.6295383E-003	0	8.344370122753188E-006	3.1871364E-001	1.4950582E-001	3.5203746E-001	2.5130869E+001	2.3786973E+004	5.0708617E+004	5.6010570E+004	-6.4869133E+001	0.0000000E+000	0.0000000E+000	0.0000000E+000	6.4869133E+001	0.0000000E+000	0.0000000E+000	0.0000000E+000	-6.4869133E+001	0.0000000E+000	0.0000000E+000	0.0000000E+000	-2.5130869E+001	0.0000000E+000	0.0000000E+000	0.0000000E+000	2.5130869E+001	2.1317809E+000	6.4869133E+001	3.169443729896254E-006	9.7494813E-006	7.2866602E+003
6.8108978E+002	2.7878599E+000	1.5017265E+000	3.1665983E+000	-2.8309856E+001	8.066429529775633E+000	2.6651525E-001	-2.7564511E-002	1.5560550E+002	3.4996181E+001	1.000000000000000E+000	10	4.6907752E-003	1.4813294E-003	0	7.916774556305933E-006	2.7802572E-001	1.4976312E-001	3.1579629E-001	2.8309856E+001	3.4996184E+004	6.4968188E+004	7.3794297E+004	-6.1690144E+001	0.0000000E+000	0.0000000E+000	0.0000000E+000	6.1690144E+001	0.0000000E+000	0.0000000E+000	0.0000000E+000	-6.1690144E+001	0.0000000E+000	0.0000000E+000	0.0000000E+000	-2.8309856E+001	0.0000000E+000	0.0000000E+000	0.0000000E+000	2.8309856E+001	1.8564365E+000	6.1690140E+001	-4.275955664472547E-007	-7.3463625E-006	9.6687822E+003
4.6396069E+002	3.0920305E+000	1.8870118E+000	3.6223564E+000	-3.1394981E+001	8.535183978703571E+000	2.6653028E-001	-2.6628558E-002	1.8178763E+002	4.9332279E+001	1.000000000000000E+000	10	4.6533858E-003	1.2846295E-003	0	5.005273894038207E-006	2.3564672E-001	1.4381105E-001	2.7606338E-001	3.1394981E+001	4.9332285E+004	8.0835172E+004	9.4699523E+004	-5.8605019E+001	0.0000000E+000	0.0000000E+000	0.0000000E+000	5.8605019E+001	0.0000000E+000	0.0000000E+000	0.0000000E+000	-5.8605019E+001	0.0000000E+000	0.0000000E+000	0.0000000E+000	-3.1394981E+001	0.0000000E+000	0.0000000E+000	0.0000000E+000	3.1394981E+001	1.6385857E+000	5.8605019E+001	-2.911500662267726E-006	-7.0973169E-006	1.0009189E+004
3.1631589E+002	3.5148818E+000	2.3669248E+000	4.2375379E+000	-3.3956364E+001	9.001933147577802E+000	2.6651499E-001	-2.6639748E-002	2.1257622E+002	6.6321815E+001	1.000000000000000E+000	10	4.6264771E-003	1.0917842E-003	0	1.453762329312869E-006	1.9574179E-001	1.3181271E-001	2.3598610E-001	3.3956364E+001	6.6321813E+004	9.8487844E+004	1.1873684E+005	-5.6043636E+001	0.0000000E+000	0.0000000E+000	0.0000000E+000	5.6043636E+001	0.0000000E+000	0.0000000E+000	0.0000000E+000	-5.6043636E+001	0.0000000E+000	0.0000000E+000	0.0000000E+000	-3.3956364E+001	0.0000000E+000	0.0000000E+000	0.0000000E+000	3.3956364E+001	1.4849994E+000	5.6043640E+001	-3.551511564725338E-006	-7.0998922E-006	1.0004411E+004
2.1534457E+002	4.1173730E+000	2.9372852E+000	5.0577073E+000	-3.5503613E+001	9.469456609775079E+000	2.6652673E-001	-2.5631091E-002	2.5161705E+002	8.4864281E+001	1.000000000000000E+000	10	4.6154717E-003	9.1256201E-004	0	-2.662073903975801E-006	1.6095808E-001	1.1482560E-001	1.9771804E-001	3.5503613E+001	8.4864281E+004	1.1895947E+005	1.4612769E+005	-5.4496387E+001	0.0000000E+000	0.0000000E+000	0.0000000E+000	5.4496387E+001	0.0000000E+000	0.0000000E+000	0.0000000E+000	-5.4496387E+001	0.0000000E+000	0.0000000E+000	0.0000000E+000	-3.5503613E+001	0.0000000E+000	0.0000000E+000	0.0000000E+000	3.5503613E+001	1.4017614E+000	5.4496384E+001	-4.115836233288671E-006	-6.8313707E-006	1.0398571E+004
1.4673740E+002	4.9333444E+000	3.5452905E+000	6.0751109E+000	-3.5702473E+001	9.932390738424147E+000	2.6650196E-001	-2.7172996E-002	3.0593381E+002	1.0418920E+002	1.000000000000000E+000	10	4.5998450E-003	7.5716234E-004	0	-5.650745215722256E-006	1.3366972E-001	9.6060179E-002	1.6460605E-001	3.5702473E+001	1.0418920E+005	1.4498142E+005	1.7853572E+005	-5.4297527E+001	0.0000000E+000	0.0000000E+000	0.0000000E+000	5.4297527E+001	0.0000000E+000	0.0000000E+000	0.0000000E+000	-5.4297527E+001	0.0000000E+000	0.0000000E+000	0.0000000E+000	-3.5702473E+001	0.0000000E+000	0.0000000E+000	0.0000000E+000	3.5702473E+001	1.3915205E+000	5.4297531E+001	-2.988671311746455E-006	-7.2416569E-006	9.8076035E+003
1.0003201E+002	6.0037913E+000	4.0989027E+000	7.2695608E+000	-3.4322098E+001	1.040067564069614E+001	2.6649863E-001	-2.6477559E-002	3.8816248E+002	1.2340490E+002	1.000000000000000E+000	10	4.5935800E-003	6.3189236E-004	0	-8.437074589940797E-006	1.1360808E-001	7.7562407E-002	1.3755989E-001	3.4322098E+001	1.2340490E+005	1.8075503E+005	2.1886331E+005	-5.5677902E+001	0.0000000E+000	0.0000000E+000	0.0000000E+000	5.5677902E+001	0.0000000E+000	0.0000000E+000	0.0000000E+000	-5.5677902E+001	0.0000000E+000	0.0000000E+000	0.0000000E+000	-3.4322098E+001	0.0000000E+000	0.0000000E+000	0.0000000E+000	3.4322098E+001	1.4647313E+000	5.5677902E+001	-2.786329374218541E-006	-7.0562328E-006	1.0065075E+004
6.8103981E+001	7.3314552E+000	4.5070496E+000	8.6060286E+000	-3.1581333E+001	1.087931979671703E+001	2.6649725E-001	-2.4734313E-002	5.1850781E+002	1.4221140E+002	1.000000000000000E+000	10	4.5906645E-003	5.3342426E-004	0	-1.123914621811673E-005	9.8988473E-002	6.0853668E-002	1.1619762E-001	3.1581333E+001	1.4221139E+005	2.3133016E+005	2.7154691E+005	-5.8418667E+001	0.0000000E+000	0.0000000E+000	0.0000000E+000	5.8418667E+001	0.0000000E+000	0.0000000E+000	0.0000000E+000	-5.8418667E+001	0.0000000E+000	0.0000000E+000	0.0000000E+000	-3.1581333E+001	0.0000000E+000	0.0000000E+000	0.0000000E+000	3.1581333E+001	1.6266640E+000	5.8418671E+001	-2.802071628175933E-006	-6.5916265E-006	1.0774395E+004
4.6441547E+001	8.8079281E+000	4.5895796E+000	9.9319601E+000	-2.7522837E+001	1.133454677832196E+001	2.6649949E-001	-2.7750978E-002	7.4669043E+002	1.5944702E+002	1.000000000000000E+000	10	4.5839748E-003	4.6153777E-004	0	-1.450448876772943E-005	8.9290202E-002	4.6526778E-002	1.0068506E-001	2.7522837E+001	1.5944703E+005	3.0599706E+005	3.4504719E+005	-6.2477165E+001	0.0000000E+000	0.0000000E+000	0.0000000E+000	6.2477165E+001	0.0000000E+000	0.0000000E+000	0.0000000E+000	-6.2477165E+001	0.0000000E+000	0.0000000E+000	0.0000000E+000	-2.7522837E+001	0.0000000E+000	0.0000000E+000	0.0000000E+000	2.7522837E+001	1.9191144E+000	6.2477165E+001	-3.265342549612695E-006	-7.3956217E-006	9.6032471E+003
3.1629555E+001	1.0269949E+001	4.3506227E+000	1.1153464E+001	-2.2958803E+001	1.178143719953368E+001	2.6650900E-001	-2.7728606E-002	1.1565798E+003	1.7597821E+002	1.000000000000000E+000	10	4.5863856E-003	4.1120726E-004	0	-1.787934858251376E-005	8.2556017E-002	3.4972917E-002	8.9658245E-002	2.2958803E+001	1.7597820E+005	4.1540891E+005	4.5114619E+005	-6.7041199E+001	0.0000000E+000	0.0000000E+000	0.0000000E+000	6.7041199E+001	0.0000000E+000	0.0000000E+000	0.0000000E+000	-6.7041199E+001	0.0000000E+000	0.0000000E+000	0.0000000E+000	-2.2958803E+001	0.0000000E+000	0.0000000E+000	0.0000000E+000	2.2958803E+001	2.3605700E+000	6.7041199E+001	-3.374859814784336E-006	-7.3899228E-006	9.6113379E+003
2.1551722E+001	1.1510987E+001	3.8156676E+000	1.2126918E+001	-1.8339352E+001	1.222032154040062E+001	2.6649827E-001	-2.9729150E-002	1.9353861E+003	1.9160542E+002	1.000000000000000E+000	10	4.5824717E-003	3.7787604E-004	0	-2.198755598660339E-005	7.8272946E-002	2.5945956E-002	8.2461186E-002	1.8339352E+001	1.9160548E+005	5.7802931E+005	6.0895856E+005	-7.1660645E+001	0.0000000E+000	0.0000000E+000	0.0000000E+000	7.1660645E+001	0.0000000E+000	0.0000000E+000	0.0000000E+000	-7.1660645E+001	0.0000000E+000	0.0000000E+000	0.0000000E+000	-1.8339352E+001	0.0000000E+000	0.0000000E+000	0.0000000E+000	1.8339352E+001	3.0167689E+000	7.1660645E+001	-4.108207404089625E-006	-7.9227666E-006	8.9642070E+003
1.4685154E+001	1.2443522E+001	3.1958396E+000	1.2847360E+001	-1.4403828E+001	1.269906838983297E+001	2.6651275E-001	-2.3734976E-002	3.3912253E+003	2.0984509E+002	1.000000000000000E+000	10	4.5838300E-003	3.5679160E-004	0	-2.442704395868350E-005	7.5390317E-002	1.9362312E-002	7.7837005E-002	1.4403828E+001	2.0984506E+005	8.1706619E+005	8.4358288E+005	-7.5596176E+001	0.0000000E+000	0.0000000E+000	0.0000000E+000	7.5596176E+001	0.0000000E+000	0.0000000E+000	0.0000000E+000	-7.5596176E+001	0.0000000E+000	0.0000000E+000	0.0000000E+000	-1.4403828E+001	0.0000000E+000	0.0000000E+000	0.0000000E+000	1.4403828E+001	3.8936629E+000	7.5596176E+001	-2.439487972080110E-006	-6.3256734E-006	1.1228693E+004
