EC-Lab ASCII FILE
Nb header lines : 63                          

Potentio Electrochemical Impedance Spectroscopy

Run on channel : 2 (SN 66139)
User : 
CE vs. WE compliance from -10 V to 10 V
Electrode connection : standard
Potential control : Ewe
Ewe ctrl range : min = -10.00 V, max = 10.00 V
Safety Limits :
	Do not start on E overload
Acquisition started on : 09/15/2025 10:08:12.107
Loaded Setting File :  C:\Users\Celltest\OneDrive - store-dot.com\Documents\EC-Lab\Data\Charmaine\R279\17382_C01.mpr
Saved on :
	File : 17491_C02.mpr
	Directory : C:\Users\Celltest\OneDrive - store-dot.com\Documents\EC-Lab\Data\Charmaine\R279\
	Host : 169.254.61.224
Device : VMP-3e (SN .003165)
Address : USB
EC-LAB for windows v11.62 (software)
Internet server v27.00 (firmware)
Command interpretor v12.03 (firmware)
Electrode material : 
Initial state : 
Electrolyte : 
Comments : 
Electrode surface area : 0.001 cm²
Characteristic mass : 0.001 g
Equivalent Weight : 0.000 g/eq.
Density : 0.000 g/cm3
Volume (V) : 0.001 cm³
Cycle Definition : Charge/Discharge alternance
Mode                Single sine         
E (V)               0.0000              
vs.                 Eoc                 
tE (h:m:s)          0:00:0.0000         
record              0                   
dI                  0.000               
unit dI             mA                  
dt (s)              0.000               
fi                  100.000             
unit fi             kHz                 
ff                  10.000              
unit ff             mHz                 
Nd                  6                   
Points              per decade          
spacing             Logarithmic         
Va (mV)             5.0                 
pw                  0.10                
Na                  2                   
corr                0                   
E range min (V)     -10.000             
E range max (V)     10.000              
I Range             Auto                
Bandwidth           5                   
nc cycles           0                   
goto Ns'            0                   
nr cycles           0                   
inc. cycle          0                   

freq/Hz	Re(Z)/Ohm	-Im(Z)/Ohm	|Z|/Ohm	Phase(Z)/deg	time/s	<Ewe>/V	<I>/mA	Cs/µF	Cp/µF	cycle number	I Range	|Ewe|/V	|I|/A	Ns	(Q-Qo)/mA.h	Re(Y)/Ohm-1	Im(Y)/Ohm-1	|Y|/Ohm-1	Phase(Y)/deg	Re(C)/nF	Im(C)/nF	|C|/nF	Phase(C)/deg	Re(M)	Im(M)	|M|	Phase(M)/deg	Re(Permittivity)	Im(Permittivity)	|Permittivity|	Phase(Permittivity)/deg	Re(Resistivity)/Ohm.cm	Im(Resistivity)/Ohm.cm	|Resistivity|/Ohm.cm	Phase(Resistivity)/deg	Re(Conductivity)/mS/cm	Im(Conductivity)/mS/cm	|Conductivity|/mS/cm	Phase(Conductivity)/deg	Tan(Delta)	Loss Angle(Delta)/deg	dq/mA.h	Pwe/W	Rwe/Ohm	
1.0000371E+005	1.0107940E+000	2.3247081E-001	1.0371823E+000	-1.2952128E+001	1.864487475220812E+000	2.6482183E-001	2.9261594E-003	6.8459787E+000	3.4392378E-001	1.000000000000000E+000	9	4.8135086E-003	4.6409476E-003	0	-7.822780051883051E-006	9.3962038E-001	2.1610171E-001	9.6415061E-001	1.2952128E+001	3.4392374E+002	1.4953969E+003	1.5344365E+003	-7.7047874E+001	0.0000000E+000	0.0000000E+000	0.0000000E+000	7.7047874E+001	0.0000000E+000	0.0000000E+000	0.0000000E+000	-7.7047874E+001	0.0000000E+000	0.0000000E+000	0.0000000E+000	-1.2952128E+001	0.0000000E+000	0.0000000E+000	0.0000000E+000	1.2952128E+001	4.3480473E+000	7.7047874E+001	-7.822780051883051E-006	7.7491086E-007	9.0501500E+004
6.8132047E+004	1.0691121E+000	2.5972840E-001	1.1002089E+000	-1.3654817E+001	2.442479982652003E+000	2.6480940E-001	3.3917257E-003	8.9939241E+000	5.0123090E-001	1.000000000000000E+000	9	5.0428058E-003	4.5834985E-003	0	-6.617848829107566E-006	8.8322830E-001	2.1457009E-001	9.0891832E-001	1.3654817E+001	5.0123090E+002	2.0632014E+003	2.1232129E+003	-7.6345184E+001	0.0000000E+000	0.0000000E+000	0.0000000E+000	7.6345184E+001	0.0000000E+000	0.0000000E+000	0.0000000E+000	-7.6345184E+001	0.0000000E+000	0.0000000E+000	0.0000000E+000	-1.3654817E+001	0.0000000E+000	0.0000000E+000	0.0000000E+000	1.3654817E+001	4.1162696E+000	7.6345184E+001	1.204931222775485E-006	8.9816086E-007	7.8075125E+004
4.6420355E+004	1.1304338E+000	2.9201749E-001	1.1675422E+000	-1.4484200E+001	3.020482783409534E+000	2.6480544E-001	5.2726334E-003	1.1740939E+001	7.3447222E-001	1.000000000000000E+000	9	5.0528054E-003	4.3277284E-003	0	-1.543638156552333E-005	8.2927763E-001	2.1422182E-001	8.5650009E-001	1.4484200E+001	7.3447223E+002	2.8432278E+003	2.9365615E+003	-7.5515800E+001	0.0000000E+000	0.0000000E+000	0.0000000E+000	7.5515800E+001	0.0000000E+000	0.0000000E+000	0.0000000E+000	-7.5515800E+001	0.0000000E+000	0.0000000E+000	0.0000000E+000	-1.4484200E+001	0.0000000E+000	0.0000000E+000	0.0000000E+000	1.4484200E+001	3.8711169E+000	7.5515800E+001	-8.818532736415768E-006	1.3962219E-006	5.0222613E+004
3.1621139E+004	1.2017747E+000	3.3129671E-001	1.2466034E+000	-1.5412088E+001	3.598484784219181E+000	2.6479951E-001	-1.3012849E-003	1.5192369E+001	1.0730085E+000	1.000000000000000E+000	9	5.1122219E-003	4.1009211E-003	0	-2.178738188794038E-005	7.7333283E-001	2.1318690E-001	8.0217975E-001	1.5412088E+001	1.0730083E+003	3.8923250E+003	4.0375166E+003	-7.4587914E+001	0.0000000E+000	0.0000000E+000	0.0000000E+000	7.4587914E+001	0.0000000E+000	0.0000000E+000	0.0000000E+000	-7.4587914E+001	0.0000000E+000	0.0000000E+000	0.0000000E+000	-1.5412088E+001	0.0000000E+000	0.0000000E+000	0.0000000E+000	1.5412088E+001	3.6274877E+000	7.4587914E+001	-6.351000322417044E-006	-3.4457960E-007	2.0349080E+005
2.1544684E+004	1.2815819E+000	3.7702024E-001	1.3358879E+000	-1.6393013E+001	4.036498218338238E+000	2.6480195E-001	-2.1579470E-003	1.9593651E+001	1.5606469E+000	1.000000000000000E+000	9	5.4320171E-003	4.0662223E-003	0	-1.854212850373652E-005	7.1813542E-001	2.1126358E-001	7.4856579E-001	1.6393013E+001	1.5606469E+003	5.3050117E+003	5.5298071E+003	-7.3606987E+001	0.0000000E+000	0.0000000E+000	0.0000000E+000	7.3606987E+001	0.0000000E+000	0.0000000E+000	0.0000000E+000	-7.3606987E+001	0.0000000E+000	0.0000000E+000	0.0000000E+000	-1.6393013E+001	0.0000000E+000	0.0000000E+000	0.0000000E+000	1.6393013E+001	3.3992388E+000	7.3606987E+001	3.245253384203858E-006	-5.7142859E-007	1.2271013E+005
1.4678594E+004	1.3679019E+000	4.2660502E-001	1.4328809E+000	-1.7321035E+001	4.332497619063361E+000	2.6480490E-001	3.1889256E-004	2.5416147E+001	2.2528975E+000	1.000000000000000E+000	9	4.7614444E-003	3.3229869E-003	0	-2.130830868944112E-005	6.6624624E-001	2.0778096E-001	6.9789469E-001	1.7321035E+001	2.2528977E+003	7.2238789E+003	7.5670322E+003	-7.2678963E+001	0.0000000E+000	0.0000000E+000	0.0000000E+000	7.2678963E+001	0.0000000E+000	0.0000000E+000	0.0000000E+000	-7.2678963E+001	0.0000000E+000	0.0000000E+000	0.0000000E+000	-1.7321035E+001	0.0000000E+000	0.0000000E+000	0.0000000E+000	1.7321035E+001	3.2064834E+000	7.2678963E+001	-2.766180185704597E-006	8.4444316E-008	8.3038906E+005
1.0002226E+004	1.4629158E+000	4.8136139E-001	1.5400751E+000	-1.8213402E+001	4.769487373152515E+000	2.6479876E-001	5.4236443E-004	3.3056149E+001	3.2293191E+000	1.000000000000000E+000	9	4.9987393E-003	3.2457765E-003	0	-2.027705086428776E-005	6.1678743E-001	2.0294927E-001	6.4931899E-001	1.8213402E+001	3.2293193E+003	9.8142930E+003	1.0331934E+004	-7.1786598E+001	0.0000000E+000	0.0000000E+000	0.0000000E+000	7.1786598E+001	0.0000000E+000	0.0000000E+000	0.0000000E+000	-7.1786598E+001	0.0000000E+000	0.0000000E+000	0.0000000E+000	-1.8213402E+001	0.0000000E+000	0.0000000E+000	0.0000000E+000	1.8213402E+001	3.0391216E+000	7.1786598E+001	1.031257825153362E-006	1.4361743E-007	4.8823031E+005
6.8110674E+003	1.5765284E+000	5.4790574E-001	1.6690245E+000	-1.9164352E+001	5.148501657851739E+000	2.6461047E-001	-1.3998647E-001	4.2648041E+001	4.5960569E+000	1.000000000000000E+000	9	4.6576569E-003	2.7906462E-003	0	-3.024650334951002E-005	5.6594783E-001	1.9668916E-001	5.9915239E-001	1.9164352E+001	4.5960566E+003	1.3224563E+004	1.4000458E+004	-7.0835648E+001	0.0000000E+000	0.0000000E+000	0.0000000E+000	7.0835648E+001	0.0000000E+000	0.0000000E+000	0.0000000E+000	-7.0835648E+001	0.0000000E+000	0.0000000E+000	0.0000000E+000	-1.9164352E+001	0.0000000E+000	0.0000000E+000	0.0000000E+000	1.9164352E+001	2.8773715E+000	7.0835648E+001	-9.969452485222263E-006	-3.7041886E-005	1.8902574E+003
4.6414854E+003	1.6910377E+000	6.2867713E-001	1.8041184E+000	-2.0393627E+001	5.842696384199371E+000	2.6476282E-001	1.4993773E-002	5.4542557E+001	6.6230912E+000	1.000000000000000E+000	9	4.8756199E-003	2.7024944E-003	0	-2.761870786878798E-005	5.1954508E-001	1.9315130E-001	5.5428737E-001	2.0393627E+001	6.6230923E+003	1.7815020E+004	1.9006322E+004	-6.9606369E+001	0.0000000E+000	0.0000000E+000	0.0000000E+000	6.9606369E+001	0.0000000E+000	0.0000000E+000	0.0000000E+000	-6.9606369E+001	0.0000000E+000	0.0000000E+000	0.0000000E+000	-2.0393627E+001	0.0000000E+000	0.0000000E+000	0.0000000E+000	2.0393627E+001	2.6898348E+000	6.9606369E+001	2.627795480722042E-006	3.9697934E-006	1.7658186E+004
3.1610117E+003	1.8259274E+000	7.2670829E-001	1.9652267E+000	-2.1702261E+001	6.309709233049944E+000	2.6476231E-001	1.3578421E-002	6.9284149E+001	9.4739008E+000	1.000000000000000E+000	9	4.7883699E-003	2.4365485E-003	0	-2.661639846515350E-005	4.7277907E-001	1.8816325E-001	5.0884718E-001	2.1702261E+001	9.4739014E+003	2.3804125E+004	2.5620133E+004	-6.8297737E+001	0.0000000E+000	0.0000000E+000	0.0000000E+000	6.8297737E+001	0.0000000E+000	0.0000000E+000	0.0000000E+000	-6.8297737E+001	0.0000000E+000	0.0000000E+000	0.0000000E+000	-2.1702261E+001	0.0000000E+000	0.0000000E+000	0.0000000E+000	2.1702261E+001	2.5126002E+000	6.8297737E+001	1.002309403634476E-006	3.5950541E-006	1.9498756E+004
2.1556899E+003	1.9628894E+000	8.5226655E-001	2.1399283E+000	-2.3469994E+001	6.776703815230576E+000	2.6475757E-001	1.5999394E-002	8.6628021E+001	1.3740762E+001	1.000000000000000E+000	9	4.7421902E-003	2.2160509E-003	0	-2.547969771687510E-005	4.2864463E-001	1.8611312E-001	4.6730536E-001	2.3469994E+001	1.3740762E+004	3.1646902E+004	3.4501230E+004	-6.6530006E+001	0.0000000E+000	0.0000000E+000	0.0000000E+000	6.6530006E+001	0.0000000E+000	0.0000000E+000	0.0000000E+000	-6.6530006E+001	0.0000000E+000	0.0000000E+000	0.0000000E+000	-2.3469994E+001	0.0000000E+000	0.0000000E+000	0.0000000E+000	2.3469994E+001	2.3031404E+000	6.6530006E+001	1.136700748278398E-006	4.2359607E-006	1.6547975E+004
1.4685898E+003	2.1124570E+000	1.0177383E+000	2.3448381E+000	-2.5723810E+001	7.243954504083376E+000	2.6476368E-001	1.9016296E-002	1.0648379E+002	2.0059958E+001	1.000000000000000E+000	9	4.7073965E-003	2.0075571E-003	0	-2.203383183342198E-005	3.8420424E-001	1.8510169E-001	4.2646867E-001	2.5723810E+001	2.0059957E+004	4.1637227E+004	4.6217535E+004	-6.4276192E+001	0.0000000E+000	0.0000000E+000	0.0000000E+000	6.4276192E+001	0.0000000E+000	0.0000000E+000	0.0000000E+000	-6.4276192E+001	0.0000000E+000	0.0000000E+000	0.0000000E+000	-2.5723810E+001	0.0000000E+000	0.0000000E+000	0.0000000E+000	2.5723810E+001	2.0756385E+000	6.4276192E+001	3.445865883453126E-006	5.0348244E-006	1.3922989E+004
1.0003202E+003	2.3011739E+000	1.2454617E+000	2.6165962E+000	-2.8423531E+001	7.712700686359312E+000	2.6476264E-001	1.2926591E-002	1.2774701E+002	2.8942633E+001	1.000000000000000E+000	9	4.6964944E-003	1.7948869E-003	0	-2.218502149988328E-005	3.3610579E-001	1.8191016E-001	3.8217589E-001	2.8423531E+001	2.8942635E+004	5.3475777E+004	6.0805715E+004	-6.1576469E+001	0.0000000E+000	0.0000000E+000	0.0000000E+000	6.1576469E+001	0.0000000E+000	0.0000000E+000	0.0000000E+000	-6.1576469E+001	0.0000000E+000	0.0000000E+000	0.0000000E+000	-2.8423531E+001	0.0000000E+000	0.0000000E+000	0.0000000E+000	2.8423531E+001	1.8476473E+000	6.1576469E+001	-1.511896664613008E-007	3.4224784E-006	2.0482016E+004
6.8108978E+002	2.5166173E+000	1.5475805E+000	2.9543812E+000	-3.1589214E+001	8.178435455105500E+000	2.6476619E-001	1.5552428E-002	1.5099500E+002	4.1432007E+001	1.000000000000000E+000	9	4.6838196E-003	1.5853809E-003	0	-2.124242939268394E-005	2.8832620E-001	1.7730466E-001	3.3848035E-001	3.1589214E+001	4.1432004E+004	6.7375172E+004	7.9095039E+004	-5.8410786E+001	0.0000000E+000	0.0000000E+000	0.0000000E+000	5.8410786E+001	0.0000000E+000	0.0000000E+000	0.0000000E+000	-5.8410786E+001	0.0000000E+000	0.0000000E+000	0.0000000E+000	-3.1589214E+001	0.0000000E+000	0.0000000E+000	0.0000000E+000	3.1589214E+001	1.6261625E+000	5.8410782E+001	9.425921071993394E-007	4.1177568E-006	1.7024107E+004
4.6396069E+002	2.8040709E+000	1.9559070E+000	3.4188282E+000	-3.4896702E+001	8.901220609404845E+000	2.6477247E-001	-2.8998701E-002	1.7538431E+002	5.7402733E+001	1.000000000000000E+000	10	4.7455211E-003	1.3880548E-003	0	-2.320561868434177E-005	2.3990232E-001	1.6733764E-001	2.9249787E-001	3.4896702E+001	5.7402738E+004	8.2294992E+004	1.0033713E+005	-5.5103298E+001	0.0000000E+000	0.0000000E+000	0.0000000E+000	5.5103298E+001	0.0000000E+000	0.0000000E+000	0.0000000E+000	-5.5103298E+001	0.0000000E+000	0.0000000E+000	0.0000000E+000	-3.4896702E+001	0.0000000E+000	0.0000000E+000	0.0000000E+000	3.4896702E+001	1.4336423E+000	5.5103302E+001	-1.963189291657830E-006	-7.6780580E-006	9.1304941E+003
3.1631589E+002	3.2031734E+000	2.4796906E+000	4.0508251E+000	-3.7744728E+001	9.367930204956792E+000	2.6477560E-001	-2.9278101E-002	2.0290916E+002	7.6034317E+001	1.000000000000000E+000	10	4.7159572E-003	1.1641966E-003	0	-2.750384322531560E-005	1.9520614E-001	1.5111601E-001	2.4686329E-001	3.7744728E+001	7.6034313E+004	9.8218336E+004	1.2420973E+005	-5.2255272E+001	0.0000000E+000	0.0000000E+000	0.0000000E+000	5.2255272E+001	0.0000000E+000	0.0000000E+000	0.0000000E+000	-5.2255272E+001	0.0000000E+000	0.0000000E+000	0.0000000E+000	-3.7744728E+001	0.0000000E+000	0.0000000E+000	0.0000000E+000	3.7744728E+001	1.2917633E+000	5.2255272E+001	-4.298224540973832E-006	-7.7521272E-006	9.0434688E+003
2.1534457E+002	3.7688189E+000	3.1405141E+000	4.9057951E+000	-3.9804062E+001	9.835428920487175E+000	2.6477507E-001	-2.8132599E-002	2.3533443E+002	9.6442436E+001	1.000000000000000E+000	10	4.6967790E-003	9.5739402E-004	0	-3.087015514517487E-005	1.5659809E-001	1.3049142E-001	2.0384055E-001	3.9804062E+001	9.6442430E+004	1.1573712E+005	1.5065266E+005	-5.0195938E+001	0.0000000E+000	0.0000000E+000	0.0000000E+000	5.0195938E+001	0.0000000E+000	0.0000000E+000	0.0000000E+000	-5.0195938E+001	0.0000000E+000	0.0000000E+000	0.0000000E+000	-3.9804062E+001	0.0000000E+000	0.0000000E+000	0.0000000E+000	3.9804062E+001	1.2000643E+000	5.0195938E+001	-3.366311919859270E-006	-7.4488107E-006	9.4116816E+003
1.4673740E+002	4.5639534E+000	3.8913648E+000	5.9976988E+000	-4.0451916E+001	1.029836243580212E+001	2.6477417E-001	-2.8553557E-002	2.7872592E+002	1.1733078E+002	1.000000000000000E+000	10	4.6825535E-003	7.8072504E-004	0	-3.411099411533279E-005	1.2687378E-001	1.0817643E-001	1.6673061E-001	4.0451916E+001	1.1733078E+005	1.3761038E+005	1.8084006E+005	-4.9548084E+001	0.0000000E+000	0.0000000E+000	0.0000000E+000	4.9548084E+001	0.0000000E+000	0.0000000E+000	0.0000000E+000	-4.9548084E+001	0.0000000E+000	0.0000000E+000	0.0000000E+000	-4.0451916E+001	0.0000000E+000	0.0000000E+000	0.0000000E+000	4.0451916E+001	1.1728413E+000	4.9548080E+001	-3.240838970157916E-006	-7.5602443E-006	9.2728965E+003
1.0003201E+002	5.6712832E+000	4.6936884E+000	7.3616686E+000	-3.9611961E+001	1.076666565807682E+001	2.6477745E-001	-2.8417587E-002	3.3897440E+002	1.3779799E+002	1.000000000000000E+000	10	4.6806596E-003	6.3581503E-004	0	-3.729317383368551E-005	1.0464749E-001	8.6608738E-002	1.3583876E-001	3.9611961E+001	1.3779797E+005	1.6649834E+005	2.1612492E+005	-5.0388039E+001	0.0000000E+000	0.0000000E+000	0.0000000E+000	5.0388039E+001	0.0000000E+000	0.0000000E+000	0.0000000E+000	-5.0388039E+001	0.0000000E+000	0.0000000E+000	0.0000000E+000	-3.9611961E+001	0.0000000E+000	0.0000000E+000	0.0000000E+000	3.9611961E+001	1.2082787E+000	5.0388031E+001	-3.182179718352726E-006	-7.5243365E-006	9.3173799E+003
6.8103981E+001	7.1105695E+000	5.4117532E+000	8.9357300E+000	-3.7274246E+001	1.124532698743860E+001	2.6477665E-001	-2.5804350E-002	4.3182687E+002	1.5838919E+002	1.000000000000000E+000	10	4.6738060E-003	5.2304694E-004	0	-4.033844016383713E-005	8.9052133E-002	6.7776307E-002	1.1191028E-001	3.7274246E+001	1.5838920E+005	2.0810953E+005	2.6152766E+005	-5.2725754E+001	0.0000000E+000	0.0000000E+000	0.0000000E+000	5.2725754E+001	0.0000000E+000	0.0000000E+000	0.0000000E+000	-5.2725754E+001	0.0000000E+000	0.0000000E+000	0.0000000E+000	-3.7274246E+001	0.0000000E+000	0.0000000E+000	0.0000000E+000	3.7274246E+001	1.3139124E+000	5.2725754E+001	-3.045266330151613E-006	-6.8323893E-006	1.0260931E+004
4.6441547E+001	8.8750534E+000	5.8918991E+000	1.0652748E+001	-3.3579071E+001	1.170056122235837E+001	2.6476100E-001	-3.0557731E-002	5.8164520E+002	1.7792847E+002	1.000000000000000E+000	10	4.6672923E-003	4.3813034E-004	0	-4.363709508737601E-005	7.8207359E-002	5.1919676E-002	9.3872488E-002	3.3579071E+001	1.7792847E+005	2.6801622E+005	3.2170053E+005	-5.6420929E+001	0.0000000E+000	0.0000000E+000	0.0000000E+000	5.6420929E+001	0.0000000E+000	0.0000000E+000	0.0000000E+000	-5.6420929E+001	0.0000000E+000	0.0000000E+000	0.0000000E+000	-3.3579071E+001	0.0000000E+000	0.0000000E+000	0.0000000E+000	3.3579071E+001	1.5063145E+000	5.6420929E+001	-3.298654923538884E-006	-8.0904956E-006	8.6642881E+003
3.1629555E+001	1.0803988E+001	5.9526596E+000	1.2335327E+001	-2.8853394E+001	1.214745375027996E+001	2.6476505E-001	-3.2282509E-002	8.4531000E+002	1.9685060E+002	1.000000000000000E+000	10	4.6660532E-003	3.7826749E-004	0	-4.755327993773971E-005	7.1003981E-002	3.9120980E-002	8.1067972E-002	2.8853394E+001	1.9685061E+005	3.5728084E+005	4.0792128E+005	-6.1146606E+001	0.0000000E+000	0.0000000E+000	0.0000000E+000	6.1146606E+001	0.0000000E+000	0.0000000E+000	0.0000000E+000	-6.1146606E+001	0.0000000E+000	0.0000000E+000	0.0000000E+000	-2.8853394E+001	0.0000000E+000	0.0000000E+000	0.0000000E+000	2.8853394E+001	1.8149849E+000	6.1146606E+001	-3.916184850363702E-006	-8.5472802E-006	8.2015020E+003
2.1551722E+001	1.2688139E+001	5.5812302E+000	1.3861422E+001	-2.3743626E+001	1.258633950448711E+001	2.6476318E-001	-3.4025911E-002	1.3231473E+003	2.1451247E+002	1.000000000000000E+000	10	4.6665040E-003	3.3665408E-004	0	-5.031206710413345E-005	6.6036254E-002	2.9047877E-002	7.2142676E-002	2.3743626E+001	2.1451244E+005	4.8766384E+005	5.3275850E+005	-6.6256378E+001	0.0000000E+000	0.0000000E+000	0.0000000E+000	6.6256378E+001	0.0000000E+000	0.0000000E+000	0.0000000E+000	-6.6256378E+001	0.0000000E+000	0.0000000E+000	0.0000000E+000	-2.3743626E+001	0.0000000E+000	0.0000000E+000	0.0000000E+000	2.3743626E+001	2.2733588E+000	6.6256378E+001	-2.758787166393736E-006	-9.0088088E-006	7.7812222E+003
1.4685154E+001	1.4277260E+001	4.9171462E+000	1.5100281E+001	-1.9003916E+001	1.332302956614876E+001	2.6479313E-001	-1.6879342E-002	2.2040857E+003	2.3371397E+002	1.000000000000000E+000	11	4.6793302E-003	3.0988365E-004	0	-5.480854501036326E-005	6.2614486E-002	2.1564683E-002	6.6223934E-002	1.9003916E+001	2.3371397E+005	6.7860406E+005	7.1772256E+005	-7.0996086E+001	0.0000000E+000	0.0000000E+000	0.0000000E+000	7.0996086E+001	0.0000000E+000	0.0000000E+000	0.0000000E+000	-7.0996086E+001	0.0000000E+000	0.0000000E+000	0.0000000E+000	-1.9003916E+001	0.0000000E+000	0.0000000E+000	0.0000000E+000	1.9003916E+001	2.9035664E+000	7.0996086E+001	-4.496477906229807E-006	-4.4695339E-006	1.5687408E+004
