
EC-Lab ASCII FILE
Nb header lines : 63                          

Potentio Electrochemical Impedance Spectroscopy

Run on channel : 8 (SN 65398)
User : 
CE vs. WE compliance from -10 V to 10 V
Electrode connection : standard
Potential control : Ewe
Ewe ctrl range : min = -10.00 V, max = 10.00 V
Safety Limits :
	Do not start on E overload
Acquisition started on : 09/15/2025 10:08:35.287
Loaded Setting File :  C:\Users\Celltest\OneDrive - store-dot.com\Documents\EC-Lab\Data\Charmaine\R279\17382.mps
Saved on :
	File : 17490_C08.mpr
	Directory : C:\Users\Celltest\OneDrive - store-dot.com\Documents\EC-Lab\Data\Charmaine\R279\
	Host : 169.254.61.224
Device : VMP-3e (SN .003165)
Address : USB
EC-LAB for windows v11.62 (software)
Internet server v27.00 (firmware)
Command interpretor v12.03 (firmware)
Electrode material : 
Initial state : 
Electrolyte : 
Comments : 
Electrode surface area : 0.001 cm²
Characteristic mass : 0.001 g
Equivalent Weight : 0.000 g/eq.
Density : 0.000 g/cm3
Volume (V) : 0.001 cm³
Cycle Definition : Charge/Discharge alternance
Mode                Single sine         
E (V)               0.0000              
vs.                 Eoc                 
tE (h:m:s)          0:00:0.0000         
record              0                   
dI                  0.000               
unit dI             mA                  
dt (s)              0.000               
fi                  100.000             
unit fi             kHz                 
ff                  10.000              
unit ff             mHz                 
Nd                  6                   
Points              per decade          
spacing             Logarithmic         
Va (mV)             5.0                 
pw                  0.10                
Na                  2                   
corr                0                   
E range min (V)     -10.000             
E range max (V)     10.000              
I Range             Auto                
Bandwidth           5                   
nc cycles           0                   
goto Ns'            0                   
nr cycles           0                   
inc. cycle          0                   

freq/Hz	Re(Z)/Ohm	-Im(Z)/Ohm	|Z|/Ohm	Phase(Z)/deg	time/s	<Ewe>/V	<I>/mA	Cs/µF	Cp/µF	cycle number	I Range	|Ewe|/V	|I|/A	Ns	(Q-Qo)/mA.h	Re(Y)/Ohm-1	Im(Y)/Ohm-1	|Y|/Ohm-1	Phase(Y)/deg	Re(C)/nF	Im(C)/nF	|C|/nF	Phase(C)/deg	Re(M)	Im(M)	|M|	Phase(M)/deg	Re(Permittivity)	Im(Permittivity)	|Permittivity|	Phase(Permittivity)/deg	Re(Resistivity)/Ohm.cm	Im(Resistivity)/Ohm.cm	|Resistivity|/Ohm.cm	Phase(Resistivity)/deg	Re(Conductivity)/mS/cm	Im(Conductivity)/mS/cm	|Conductivity|/mS/cm	Phase(Conductivity)/deg	Tan(Delta)	Loss Angle(Delta)/deg	dq/mA.h	Pwe/W	Rwe/Ohm	
1.0000371E+005	1.1531905E+000	2.3182645E-001	1.1762618E+000	-1.1366693E+001	1.865494435216533E+000	2.6180556E-001	1.5590161E-002	6.8650074E+000	2.6666069E-001	1.000000000000000E+000	9	4.5615681E-003	3.8780214E-003	0	-1.761021190219455E-006	8.3347595E-001	1.6755408E-001	8.5015088E-001	1.1366693E+001	2.6666068E+002	1.3264690E+003	1.3530070E+003	-7.8633308E+001	0.0000000E+000	0.0000000E+000	0.0000000E+000	7.8633308E+001	0.0000000E+000	0.0000000E+000	0.0000000E+000	-7.8633308E+001	0.0000000E+000	0.0000000E+000	0.0000000E+000	-1.1366693E+001	0.0000000E+000	0.0000000E+000	0.0000000E+000	1.1366693E+001	4.9743695E+000	7.8633308E+001	-1.761021190219455E-006	4.0815908E-006	1.6793000E+004
6.8132047E+004	1.2098341E+000	2.6743639E-001	1.2390403E+000	-1.2464905E+001	2.302487629320240E+000	2.6181179E-001	2.1151926E-002	8.7347040E+000	4.0692872E-001	1.000000000000000E+000	9	5.4364032E-003	4.3875920E-003	0	3.521123947316988E-007	7.8805220E-001	1.7420061E-001	8.0707628E-001	1.2464905E+001	4.0692874E+002	1.8408724E+003	1.8853123E+003	-7.7535095E+001	0.0000000E+000	0.0000000E+000	0.0000000E+000	7.7535095E+001	0.0000000E+000	0.0000000E+000	0.0000000E+000	-7.7535095E+001	0.0000000E+000	0.0000000E+000	0.0000000E+000	-1.2464905E+001	0.0000000E+000	0.0000000E+000	0.0000000E+000	1.2464905E+001	4.5238199E+000	7.7535095E+001	2.113133584951154E-006	5.5378237E-006	1.2377681E+004
4.6420355E+004	1.2760029E+000	3.0197465E-001	1.3112483E+000	-1.3314473E+001	2.880482136766659E+000	2.6181865E-001	1.8417528E-002	1.1353799E+001	6.0216057E-001	1.000000000000000E+000	9	5.0725685E-003	3.8685033E-003	0	-7.664666220597509E-007	7.4213308E-001	1.7563078E-001	7.6263207E-001	1.3314473E+001	6.0216064E+002	2.5444473E+003	2.6147292E+003	-7.6685524E+001	0.0000000E+000	0.0000000E+000	0.0000000E+000	7.6685524E+001	0.0000000E+000	0.0000000E+000	0.0000000E+000	-7.6685524E+001	0.0000000E+000	0.0000000E+000	0.0000000E+000	-1.3314473E+001	0.0000000E+000	0.0000000E+000	0.0000000E+000	1.3314473E+001	4.2255297E+000	7.6685524E+001	-1.118579016791450E-006	4.8220522E-006	1.4215732E+004
3.1621139E+004	1.3436309E+000	3.4702477E-001	1.3877212E+000	-1.4481542E+001	3.317479624209227E+000	2.6181537E-001	1.5515754E-002	1.4503812E+001	9.0698200E-001	1.000000000000000E+000	9	5.3836806E-003	3.8795117E-003	0	1.905808424538312E-006	6.9771093E-001	1.8020053E-001	7.2060585E-001	1.4481542E+001	9.0698218E+002	3.5117058E+003	3.6269402E+003	-7.5518456E+001	0.0000000E+000	0.0000000E+000	0.0000000E+000	7.5518456E+001	0.0000000E+000	0.0000000E+000	0.0000000E+000	-7.5518456E+001	0.0000000E+000	0.0000000E+000	0.0000000E+000	-1.4481542E+001	0.0000000E+000	0.0000000E+000	0.0000000E+000	1.4481542E+001	3.8718588E+000	7.5518456E+001	2.672275046598063E-006	4.0622631E-006	1.6874164E+004
2.1544684E+004	1.4262387E+000	3.9329380E-001	1.4794718E+000	-1.5416511E+001	3.754475218273001E+000	2.6182202E-001	1.5757568E-002	1.8782911E+001	1.3273448E+000	1.000000000000000E+000	9	5.4097655E-003	3.6565519E-003	0	2.252330694709801E-006	6.5159667E-001	1.7968164E-001	6.7591691E-001	1.5416511E+001	1.3273447E+003	4.8134761E+003	4.9931348E+003	-7.4583488E+001	0.0000000E+000	0.0000000E+000	0.0000000E+000	7.4583488E+001	0.0000000E+000	0.0000000E+000	0.0000000E+000	-7.4583488E+001	0.0000000E+000	0.0000000E+000	0.0000000E+000	-1.5416511E+001	0.0000000E+000	0.0000000E+000	0.0000000E+000	1.5416511E+001	3.6263950E+000	7.4583488E+001	3.465222701714893E-007	4.1256781E-006	1.6615637E+004
1.4678594E+004	1.5131819E+000	4.4642571E-001	1.5776614E+000	-1.6437349E+001	4.191497372376034E+000	2.6181602E-001	1.0102820E-002	2.4287704E+001	1.9447209E+000	1.000000000000000E+000	9	5.2656136E-003	3.3376068E-003	0	6.020839702855382E-006	6.0794395E-001	1.7935835E-001	6.3384956E-001	1.6437349E+001	1.9447208E+003	6.5917275E+003	6.8726133E+003	-7.3562653E+001	0.0000000E+000	0.0000000E+000	0.0000000E+000	7.3562653E+001	0.0000000E+000	0.0000000E+000	0.0000000E+000	-7.3562653E+001	0.0000000E+000	0.0000000E+000	0.0000000E+000	-1.6437349E+001	0.0000000E+000	0.0000000E+000	0.0000000E+000	1.6437349E+001	3.3895493E+000	7.3562653E+001	3.768509008145580E-006	2.6450800E-006	2.5915145E+004
1.0002226E+004	1.6176120E+000	5.0746369E-001	1.6953430E+000	-1.7417248E+001	4.628487713140203E+000	2.6180652E-001	1.3804444E-002	3.1355846E+001	2.8093982E+000	1.000000000000000E+000	9	5.0826892E-003	2.9980300E-003	0	5.848578209050983E-006	5.6280661E-001	1.7655899E-001	5.8985114E-001	1.7417248E+001	2.8093989E+003	8.9553525E+003	9.3856836E+003	-7.2582748E+001	0.0000000E+000	0.0000000E+000	0.0000000E+000	7.2582748E+001	0.0000000E+000	0.0000000E+000	0.0000000E+000	-7.2582748E+001	0.0000000E+000	0.0000000E+000	0.0000000E+000	-1.7417248E+001	0.0000000E+000	0.0000000E+000	0.0000000E+000	1.7417248E+001	3.1876409E+000	7.2582748E+001	-1.722614938043984E-007	3.6140934E-006	1.8965379E+004
6.8110674E+003	1.7323494E+000	5.8617955E-001	1.8288360E+000	-1.8694410E+001	5.006491944455775E+000	2.6174417E-001	-1.9342743E-002	3.9863396E+001	4.0953035E+000	1.000000000000000E+000	9	5.2992655E-003	2.8976167E-003	0	4.515254897815693E-006	5.1794779E-001	1.7525934E-001	5.4679590E-001	1.8694410E+001	4.0953040E+003	1.2102941E+004	1.2777038E+004	-7.1305588E+001	0.0000000E+000	0.0000000E+000	0.0000000E+000	7.1305588E+001	0.0000000E+000	0.0000000E+000	0.0000000E+000	-7.1305588E+001	0.0000000E+000	0.0000000E+000	0.0000000E+000	-1.8694410E+001	0.0000000E+000	0.0000000E+000	0.0000000E+000	1.8694410E+001	2.9553220E+000	7.1305588E+001	-1.333323311235290E-006	-5.0628501E-006	1.3531905E+004
4.6414854E+003	1.8605546E+000	6.7158711E-001	1.9780527E+000	-1.9847591E+001	5.477708446866018E+000	2.6179525E-001	2.8052896E-002	5.1057648E+001	5.8855867E+000	1.000000000000000E+000	9	5.2944086E-003	2.6765761E-003	0	8.543095341495549E-006	4.7551769E-001	1.7164321E-001	5.0554770E-001	1.9847591E+001	5.8855884E+003	1.6305340E+004	1.7335059E+004	-7.0152405E+001	0.0000000E+000	0.0000000E+000	0.0000000E+000	7.0152405E+001	0.0000000E+000	0.0000000E+000	0.0000000E+000	-7.0152405E+001	0.0000000E+000	0.0000000E+000	0.0000000E+000	-1.9847591E+001	0.0000000E+000	0.0000000E+000	0.0000000E+000	1.9847591E+001	2.7703846E+000	7.0152405E+001	4.027840443679856E-006	7.3441151E-006	9.3322002E+003
3.1610117E+003	2.0018339E+000	7.7203298E-001	2.1455474E+000	-2.1089775E+001	5.944668735712185E+000	2.6179656E-001	2.7364649E-002	6.5216606E+001	8.4441051E+000	1.000000000000000E+000	9	5.2280361E-003	2.4366910E-003	0	1.328173242433048E-005	4.3486235E-001	1.6771026E-001	4.6608153E-001	2.1089775E+001	8.4441055E+003	2.1895045E+004	2.3466910E+004	-6.8910225E+001	0.0000000E+000	0.0000000E+000	0.0000000E+000	6.8910225E+001	0.0000000E+000	0.0000000E+000	0.0000000E+000	-6.8910225E+001	0.0000000E+000	0.0000000E+000	0.0000000E+000	-2.1089775E+001	0.0000000E+000	0.0000000E+000	0.0000000E+000	2.1089775E+001	2.5929384E+000	6.8910225E+001	4.738637082834935E-006	7.1639711E-006	9.5669619E+003
2.1556899E+003	2.1519327E+000	9.0758985E-001	2.3354943E+000	-2.2867863E+001	6.411709557898575E+000	2.6178709E-001	2.8052881E-002	8.1347496E+001	1.2284737E+001	1.000000000000000E+000	9	5.1689707E-003	2.2132234E-003	0	1.500889522549955E-005	3.9452183E-001	1.6639183E-001	4.2817488E-001	2.2867863E+001	1.2284736E+004	2.9127615E+004	3.1612225E+004	-6.7132141E+001	0.0000000E+000	0.0000000E+000	0.0000000E+000	6.7132141E+001	0.0000000E+000	0.0000000E+000	0.0000000E+000	-6.7132141E+001	0.0000000E+000	0.0000000E+000	0.0000000E+000	-2.2867863E+001	0.0000000E+000	0.0000000E+000	0.0000000E+000	2.2867863E+001	2.3710411E+000	6.7132141E+001	1.727162801169066E-006	7.3438819E-006	9.3319141E+003
1.4685898E+003	2.3236170E+000	1.0857470E+000	2.5647695E+000	-2.5045080E+001	6.878959606721764E+000	2.6179644E-001	2.8610906E-002	9.9813889E+001	1.7887579E+001	1.000000000000000E+000	9	5.1193465E-003	1.9960259E-003	0	1.939490272213394E-005	3.5323837E-001	1.6505624E-001	3.8989860E-001	2.5045080E+001	1.7887580E+004	3.8281371E+004	4.2254336E+004	-6.4954918E+001	0.0000000E+000	0.0000000E+000	0.0000000E+000	6.4954918E+001	0.0000000E+000	0.0000000E+000	0.0000000E+000	-6.4954918E+001	0.0000000E+000	0.0000000E+000	0.0000000E+000	-2.5045080E+001	0.0000000E+000	0.0000000E+000	0.0000000E+000	2.5045080E+001	2.1401091E+000	6.4954918E+001	4.386007496634393E-006	7.4902332E-006	9.1502324E+003
1.0003202E+003	2.5202830E+000	1.3130331E+000	2.8418097E+000	-2.7518898E+001	7.347700162354158E+000	2.6179457E-001	3.0340802E-002	1.2117287E+002	2.5868233E+001	1.000000000000000E+000	9	5.0836843E-003	1.7888898E-003	0	2.276900396688385E-005	3.1207526E-001	1.6258694E-001	3.5188845E-001	2.7518898E+001	2.5868232E+004	4.9652422E+004	5.5986859E+004	-6.2481102E+001	0.0000000E+000	0.0000000E+000	0.0000000E+000	6.2481102E+001	0.0000000E+000	0.0000000E+000	0.0000000E+000	-6.2481102E+001	0.0000000E+000	0.0000000E+000	0.0000000E+000	-2.7518898E+001	0.0000000E+000	0.0000000E+000	0.0000000E+000	2.7518898E+001	1.9194360E+000	6.2481102E+001	3.374101244749911E-006	7.9430574E-006	8.6284658E+003
6.8108978E+002	2.7512004E+000	1.6305810E+000	3.1981087E+000	-3.0654367E+001	8.067434329801472E+000	2.6180360E-001	-1.1726911E-002	1.4330898E+002	3.7253899E+001	1.000000000000000E+000	10	5.1379376E-003	1.6065551E-003	0	2.360166068698486E-005	2.6898980E-001	1.5942483E-001	3.1268480E-001	3.0654367E+001	3.7253895E+004	6.2856699E+004	7.3067211E+004	-5.9345634E+001	0.0000000E+000	0.0000000E+000	0.0000000E+000	5.9345634E+001	0.0000000E+000	0.0000000E+000	0.0000000E+000	-5.9345634E+001	0.0000000E+000	0.0000000E+000	0.0000000E+000	-3.0654367E+001	0.0000000E+000	0.0000000E+000	0.0000000E+000	3.0654367E+001	1.6872516E+000	5.9345634E+001	8.326567201010106E-007	-3.0701476E-006	2.2325025E+004
4.6396069E+002	3.0501797E+000	2.0550237E+000	3.6778688E+000	-3.3969669E+001	8.536191605409840E+000	2.6181063E-001	-1.1492565E-002	1.6692528E+002	5.2115063E+001	1.000000000000000E+000	10	5.0924411E-003	1.3846174E-003	0	2.155072394274046E-005	2.2549295E-001	1.5192330E-001	2.7189660E-001	3.3969669E+001	5.2115070E+004	7.7352063E+004	9.3270156E+004	-5.6030331E+001	0.0000000E+000	0.0000000E+000	0.0000000E+000	5.6030331E+001	0.0000000E+000	0.0000000E+000	0.0000000E+000	-5.6030331E+001	0.0000000E+000	0.0000000E+000	0.0000000E+000	-3.3969669E+001	0.0000000E+000	0.0000000E+000	0.0000000E+000	3.3969669E+001	1.4842553E+000	5.6030334E+001	-2.050936744244408E-006	-3.0088759E-006	2.2780869E+004
3.1631589E+002	3.4505830E+000	2.6063972E+000	4.3243299E+000	-3.7065567E+001	9.002903174288804E+000	2.6180559E-001	-1.1715763E-002	1.9304500E+002	7.0129715E+001	1.000000000000000E+000	10	5.0544427E-003	1.1688384E-003	0	1.965567691597405E-005	1.8452485E-001	1.3938080E-001	2.3124970E-001	3.7065567E+001	7.0129719E+004	9.2844031E+004	1.1635373E+005	-5.2934433E+001	0.0000000E+000	0.0000000E+000	0.0000000E+000	5.2934433E+001	0.0000000E+000	0.0000000E+000	0.0000000E+000	-5.2934433E+001	0.0000000E+000	0.0000000E+000	0.0000000E+000	-3.7065567E+001	0.0000000E+000	0.0000000E+000	0.0000000E+000	3.7065567E+001	1.3238900E+000	5.2934433E+001	-1.895047026766404E-006	-3.0672525E-006	2.2346439E+004
2.1534457E+002	4.0245986E+000	3.3153667E+000	5.2143121E+000	-3.9480869E+001	9.470443196449196E+000	2.6181111E-001	-1.1764130E-002	2.2292288E+002	9.0120537E+001	1.000000000000000E+000	10	5.0355727E-003	9.6572138E-004	0	1.861501032920529E-005	1.4802277E-001	1.2193757E-001	1.9177985E-001	3.9480869E+001	9.0120531E+004	1.0939934E+005	1.4173894E+005	-5.0519131E+001	0.0000000E+000	0.0000000E+000	0.0000000E+000	5.0519131E+001	0.0000000E+000	0.0000000E+000	0.0000000E+000	-5.0519131E+001	0.0000000E+000	0.0000000E+000	0.0000000E+000	-3.9480869E+001	0.0000000E+000	0.0000000E+000	0.0000000E+000	3.9480869E+001	1.2139226E+000	5.0519135E+001	-1.040666586768768E-006	-3.0799797E-006	2.2255035E+004
1.4673740E+002	4.8315511E+000	4.1433210E+000	6.3648248E+000	-4.0614906E+001	9.933375245105708E+000	2.6180637E-001	-1.2893145E-002	2.6177655E+002	1.1093153E+002	1.000000000000000E+000	10	5.0151153E-003	7.8794238E-004	0	1.731010673058983E-005	1.1926518E-001	1.0227646E-001	1.5711352E-001	4.0614906E+001	1.1093153E+005	1.2935791E+005	1.7040914E+005	-4.9385094E+001	0.0000000E+000	0.0000000E+000	0.0000000E+000	4.9385094E+001	0.0000000E+000	0.0000000E+000	0.0000000E+000	-4.9385094E+001	0.0000000E+000	0.0000000E+000	0.0000000E+000	-4.0614906E+001	0.0000000E+000	0.0000000E+000	0.0000000E+000	4.0614906E+001	1.1661059E+000	4.9385101E+001	-1.304903598615460E-006	-3.3755075E-006	2.0305857E+004
1.0003201E+002	5.9754906E+000	5.0410156E+000	7.8178210E+000	-4.0151493E+001	1.040168004074076E+001	2.6181728E-001	-1.1392142E-002	3.1561899E+002	1.3122836E+002	1.000000000000000E+000	10	5.0111441E-003	6.4098986E-004	0	1.615170422904581E-005	9.7769208E-002	8.2479611E-002	1.2791288E-001	4.0151493E+001	1.3122836E+005	1.5555473E+005	2.0351452E+005	-4.9848507E+001	0.0000000E+000	0.0000000E+000	0.0000000E+000	4.9848507E+001	0.0000000E+000	0.0000000E+000	0.0000000E+000	-4.9848507E+001	0.0000000E+000	0.0000000E+000	0.0000000E+000	-4.0151493E+001	0.0000000E+000	0.0000000E+000	0.0000000E+000	4.0151493E+001	1.1853744E+000	4.9848511E+001	-1.158402501544011E-006	-2.9826595E-006	2.2982270E+004
6.8103981E+001	7.4989209E+000	5.8987241E+000	9.5408993E+000	-3.8188934E+001	1.088033006343176E+001	2.6181674E-001	-9.9618183E-003	3.9617728E+002	1.5143529E+002	1.000000000000000E+000	10	5.0015352E-003	5.2422052E-004	0	1.510370316373236E-005	8.2379691E-002	6.4800665E-002	1.0481192E-001	3.8188934E+001	1.5143528E+005	1.9251641E+005	2.4493920E+005	-5.1811066E+001	0.0000000E+000	0.0000000E+000	0.0000000E+000	5.1811066E+001	0.0000000E+000	0.0000000E+000	0.0000000E+000	-5.1811066E+001	0.0000000E+000	0.0000000E+000	0.0000000E+000	-3.8188934E+001	0.0000000E+000	0.0000000E+000	0.0000000E+000	3.8188934E+001	1.2712785E+000	5.1811066E+001	-1.048001065313454E-006	-2.6081709E-006	2.6282023E+004
4.6441547E+001	9.4033890E+000	6.5479202E+000	1.1458577E+001	-3.4850891E+001	1.133556227173540E+001	2.6181230E-001	-1.3404647E-002	5.2337152E+002	1.7090527E+002	1.000000000000000E+000	10	5.0009759E-003	4.3643953E-004	0	1.393590452744603E-005	7.1618140E-002	4.9870301E-002	8.7270871E-002	3.4850891E+001	1.7090527E+005	2.4543498E+005	2.9907681E+005	-5.5149109E+001	0.0000000E+000	0.0000000E+000	0.0000000E+000	5.5149109E+001	0.0000000E+000	0.0000000E+000	0.0000000E+000	-5.5149109E+001	0.0000000E+000	0.0000000E+000	0.0000000E+000	-3.4850891E+001	0.0000000E+000	0.0000000E+000	0.0000000E+000	3.4850891E+001	1.4360878E+000	5.5149109E+001	-1.167798636286332E-006	-3.5095015E-006	1.9531459E+004
3.1629555E+001	1.1565779E+001	6.7540889E+000	1.3393467E+001	-3.0283724E+001	1.178245066627278E+001	2.6180986E-001	-1.5318573E-002	7.4500690E+002	1.8945575E+002	1.000000000000000E+000	10	4.9938983E-003	3.7286076E-004	0	1.207885265736453E-005	6.4474627E-002	3.7651367E-002	7.4663267E-002	3.0283724E+001	1.8945575E+005	3.2442622E+005	3.7569381E+005	-5.9716278E+001	0.0000000E+000	0.0000000E+000	0.0000000E+000	5.9716278E+001	0.0000000E+000	0.0000000E+000	0.0000000E+000	-5.9716278E+001	0.0000000E+000	0.0000000E+000	0.0000000E+000	-3.0283724E+001	0.0000000E+000	0.0000000E+000	0.0000000E+000	3.0283724E+001	1.7124114E+000	5.9716278E+001	-1.857051870081502E-006	-4.0105533E-006	1.7091008E+004
2.1551722E+001	1.3720499E+001	6.4726338E+000	1.5170599E+001	-2.5255556E+001	1.222133636710350E+001	2.6180190E-001	-1.7351534E-002	1.1409249E+003	2.0768910E+002	1.000000000000000E+000	10	4.9957992E-003	3.2930798E-004	0	1.128274336804558E-005	5.9616223E-002	2.8123904E-002	6.5916978E-002	2.5255556E+001	2.0768911E+005	4.4025328E+005	4.8678303E+005	-6.4744446E+001	0.0000000E+000	0.0000000E+000	0.0000000E+000	6.4744446E+001	0.0000000E+000	0.0000000E+000	0.0000000E+000	-6.4744446E+001	0.0000000E+000	0.0000000E+000	0.0000000E+000	-2.5255556E+001	0.0000000E+000	0.0000000E+000	0.0000000E+000	2.5255556E+001	2.1197705E+000	6.4744446E+001	-7.961092893189435E-007	-4.5426646E-006	1.5088112E+004
1.4685154E+001	1.5617296E+001	5.7849789E+000	1.6654306E+001	-2.0325703E+001	1.295804749548552E+001	2.6182607E-001	-5.7448819E-003	1.8734401E+003	2.2604260E+002	1.000000000000000E+000	11	4.9989284E-003	3.0015831E-004	0	8.787309402304042E-006	5.6305751E-002	2.0856850E-002	6.0044531E-002	2.0325703E+001	2.2604258E+005	6.1023119E+005	6.5075138E+005	-6.9674301E+001	0.0000000E+000	0.0000000E+000	0.0000000E+000	6.9674301E+001	0.0000000E+000	0.0000000E+000	0.0000000E+000	-6.9674301E+001	0.0000000E+000	0.0000000E+000	0.0000000E+000	-2.0325703E+001	0.0000000E+000	0.0000000E+000	0.0000000E+000	2.0325703E+001	2.6996288E+000	6.9674301E+001	-2.495433965741540E-006	-1.5041599E-006	4.5575535E+004
1.0003201E+001	1.7023859E+001	4.8959641E+000	1.7713900E+001	-1.6044931E+001	1.342669450442190E+001	2.6184058E-001	-5.5535524E-003	3.2496973E+003	2.4825099E+002	1.000000000000000E+000	11	4.9918676E-003	2.8180511E-004	0	6.010874859967266E-006	5.4253738E-002	1.5603064E-002	5.6452844E-002	1.6044931E+001	2.4825094E+005	8.6319863E+005	8.9818731E+005	-7.3955070E+001	0.0000000E+000	0.0000000E+000	0.0000000E+000	7.3955070E+001	0.0000000E+000	0.0000000E+000	0.0000000E+000	-7.3955070E+001	0.0000000E+000	0.0000000E+000	0.0000000E+000	-1.6044931E+001	0.0000000E+000	0.0000000E+000	0.0000000E+000	1.6044931E+001	3.4771209E+000	7.3955070E+001	-2.776434542336776E-006	-1.4541454E-006	4.7148305E+004
