EC-Lab ASCII FILE

Nb header lines : 63                          

Potentio Electrochemical Impedance Spectroscopy

Run on channel : 2 (SN 66139)
User : 
CE vs. WE compliance from -10 V to 10 V
Electrode connection : standard
Potential control : Ewe
Ewe ctrl range : min = -10.00 V, max = 10.00 V
Safety Limits :
	Do not start on E overload
Acquisition started on : 09/22/2025 08:43:39.321
Loaded Setting File :  C:\Users\Celltest\OneDrive - store-dot.com\Documents\EC-Lab\Data\Gyutae\17737_R277_UA674_SOC00_C01.mpr
Saved on :
	File : 17687_R288_UA670_SOC00_C02.mpr
	Directory : C:\Users\Celltest\OneDrive - store-dot.com\Documents\EC-Lab\Data\Charmaine\
	Host : 169.254.61.224
Device : VMP-3e (SN .003165)
Address : USB
EC-LAB for windows v11.62 (software)
Internet server v27.00 (firmware)
Command interpretor v12.03 (firmware)
Electrode material : 
Initial state : 
Electrolyte : 
Comments : 
Electrode surface area : 0.001 cm²
Characteristic mass : 0.001 g
Equivalent Weight : 0.000 g/eq.
Density : 0.000 g/cm3
Volume (V) : 0.001 cm³
Cycle Definition : Charge/Discharge alternance
Mode                Single sine         
E (V)               0.0000              
vs.                 Eoc                 
tE (h:m:s)          0:00:0.0000         
record              0                   
dI                  0.000               
unit dI             mA                  
dt (s)              0.000               
fi                  100.000             
unit fi             kHz                 
ff                  10.000              
unit ff             mHz                 
Nd                  6                   
Points              per decade          
spacing             Logarithmic         
Va (mV)             5.0                 
pw                  0.10                
Na                  2                   
corr                0                   
E range min (V)     -10.000             
E range max (V)     10.000              
I Range             Auto                
Bandwidth           5                   
nc cycles           0                   
goto Ns'            0                   
nr cycles           0                   
inc. cycle          0                   

freq/Hz	Re(Z)/Ohm	-Im(Z)/Ohm	|Z|/Ohm	Phase(Z)/deg	time/s	<Ewe>/V	<I>/mA	Cs/µF	Cp/µF	cycle number	I Range	|Ewe|/V	|I|/A	Ns	(Q-Qo)/mA.h	Re(Y)/Ohm-1	Im(Y)/Ohm-1	|Y|/Ohm-1	Phase(Y)/deg	Re(C)/nF	Im(C)/nF	|C|/nF	Phase(C)/deg	Re(M)	Im(M)	|M|	Phase(M)/deg	Re(Permittivity)	Im(Permittivity)	|Permittivity|	Phase(Permittivity)/deg	Re(Resistivity)/Ohm.cm	Im(Resistivity)/Ohm.cm	|Resistivity|/Ohm.cm	Phase(Resistivity)/deg	Re(Conductivity)/mS/cm	Im(Conductivity)/mS/cm	|Conductivity|/mS/cm	Phase(Conductivity)/deg	Tan(Delta)	Loss Angle(Delta)/deg	dq/mA.h	Pwe/W	Rwe/Ohm	
1.0000371E+005	9.1787219E-001	1.8218055E-001	9.3577731E-001	-1.1226245E+001	1.705489414307522E+000	2.7032435E-001	-1.9868329E-002	8.7357855E+000	3.3110139E-001	1.000000000000000E+000	9	4.6521681E-003	4.9714479E-003	0	-8.311377760643761E-006	1.0481832E+000	2.0804487E-001	1.0686303E+000	1.1226245E+001	3.3110132E+002	1.6681735E+003	1.7007148E+003	-7.8773758E+001	0.0000000E+000	0.0000000E+000	0.0000000E+000	7.8773758E+001	0.0000000E+000	0.0000000E+000	0.0000000E+000	-7.8773758E+001	0.0000000E+000	0.0000000E+000	0.0000000E+000	-1.1226245E+001	0.0000000E+000	0.0000000E+000	0.0000000E+000	1.1226245E+001	5.0382557E+000	7.8773758E+001	-8.311377760643761E-006	-5.3708932E-006	1.3605792E+004
6.8132047E+004	9.6276969E-001	2.1028687E-001	9.8546743E-001	-1.2320969E+001	2.142499595094705E+000	2.7031836E-001	-1.5659528E-002	1.1108528E+001	5.0582033E-001	1.000000000000000E+000	9	5.4766154E-003	5.5573783E-003	0	-1.332912415617870E-005	9.9137479E-001	2.1653475E-001	1.0147469E+000	1.2320969E+001	5.0582034E+002	2.3158293E+003	2.3704260E+003	-7.7679031E+001	0.0000000E+000	0.0000000E+000	0.0000000E+000	7.7679031E+001	0.0000000E+000	0.0000000E+000	0.0000000E+000	-7.7679031E+001	0.0000000E+000	0.0000000E+000	0.0000000E+000	-1.2320969E+001	0.0000000E+000	0.0000000E+000	0.0000000E+000	1.2320969E+001	4.5783634E+000	7.7679031E+001	-5.017746395534939E-006	-4.2330580E-006	1.7262229E+004
4.6420355E+004	1.0135579E+000	2.3852162E-001	1.0412455E+000	-1.3242524E+001	2.720499382499838E+000	2.7032268E-001	-2.0948464E-002	1.4374207E+001	7.5428104E-001	1.000000000000000E+000	9	5.0648414E-003	4.8642145E-003	0	-7.286846092746904E-006	9.3485081E-001	2.1999942E-001	9.6038836E-001	1.3242524E+001	7.5428101E+002	3.2051917E+003	3.2927485E+003	-7.6757477E+001	0.0000000E+000	0.0000000E+000	0.0000000E+000	7.6757477E+001	0.0000000E+000	0.0000000E+000	0.0000000E+000	-7.6757477E+001	0.0000000E+000	0.0000000E+000	0.0000000E+000	-1.3242524E+001	0.0000000E+000	0.0000000E+000	0.0000000E+000	1.3242524E+001	4.2493334E+000	7.6757477E+001	6.042278063431796E-006	-5.6628451E-006	1.2904177E+004
3.1621139E+004	1.0677216E+000	2.7555475E-001	1.1027057E+000	-1.4470982E+001	3.157498309941730E+000	2.7032486E-001	-1.8061904E-002	1.8265633E+001	1.1405945E+000	1.000000000000000E+000	9	5.4998114E-003	4.9875602E-003	0	-1.159479851741344E-005	8.7808955E-001	2.2661500E-001	9.0686029E-001	1.4470982E+001	1.1405941E+003	4.4195840E+003	4.5643926E+003	-7.5529022E+001	0.0000000E+000	0.0000000E+000	0.0000000E+000	7.5529022E+001	0.0000000E+000	0.0000000E+000	0.0000000E+000	-7.5529022E+001	0.0000000E+000	0.0000000E+000	0.0000000E+000	-1.4470982E+001	0.0000000E+000	0.0000000E+000	0.0000000E+000	1.4470982E+001	3.8748076E+000	7.5529022E+001	-4.307952424666534E-006	-4.8825818E-006	1.4966575E+004
2.1544684E+004	1.1333786E+000	3.1598923E-001	1.1766037E+000	-1.5578624E+001	3.595488464081427E+000	2.7032053E-001	-1.4616663E-002	2.3378021E+001	1.6861333E+000	1.000000000000000E+000	9	5.4600355E-003	4.6405052E-003	0	-1.525974211951123E-005	8.1868082E-001	2.2825058E-001	8.4990388E-001	1.5578624E+001	1.6861331E+003	6.0477617E+003	6.2784126E+003	-7.4421379E+001	0.0000000E+000	0.0000000E+000	0.0000000E+000	7.4421379E+001	0.0000000E+000	0.0000000E+000	0.0000000E+000	-7.4421379E+001	0.0000000E+000	0.0000000E+000	0.0000000E+000	-1.5578624E+001	0.0000000E+000	0.0000000E+000	0.0000000E+000	1.5578624E+001	3.5867636E+000	7.4421379E+001	-3.664943602097789E-006	-3.9511842E-006	1.8493998E+004
1.4678594E+004	1.2063034E+000	3.6043900E-001	1.2590013E+000	-1.6635952E+001	4.032478244829690E+000	2.7032092E-001	-2.1116110E-002	3.0081804E+001	2.4655573E+000	1.000000000000000E+000	9	5.2114660E-003	4.1393652E-003	0	-1.808233546950699E-005	7.6103431E-001	2.2739425E-001	7.9428041E-001	1.6635952E+001	2.4655583E+003	8.2516328E+003	8.6121094E+003	-7.3364044E+001	0.0000000E+000	0.0000000E+000	0.0000000E+000	7.3364044E+001	0.0000000E+000	0.0000000E+000	0.0000000E+000	-7.3364044E+001	0.0000000E+000	0.0000000E+000	0.0000000E+000	-1.6635952E+001	0.0000000E+000	0.0000000E+000	0.0000000E+000	1.6635952E+001	3.3467615E+000	7.3364044E+001	-2.822593349995765E-006	-5.7081261E-006	1.2801645E+004
1.0002226E+004	1.2889755E+000	4.1334987E-001	1.3536307E+000	-1.7780054E+001	4.470488345628837E+000	2.7032039E-001	-1.6516253E-002	3.8495121E+001	3.5895576E+000	1.000000000000000E+000	9	5.0544166E-003	3.7339702E-003	0	-1.751965992428207E-005	7.0346797E-001	2.2558874E-001	7.3875397E-001	1.7780054E+001	3.5895569E+003	1.1193548E+004	1.1755018E+004	-7.2219948E+001	0.0000000E+000	0.0000000E+000	0.0000000E+000	7.2219948E+001	0.0000000E+000	0.0000000E+000	0.0000000E+000	-7.2219948E+001	0.0000000E+000	0.0000000E+000	0.0000000E+000	-1.7780054E+001	0.0000000E+000	0.0000000E+000	0.0000000E+000	1.7780054E+001	3.1183643E+000	7.2219948E+001	5.626755452249188E-007	-4.4646799E-006	1.6366932E+004
6.8110674E+003	1.3845187E+000	4.7829416E-001	1.4648063E+000	-1.9057922E+001	4.848525483597768E+000	2.7025104E-001	-6.4246893E-002	4.8855099E+001	5.2088232E+000	1.000000000000000E+000	9	5.0672181E-003	3.4593092E-003	0	-2.250099523652655E-005	6.4526552E-001	2.2291264E-001	6.8268412E-001	1.9057922E+001	5.2088237E+003	1.5077988E+004	1.5952354E+004	-7.0942078E+001	0.0000000E+000	0.0000000E+000	0.0000000E+000	7.0942078E+001	0.0000000E+000	0.0000000E+000	0.0000000E+000	-7.0942078E+001	0.0000000E+000	0.0000000E+000	0.0000000E+000	-1.9057922E+001	0.0000000E+000	0.0000000E+000	0.0000000E+000	1.9057922E+001	2.8947012E+000	7.0942078E+001	-4.981335312244481E-006	-1.7362789E-005	4.2064453E+003
4.6414854E+003	1.4971111E+000	5.4892409E-001	1.5945718E+000	-2.0135742E+001	5.318697052643984E+000	2.7028123E-001	-2.7168592E-002	6.2467033E+001	7.4026508E+000	1.000000000000000E+000	9	4.9761543E-003	3.1206836E-003	0	-2.578106957523980E-005	5.8879733E-001	2.1588582E-001	6.2712759E-001	2.0135742E+001	7.4026509E+003	2.0189660E+004	2.1503990E+004	-6.9864258E+001	0.0000000E+000	0.0000000E+000	0.0000000E+000	6.9864258E+001	0.0000000E+000	0.0000000E+000	0.0000000E+000	-6.9864258E+001	0.0000000E+000	0.0000000E+000	0.0000000E+000	-2.0135742E+001	0.0000000E+000	0.0000000E+000	0.0000000E+000	2.0135742E+001	2.7273555E+000	6.9864258E+001	-3.280074338713248E-006	-7.3431606E-006	9.9482969E+003
3.1610117E+003	1.6248993E+000	6.3161451E-001	1.7433400E+000	-2.1241600E+001	5.785706061491510E+000	2.7028629E-001	-2.1134757E-002	7.9715340E+001	1.0463619E+001	1.000000000000000E+000	9	4.8740110E-003	2.7957892E-003	0	-2.683269538916647E-005	5.3464097E-001	2.0782027E-001	5.7361156E-001	2.1241600E+001	1.0463619E+004	2.6918836E+004	2.8880980E+004	-6.8758400E+001	0.0000000E+000	0.0000000E+000	0.0000000E+000	6.8758400E+001	0.0000000E+000	0.0000000E+000	0.0000000E+000	-6.8758400E+001	0.0000000E+000	0.0000000E+000	0.0000000E+000	-2.1241600E+001	0.0000000E+000	0.0000000E+000	0.0000000E+000	2.1241600E+001	2.5726123E+000	6.8758400E+001	-1.051625813926672E-006	-5.7124348E-006	1.2788711E+004
2.1556899E+003	1.7706345E+000	7.1949387E-001	1.9112347E+000	-2.2114269E+001	6.252667950342584E+000	2.7028522E-001	-2.4766240E-002	1.0261403E+002	1.4542292E+001	1.000000000000000E+000	9	4.8032231E-003	2.5131518E-003	0	-3.220772955975392E-005	4.8473111E-001	1.9696952E-001	5.2322197E-001	2.2114269E+001	1.4542296E+004	3.5787777E+004	3.8629566E+004	-6.7885727E+001	0.0000000E+000	0.0000000E+000	0.0000000E+000	6.7885727E+001	0.0000000E+000	0.0000000E+000	0.0000000E+000	-6.7885727E+001	0.0000000E+000	0.0000000E+000	0.0000000E+000	-2.2114269E+001	0.0000000E+000	0.0000000E+000	0.0000000E+000	2.2114269E+001	2.4609447E+000	6.7885727E+001	-5.375034170587443E-006	-6.6939488E-006	1.0913454E+004
1.4685898E+003	1.9321905E+000	8.2849371E-001	2.1023231E+000	-2.3208912E+001	6.719922052521724E+000	2.7028462E-001	-2.5678778E-002	1.3080682E+002	2.0314678E+001	1.000000000000000E+000	9	4.7569443E-003	2.2627085E-003	0	-3.686923127184208E-005	4.3717071E-001	1.8745209E-001	4.7566429E-001	2.3208912E+001	2.0314674E+004	4.7377344E+004	5.1548992E+004	-6.6791092E+001	0.0000000E+000	0.0000000E+000	0.0000000E+000	6.6791092E+001	0.0000000E+000	0.0000000E+000	0.0000000E+000	-6.6791092E+001	0.0000000E+000	0.0000000E+000	0.0000000E+000	-2.3208912E+001	0.0000000E+000	0.0000000E+000	0.0000000E+000	2.3208912E+001	2.3321729E+000	6.6791092E+001	-4.661501712088163E-006	-6.9405787E-006	1.0525603E+004
1.0003202E+003	2.1085417E+000	9.6079230E-001	2.3171253E+000	-2.4497177E+001	7.188688154798001E+000	2.7028781E-001	-2.5343578E-002	1.6559666E+002	2.8471579E+001	1.000000000000000E+000	9	4.7252467E-003	2.0392712E-003	0	-3.841059121369229E-005	3.9272013E-001	1.7894951E-001	4.3156925E-001	2.4497177E+001	2.8471580E+004	6.2483340E+004	6.8664391E+004	-6.5502823E+001	0.0000000E+000	0.0000000E+000	0.0000000E+000	6.5502823E+001	0.0000000E+000	0.0000000E+000	0.0000000E+000	-6.5502823E+001	0.0000000E+000	0.0000000E+000	0.0000000E+000	-2.4497177E+001	0.0000000E+000	0.0000000E+000	0.0000000E+000	2.4497177E+001	2.1945865E+000	6.5502823E+001	-1.541359941850208E-006	-6.8500603E-006	1.0664942E+004
6.8108978E+002	2.3168964E+000	1.1213261E+000	2.5739815E+000	-2.5825945E+001	7.654416070232401E+000	2.7027968E-001	-2.1823844E-002	2.0839334E+002	3.9549126E+001	1.000000000000000E+000	9	4.7009815E-003	1.8263463E-003	0	-3.992542088164999E-005	3.4970009E-001	1.6924703E-001	3.8850316E-001	2.5825945E+001	3.9549117E+004	8.1716828E+004	9.0784211E+004	-6.4174057E+001	0.0000000E+000	0.0000000E+000	0.0000000E+000	6.4174057E+001	0.0000000E+000	0.0000000E+000	0.0000000E+000	-6.4174057E+001	0.0000000E+000	0.0000000E+000	0.0000000E+000	-2.5825945E+001	0.0000000E+000	0.0000000E+000	0.0000000E+000	2.5825945E+001	2.0662112E+000	6.4174057E+001	-1.514829667957708E-006	-5.8985415E-006	1.2384604E+004
4.6396069E+002	2.5603173E+000	1.3174129E+000	2.8793752E+000	-2.7228113E+001	8.123215612460626E+000	2.7029172E-001	-2.1544499E-002	2.6038562E+002	5.4508507E+001	1.000000000000000E+000	9	4.6871714E-003	1.6278432E-003	0	-4.306550635433652E-005	3.0881423E-001	1.5890054E-001	3.4729758E-001	2.7228113E+001	5.4508508E+004	1.0593421E+005	1.1913536E+005	-6.2771889E+001	0.0000000E+000	0.0000000E+000	0.0000000E+000	6.2771889E+001	0.0000000E+000	0.0000000E+000	0.0000000E+000	-6.2771889E+001	0.0000000E+000	0.0000000E+000	0.0000000E+000	-2.7228113E+001	0.0000000E+000	0.0000000E+000	0.0000000E+000	2.7228113E+001	1.9434434E+000	6.2771889E+001	-3.140085472686526E-006	-5.8232995E-006	1.2545741E+004
3.1631589E+002	2.8569338E+000	1.5626539E+000	3.2563720E+000	-2.8677286E+001	8.842938846675679E+000	2.7031463E-001	-2.9037820E-002	3.2198550E+002	7.4147057E+001	1.000000000000000E+000	10	4.7129202E-003	1.4472917E-003	0	-4.994552465904013E-005	2.6942146E-001	1.4736514E-001	3.0709022E-001	2.8677286E+001	7.4147047E+004	1.3555992E+005	1.5451303E+005	-6.1322716E+001	0.0000000E+000	0.0000000E+000	0.0000000E+000	6.1322716E+001	0.0000000E+000	0.0000000E+000	0.0000000E+000	-6.1322716E+001	0.0000000E+000	0.0000000E+000	0.0000000E+000	-2.8677286E+001	0.0000000E+000	0.0000000E+000	0.0000000E+000	2.8677286E+001	1.8282576E+000	6.1322716E+001	-6.880018304703607E-006	-7.8493476E-006	9.3090537E+003
2.1534457E+002	3.2266324E+000	1.8513175E+000	3.7200179E+000	-2.9845547E+001	9.310410842212150E+000	2.7031326E-001	-2.8773326E-002	3.9921359E+002	9.8872856E+001	1.000000000000000E+000	10	4.6926490E-003	1.2614587E-003	0	-5.226593919093203E-005	2.3316288E-001	1.3377990E-001	2.6881590E-001	2.9845547E+001	9.8872852E+004	1.7232394E+005	1.9867406E+005	-6.0154453E+001	0.0000000E+000	0.0000000E+000	0.0000000E+000	6.0154453E+001	0.0000000E+000	0.0000000E+000	0.0000000E+000	-6.0154453E+001	0.0000000E+000	0.0000000E+000	0.0000000E+000	-2.9845547E+001	0.0000000E+000	0.0000000E+000	0.0000000E+000	2.9845547E+001	1.7428844E+000	6.0154449E+001	-2.320414531891904E-006	-7.7778113E-006	9.3945781E+003
1.4673740E+002	3.6965566E+000	2.1901011E+000	4.2966352E+000	-3.0645494E+001	9.773365077533526E+000	2.7031797E-001	-2.9762376E-002	4.9523935E+002	1.2867273E+002	1.000000000000000E+000	10	4.6814964E-003	1.0895727E-003	0	-5.629180802166876E-005	2.0023519E-001	1.1863346E-001	2.3274027E-001	3.0645494E+001	1.2867273E+005	2.1717995E+005	2.5243573E+005	-5.9354507E+001	0.0000000E+000	0.0000000E+000	0.0000000E+000	5.9354507E+001	0.0000000E+000	0.0000000E+000	0.0000000E+000	-5.9354507E+001	0.0000000E+000	0.0000000E+000	0.0000000E+000	-3.0645494E+001	0.0000000E+000	0.0000000E+000	0.0000000E+000	3.0645494E+001	1.6878474E+000	5.9354507E+001	-4.025868830736729E-006	-8.0453055E-006	9.0825400E+003
1.0003201E+002	4.3129172E+000	2.5523305E+000	5.0115514E+000	-3.0616514E+001	1.024168075314083E+001	2.7031603E-001	-2.8523747E-002	6.2336761E+002	1.6168646E+002	1.000000000000000E+000	10	4.6809902E-003	9.3404012E-004	0	-6.060313765605840E-005	1.7172232E-001	1.0162312E-001	1.9953901E-001	3.0616514E+001	1.6168647E+005	2.7321709E+005	3.1747456E+005	-5.9383484E+001	0.0000000E+000	0.0000000E+000	0.0000000E+000	5.9383484E+001	0.0000000E+000	0.0000000E+000	0.0000000E+000	-5.9383484E+001	0.0000000E+000	0.0000000E+000	0.0000000E+000	-3.0616514E+001	0.0000000E+000	0.0000000E+000	0.0000000E+000	3.0616514E+001	1.6897957E+000	5.9383484E+001	-4.311329634389642E-006	-7.7104260E-006	9.4768770E+003
6.8103981E+001	5.0814328E+000	2.8661883E+000	5.8340378E+000	-2.9425222E+001	1.071933349579922E+001	2.7032402E-001	-2.5489563E-002	8.1534784E+002	1.9679491E+002	1.000000000000000E+000	10	4.6756268E-003	8.0143922E-004	0	-6.443665116243776E-005	1.4929585E-001	8.4210500E-002	1.7140788E-001	2.9425222E+001	1.9679494E+005	3.4889550E+005	4.0057000E+005	-6.0574776E+001	0.0000000E+000	0.0000000E+000	0.0000000E+000	6.0574776E+001	0.0000000E+000	0.0000000E+000	0.0000000E+000	-6.0574776E+001	0.0000000E+000	0.0000000E+000	0.0000000E+000	-2.9425222E+001	0.0000000E+000	0.0000000E+000	0.0000000E+000	2.9425222E+001	1.7728887E+000	6.0574776E+001	-3.833513506379361E-006	-6.8904410E-006	1.0605282E+004
4.6441547E+001	5.9675264E+000	3.0562823E+000	6.7046428E+000	-2.7119358E+001	1.117454311737674E+001	2.7031001E-001	-2.9907675E-002	1.1212953E+003	2.3299985E+002	1.000000000000000E+000	10	4.6639293E-003	6.9562683E-004	0	-6.832570662441948E-005	1.3275261E-001	6.7989551E-002	1.4915037E-001	2.7119358E+001	2.3299984E+005	4.5494253E+005	5.1113759E+005	-6.2880642E+001	0.0000000E+000	0.0000000E+000	0.0000000E+000	6.2880642E+001	0.0000000E+000	0.0000000E+000	0.0000000E+000	-6.2880642E+001	0.0000000E+000	0.0000000E+000	0.0000000E+000	-2.7119358E+001	0.0000000E+000	0.0000000E+000	0.0000000E+000	2.7119358E+001	1.9525442E+000	6.2880646E+001	-3.889055461981717E-006	-8.0843438E-006	9.0381484E+003
3.1629555E+001	6.9215236E+000	3.0532119E+000	7.5650244E+000	-2.3803162E+001	1.162143791196286E+001	2.7030751E-001	-3.1872727E-002	1.6480488E+003	2.6844995E+002	1.000000000000000E+000	10	4.6630627E-003	6.1639759E-004	0	-7.183268417605885E-005	1.2094308E-001	5.3350229E-002	1.3218728E-001	2.3803162E+001	2.6844997E+005	6.0856663E+005	6.6514563E+005	-6.6196838E+001	0.0000000E+000	0.0000000E+000	0.0000000E+000	6.6196838E+001	0.0000000E+000	0.0000000E+000	0.0000000E+000	-6.6196838E+001	0.0000000E+000	0.0000000E+000	0.0000000E+000	-2.3803162E+001	0.0000000E+000	0.0000000E+000	0.0000000E+000	2.3803162E+001	2.2669647E+000	6.6196838E+001	-3.506977551639371E-006	-8.6154378E-006	8.4808408E+003
2.1551722E+001	7.8058219E+000	2.8941464E+000	8.3250790E+000	-2.0343151E+001	1.206032497281558E+001	2.7029383E-001	-3.3886209E-002	2.5516296E+003	3.0837695E+002	1.000000000000000E+000	10	4.6639512E-003	5.6022906E-004	0	-7.555894105621135E-005	1.1262685E-001	4.1758392E-002	1.2011898E-001	2.0343151E+001	3.0837703E+005	8.3172563E+005	8.8705350E+005	-6.9656845E+001	0.0000000E+000	0.0000000E+000	0.0000000E+000	6.9656845E+001	0.0000000E+000	0.0000000E+000	0.0000000E+000	-6.9656845E+001	0.0000000E+000	0.0000000E+000	0.0000000E+000	-2.0343151E+001	0.0000000E+000	0.0000000E+000	0.0000000E+000	2.0343151E+001	2.6971068E+000	6.9656845E+001	-3.726256880152496E-006	-9.1592337E-006	7.9765142E+003
1.4685154E+001	8.5727186E+000	2.6285901E+000	8.9666595E+000	-1.7046730E+001	1.253805950219976E+001	2.7031404E-001	-2.5903068E-002	4.1230513E+003	3.5432608E+002	1.000000000000000E+000	10	4.6653817E-003	5.2030321E-004	0	-7.958176864669399E-005	1.0662454E-001	3.2693509E-002	1.1152425E-001	1.7046730E+001	3.5432609E+005	1.1555768E+006	1.2086789E+006	-7.2953270E+001	0.0000000E+000	0.0000000E+000	0.0000000E+000	7.2953270E+001	0.0000000E+000	0.0000000E+000	0.0000000E+000	-7.2953270E+001	0.0000000E+000	0.0000000E+000	0.0000000E+000	-1.7046730E+001	0.0000000E+000	0.0000000E+000	0.0000000E+000	1.7046730E+001	3.2613373E+000	7.2953270E+001	-4.022827590482645E-006	-7.0019632E-006	1.0435599E+004
