EC-Lab ASCII FILE
Nb header lines : 63                          

Potentio Electrochemical Impedance Spectroscopy

Run on channel : 4 (SN 66756)
User : 
CE vs. WE compliance from -10 V to 10 V
Electrode connection : standard
Potential control : Ewe
Ewe ctrl range : min = -10.00 V, max = 10.00 V
Safety Limits :
	Do not start on E overload
Acquisition started on : 09/22/2025 08:43:58.498
Loaded Setting File :  C:\Users\Celltest\OneDrive - store-dot.com\Documents\EC-Lab\Data\Gyutae\17739_R277_UA674_SOC00_C03.mpr
Saved on :
	File : 17689_R288_UA670_SOC00_C04.mpr
	Directory : C:\Users\Celltest\OneDrive - store-dot.com\Documents\EC-Lab\Data\Charmaine\
	Host : 169.254.61.224
Device : VMP-3e (SN .003165)
Address : USB
EC-LAB for windows v11.62 (software)
Internet server v27.00 (firmware)
Command interpretor v12.03 (firmware)
Electrode material : 
Initial state : 
Electrolyte : 
Comments : 
Electrode surface area : 0.001 cm²
Characteristic mass : 0.001 g
Equivalent Weight : 0.000 g/eq.
Density : 0.000 g/cm3
Volume (V) : 0.001 cm³
Cycle Definition : Charge/Discharge alternance
Mode                Single sine         
E (V)               0.0000              
vs.                 Eoc                 
tE (h:m:s)          0:00:0.0000         
record              0                   
dI                  0.000               
unit dI             mA                  
dt (s)              0.000               
fi                  100.000             
unit fi             kHz                 
ff                  10.000              
unit ff             mHz                 
Nd                  6                   
Points              per decade          
spacing             Logarithmic         
Va (mV)             5.0                 
pw                  0.10                
Na                  2                   
corr                0                   
E range min (V)     -10.000             
E range max (V)     10.000              
I Range             Auto                
Bandwidth           5                   
nc cycles           0                   
goto Ns'            0                   
nr cycles           0                   
inc. cycle          0                   

freq/Hz	Re(Z)/Ohm	-Im(Z)/Ohm	|Z|/Ohm	Phase(Z)/deg	time/s	<Ewe>/V	<I>/mA	Cs/µF	Cp/µF	cycle number	I Range	|Ewe|/V	|I|/A	Ns	(Q-Qo)/mA.h	Re(Y)/Ohm-1	Im(Y)/Ohm-1	|Y|/Ohm-1	Phase(Y)/deg	Re(C)/nF	Im(C)/nF	|C|/nF	Phase(C)/deg	Re(M)	Im(M)	|M|	Phase(M)/deg	Re(Permittivity)	Im(Permittivity)	|Permittivity|	Phase(Permittivity)/deg	Re(Resistivity)/Ohm.cm	Im(Resistivity)/Ohm.cm	|Resistivity|/Ohm.cm	Phase(Resistivity)/deg	Re(Conductivity)/mS/cm	Im(Conductivity)/mS/cm	|Conductivity|/mS/cm	Phase(Conductivity)/deg	Tan(Delta)	Loss Angle(Delta)/deg	dq/mA.h	Pwe/W	Rwe/Ohm	
1.0000371E+005	9.2668092E-001	1.8704857E-001	9.4537014E-001	-1.1411699E+001	1.865500035259174E+000	2.7622682E-001	-3.2601703E-002	8.5084333E+000	3.3308464E-001	1.000000000000000E+000	9	4.8282654E-003	5.1072752E-003	0	-6.643343410092510E-006	1.0368751E+000	2.0929103E-001	1.0577867E+000	1.1411699E+001	3.3308463E+002	1.6501768E+003	1.6834574E+003	-7.8588303E+001	0.0000000E+000	0.0000000E+000	0.0000000E+000	7.8588303E+001	0.0000000E+000	0.0000000E+000	0.0000000E+000	-7.8588303E+001	0.0000000E+000	0.0000000E+000	0.0000000E+000	-1.1411699E+001	0.0000000E+000	0.0000000E+000	0.0000000E+000	1.1411699E+001	4.9542260E+000	7.8588303E+001	-6.643343410092510E-006	-9.0054646E-006	8.4727725E+003
6.8132047E+004	9.6812141E-001	1.9841495E-001	9.8824471E-001	-1.1582290E+001	2.302497922646580E+000	2.7624214E-001	-3.9706830E-002	1.1773193E+001	4.7458509E-001	1.000000000000000E+000	9	5.4154024E-003	5.4798191E-003	0	-1.259747511482177E-005	9.9129021E-001	2.0316336E-001	1.0118951E+000	1.1582290E+001	4.7458511E+002	2.3156318E+003	2.3637644E+003	-7.8417709E+001	0.0000000E+000	0.0000000E+000	0.0000000E+000	7.8417709E+001	0.0000000E+000	0.0000000E+000	0.0000000E+000	-7.8417709E+001	0.0000000E+000	0.0000000E+000	0.0000000E+000	-1.1582290E+001	0.0000000E+000	0.0000000E+000	0.0000000E+000	1.1582290E+001	4.8792763E+000	7.8417709E+001	-5.954131704729257E-006	-1.0968700E-005	6.9570435E+003
4.6420355E+004	1.0128139E+000	2.1420787E-001	1.0352184E+000	-1.1941944E+001	2.739491996733705E+000	2.7615735E-001	-3.1128453E-002	1.6005758E+001	6.8530387E-001	1.000000000000000E+000	9	5.4944726E-003	5.3075496E-003	0	-2.408629594525943E-005	9.4507378E-001	1.9988097E-001	9.6597975E-001	1.1941944E+001	6.8530359E+002	3.2402417E+003	3.3119189E+003	-7.8058060E+001	0.0000000E+000	0.0000000E+000	0.0000000E+000	7.8058060E+001	0.0000000E+000	0.0000000E+000	0.0000000E+000	-7.8058060E+001	0.0000000E+000	0.0000000E+000	0.0000000E+000	-1.1941944E+001	0.0000000E+000	0.0000000E+000	0.0000000E+000	1.1941944E+001	4.7281823E+000	7.8058060E+001	-1.148882083043766E-005	-8.5963511E-006	8.8715410E+003
3.1621139E+004	1.0624098E+000	2.3993063E-001	1.0891653E+000	-1.2725981E+001	3.318480610934785E+000	2.7615896E-001	-3.0028192E-002	2.0977655E+001	1.0179834E+000	1.000000000000000E+000	9	5.0940239E-003	4.6769977E-003	0	-2.411722987507366E-005	8.9558005E-001	2.0225446E-001	9.1813427E-001	1.2725981E+001	1.0179836E+003	4.5076172E+003	4.6211367E+003	-7.7274017E+001	0.0000000E+000	0.0000000E+000	0.0000000E+000	7.7274017E+001	0.0000000E+000	0.0000000E+000	0.0000000E+000	-7.7274017E+001	0.0000000E+000	0.0000000E+000	0.0000000E+000	-1.2725981E+001	0.0000000E+000	0.0000000E+000	0.0000000E+000	1.2725981E+001	4.4279871E+000	7.7274017E+001	-3.093392981423301E-008	-8.2925544E-006	9.1966563E+003
2.1544684E+004	1.1139457E+000	2.6789987E-001	1.1457074E+000	-1.3522619E+001	3.896488398400834E+000	2.7616513E-001	-3.1594697E-002	2.7574493E+001	1.5076659E+000	1.000000000000000E+000	9	5.0126477E-003	4.3751555E-003	0	-2.872045080749215E-005	8.4862655E-001	2.0409158E-001	8.7282324E-001	1.3522619E+001	1.5076660E+003	6.2689766E+003	6.4477222E+003	-7.6477379E+001	0.0000000E+000	0.0000000E+000	0.0000000E+000	7.6477379E+001	0.0000000E+000	0.0000000E+000	0.0000000E+000	-7.6477379E+001	0.0000000E+000	0.0000000E+000	0.0000000E+000	-1.3522619E+001	0.0000000E+000	0.0000000E+000	0.0000000E+000	1.3522619E+001	4.1580672E+000	7.6477379E+001	-4.603220932418481E-006	-8.7253538E-006	8.7408691E+003
1.4678594E+004	1.1736809E+000	3.0207741E-001	1.2119313E+000	-1.4433309E+001	4.192489425797248E+000	2.7616471E-001	-3.4261473E-002	3.5893635E+001	2.2299640E+000	1.000000000000000E+000	9	4.9528070E-003	4.0867059E-003	0	-3.176087885593167E-005	7.9908687E-001	2.0566589E-001	8.2512927E-001	1.4433309E+001	2.2299648E+003	8.6642236E+003	8.9465928E+003	-7.5566689E+001	0.0000000E+000	0.0000000E+000	0.0000000E+000	7.5566689E+001	0.0000000E+000	0.0000000E+000	0.0000000E+000	-7.5566689E+001	0.0000000E+000	0.0000000E+000	0.0000000E+000	-1.4433309E+001	0.0000000E+000	0.0000000E+000	0.0000000E+000	1.4433309E+001	3.8853648E+000	7.5566689E+001	-3.040428048439529E-006	-9.4618099E-006	8.0605034E+003
1.0002226E+004	1.2392428E+000	3.4430271E-001	1.2861831E+000	-1.5527056E+001	4.629482726537390E+000	2.7615079E-001	-2.9543383E-002	4.6215012E+001	3.3117559E+000	1.000000000000000E+000	9	4.9467110E-003	3.8460395E-003	0	-3.344747800414270E-005	7.4911892E-001	2.0813006E-001	7.7749425E-001	1.5527056E+001	3.3117554E+003	1.1919945E+004	1.2371452E+004	-7.4472946E+001	0.0000000E+000	0.0000000E+000	0.0000000E+000	7.4472946E+001	0.0000000E+000	0.0000000E+000	0.0000000E+000	-7.4472946E+001	0.0000000E+000	0.0000000E+000	0.0000000E+000	-1.5527056E+001	0.0000000E+000	0.0000000E+000	0.0000000E+000	1.5527056E+001	3.5992827E+000	7.4472946E+001	-1.686599148211022E-006	-8.1584285E-006	9.3472979E+003
6.8110674E+003	1.3215894E+000	3.9304912E-001	1.3787987E+000	-1.6562815E+001	5.007518157799495E+000	2.7601534E-001	-1.5068501E-001	5.9450859E+001	4.8311443E+000	1.000000000000000E+000	9	4.6253824E-003	3.3546465E-003	0	-4.867335593806476E-005	6.9517601E-001	2.0674980E-001	7.2526902E-001	1.6562815E+001	4.8311440E+003	1.6244253E+004	1.6947439E+004	-7.3437187E+001	0.0000000E+000	0.0000000E+000	0.0000000E+000	7.3437187E+001	0.0000000E+000	0.0000000E+000	0.0000000E+000	-7.3437187E+001	0.0000000E+000	0.0000000E+000	0.0000000E+000	-1.6562815E+001	0.0000000E+000	0.0000000E+000	0.0000000E+000	1.6562815E+001	3.3624024E+000	7.3437187E+001	-1.522587793392206E-005	-4.1591375E-005	1.8317372E+003
4.6414854E+003	1.4099008E+000	4.5478624E-001	1.4814354E+000	-1.7877943E+001	5.701699444172846E+000	2.7611023E-001	-5.0840151E-002	7.5397308E+001	7.1056700E+000	1.000000000000000E+000	9	4.9660397E-003	3.3521811E-003	0	-6.218976979389684E-005	6.4242601E-001	2.0722488E-001	6.7502099E-001	1.7877943E+001	7.1056709E+003	2.2028570E+004	2.3146240E+004	-7.2122055E+001	0.0000000E+000	0.0000000E+000	0.0000000E+000	7.2122055E+001	0.0000000E+000	0.0000000E+000	0.0000000E+000	-7.2122055E+001	0.0000000E+000	0.0000000E+000	0.0000000E+000	-1.7877943E+001	0.0000000E+000	0.0000000E+000	0.0000000E+000	1.7877943E+001	3.1001394E+000	7.2122055E+001	-1.351641385583208E-005	-1.4037486E-005	5.4309482E+003
3.1610117E+003	1.5081737E+000	5.2109134E-001	1.5956579E+000	-1.9060619E+001	6.168712453021726E+000	2.7611297E-001	-4.9534753E-002	9.6622925E+001	1.0304532E+001	1.000000000000000E+000	9	4.8730131E-003	3.0539208E-003	0	-6.774827335974099E-005	5.9234101E-001	2.0466062E-001	6.2670076E-001	1.9060619E+001	1.0304535E+004	2.9823996E+004	3.1553988E+004	-7.0939377E+001	0.0000000E+000	0.0000000E+000	0.0000000E+000	7.0939377E+001	0.0000000E+000	0.0000000E+000	0.0000000E+000	-7.0939377E+001	0.0000000E+000	0.0000000E+000	0.0000000E+000	-1.9060619E+001	0.0000000E+000	0.0000000E+000	0.0000000E+000	1.9060619E+001	2.8942597E+000	7.0939377E+001	-5.558503565844151E-006	-1.3677188E-005	5.5741265E+003
2.1556899E+003	1.6152884E+000	6.0218543E-001	1.7238863E+000	-2.0445641E+001	6.635700528531743E+000	2.7616194E-001	-5.0989356E-002	1.2260371E+002	1.4960526E+001	1.000000000000000E+000	9	4.8156194E-003	2.7934671E-003	0	-7.574668718020742E-005	5.4354167E-001	2.0263435E-001	5.8008468E-001	2.0445641E+001	1.4960527E+004	4.0129773E+004	4.2827750E+004	-6.9554359E+001	0.0000000E+000	0.0000000E+000	0.0000000E+000	6.9554359E+001	0.0000000E+000	0.0000000E+000	0.0000000E+000	-6.9554359E+001	0.0000000E+000	0.0000000E+000	0.0000000E+000	-2.0445641E+001	0.0000000E+000	0.0000000E+000	0.0000000E+000	2.0445641E+001	2.6823771E+000	6.9554359E+001	-7.998413820466433E-006	-1.4081319E-005	5.4160703E+003
1.4685898E+003	1.7442650E+000	7.1135145E-001	1.8837413E+000	-2.2186766E+001	7.102948017389281E+000	2.7620229E-001	-5.1418286E-002	1.5234752E+002	2.1725079E+001	1.000000000000000E+000	9	4.7888751E-003	2.5422149E-003	0	-8.417193510711917E-005	4.9155256E-001	2.0046644E-001	5.3085846E-001	2.2186766E+001	2.1725078E+004	5.3270844E+004	5.7530527E+004	-6.7813232E+001	0.0000000E+000	0.0000000E+000	0.0000000E+000	6.7813232E+001	0.0000000E+000	0.0000000E+000	0.0000000E+000	-6.7813232E+001	0.0000000E+000	0.0000000E+000	0.0000000E+000	-2.2186766E+001	0.0000000E+000	0.0000000E+000	0.0000000E+000	2.2186766E+001	2.4520438E+000	6.7813232E+001	-8.425247926911749E-006	-1.4201848E-005	5.3716743E+003
1.0003202E+003	1.8789474E+000	8.6254823E-001	2.0674701E+000	-2.4657928E+001	7.571708892988681E+000	2.7611095E-001	-5.0728284E-002	1.8445808E+002	3.2105988E+001	1.000000000000000E+000	9	4.7661182E-003	2.3052900E-003	0	-8.927914887727497E-005	4.3957818E-001	2.0179245E-001	4.8368293E-001	2.4657928E+001	3.2105986E+004	6.9938648E+004	7.6955891E+004	-6.5342072E+001	0.0000000E+000	0.0000000E+000	0.0000000E+000	6.5342072E+001	0.0000000E+000	0.0000000E+000	0.0000000E+000	-6.5342072E+001	0.0000000E+000	0.0000000E+000	0.0000000E+000	-2.4657928E+001	0.0000000E+000	0.0000000E+000	0.0000000E+000	2.4657928E+001	2.1783679E+000	6.5342072E+001	-5.107213770155796E-006	-1.4006634E-005	5.4429390E+003
6.8108978E+002	2.0575216E+000	1.0217587E+000	2.2972562E+000	-2.6408846E+001	8.037442541710334E+000	2.7609831E-001	-5.3171262E-002	2.2870068E+002	4.5242359E+001	1.000000000000000E+000	9	4.7595492E-003	2.0718407E-003	0	-9.534511263047655E-005	3.8987514E-001	1.9361073E-001	4.3530190E-001	2.6408846E+001	4.5242352E+004	9.1104813E+004	1.0171999E+005	-6.3591156E+001	0.0000000E+000	0.0000000E+000	0.0000000E+000	6.3591156E+001	0.0000000E+000	0.0000000E+000	0.0000000E+000	-6.3591156E+001	0.0000000E+000	0.0000000E+000	0.0000000E+000	-2.6408846E+001	0.0000000E+000	0.0000000E+000	0.0000000E+000	2.6408846E+001	2.0137060E+000	6.3591156E+001	-6.065963753201583E-006	-1.4680496E-005	5.1926230E+003
4.6396069E+002	2.2727649E+000	1.2506472E+000	2.5941432E+000	-2.8822916E+001	8.506179683987284E+000	2.7611744E-001	-5.2425329E-002	2.7428629E+002	6.3750832E+001	1.000000000000000E+000	9	4.7457744E-003	1.8294189E-003	0	-1.025644153498514E-004	3.3772767E-001	1.8584330E-001	3.8548374E-001	2.8822916E+001	6.3750832E+004	1.1585255E+005	1.3223458E+005	-6.1177086E+001	0.0000000E+000	0.0000000E+000	0.0000000E+000	6.1177086E+001	0.0000000E+000	0.0000000E+000	0.0000000E+000	-6.1177086E+001	0.0000000E+000	0.0000000E+000	0.0000000E+000	-2.8822916E+001	0.0000000E+000	0.0000000E+000	0.0000000E+000	2.8822916E+001	1.8172710E+000	6.1177086E+001	-7.219302719374863E-006	-1.4475548E-005	5.2668711E+003
3.1631589E+002	2.5728271E+000	1.5301536E+000	2.9934611E+000	-3.0741486E+001	9.225914091541199E+000	2.7616957E-001	-3.3502948E-002	3.2882443E+002	8.5918549E+001	1.000000000000000E+000	10	4.7843028E-003	1.5982512E-003	0	-1.114305776242658E-004	2.8711995E-001	1.7076066E-001	3.3406147E-001	3.0741486E+001	8.5918555E+004	1.4446495E+005	1.6808367E+005	-5.9258514E+001	0.0000000E+000	0.0000000E+000	0.0000000E+000	5.9258514E+001	0.0000000E+000	0.0000000E+000	0.0000000E+000	-5.9258514E+001	0.0000000E+000	0.0000000E+000	0.0000000E+000	-3.0741486E+001	0.0000000E+000	0.0000000E+000	0.0000000E+000	3.0741486E+001	1.6814175E+000	5.9258514E+001	-8.866162274414412E-006	-9.2524942E-006	8.2431426E+003
2.1534457E+002	2.9662251E+000	1.8470491E+000	3.4942927E+000	-3.1910255E+001	9.693421393720200E+000	2.7616474E-001	-3.3051591E-002	4.0013614E+002	1.1180110E+002	1.000000000000000E+000	10	4.7755926E-003	1.3666836E-003	0	-1.142277818514501E-004	2.4293244E-001	1.5127246E-001	2.8618094E-001	3.1910255E+001	1.1180111E+005	1.7954434E+005	2.1150806E+005	-5.8089745E+001	0.0000000E+000	0.0000000E+000	0.0000000E+000	5.8089745E+001	0.0000000E+000	0.0000000E+000	0.0000000E+000	-5.8089745E+001	0.0000000E+000	0.0000000E+000	0.0000000E+000	-3.1910255E+001	0.0000000E+000	0.0000000E+000	0.0000000E+000	3.1910255E+001	1.6059265E+000	5.8089745E+001	-2.797204227184325E-006	-9.1276843E-006	8.3555654E+003
1.4673740E+002	3.4591203E+000	2.1758299E+000	4.0865326E+000	-3.2170406E+001	1.015640133569832E+001	2.7613658E-001	-3.3939376E-002	4.9848761E+002	1.4131697E+002	1.000000000000000E+000	10	4.7513549E-003	1.1626862E-003	0	-1.189058325816295E-004	2.0713606E-001	1.3029118E-001	2.4470623E-001	3.2170406E+001	1.4131698E+005	2.2466483E+005	2.6541434E+005	-5.7829594E+001	0.0000000E+000	0.0000000E+000	0.0000000E+000	5.7829594E+001	0.0000000E+000	0.0000000E+000	0.0000000E+000	-5.7829594E+001	0.0000000E+000	0.0000000E+000	0.0000000E+000	-3.2170406E+001	0.0000000E+000	0.0000000E+000	0.0000000E+000	3.2170406E+001	1.5897936E+000	5.7829590E+001	-4.678050730179360E-006	-9.3719036E-006	8.1361714E+003
1.0003201E+002	4.0977602E+000	2.4921255E+000	4.7960744E+000	-3.1306616E+001	1.062468599800195E+001	2.7613962E-001	-3.2029528E-002	6.3842694E+002	1.7237697E+002	1.000000000000000E+000	10	4.7456315E-003	9.8948251E-004	0	-1.238972774276060E-004	1.7814545E-001	1.0834231E-001	2.0850386E-001	3.1306616E+001	1.7237697E+005	2.8343656E+005	3.3173800E+005	-5.8693382E+001	0.0000000E+000	0.0000000E+000	0.0000000E+000	5.8693382E+001	0.0000000E+000	0.0000000E+000	0.0000000E+000	-5.8693382E+001	0.0000000E+000	0.0000000E+000	0.0000000E+000	-3.1306616E+001	0.0000000E+000	0.0000000E+000	0.0000000E+000	3.1306616E+001	1.6442833E+000	5.8693382E+001	-4.991444845976536E-006	-8.8446213E-006	8.6214072E+003
6.8103981E+001	4.8952160E+000	2.7405937E+000	5.6101689E+000	-2.9242346E+001	1.110332367403316E+001	2.7617428E-001	-2.9582536E-002	8.5271313E+002	2.0348874E+002	1.000000000000000E+000	10	4.7621545E-003	8.4884331E-004	0	-1.282576049041268E-004	1.5553208E-001	8.7074861E-002	1.7824775E-001	2.9242346E+001	2.0348878E+005	3.6346922E+005	4.1655438E+005	-6.0757652E+001	0.0000000E+000	0.0000000E+000	0.0000000E+000	6.0757652E+001	0.0000000E+000	0.0000000E+000	0.0000000E+000	-6.0757652E+001	0.0000000E+000	0.0000000E+000	0.0000000E+000	-2.9242346E+001	0.0000000E+000	0.0000000E+000	0.0000000E+000	2.9242346E+001	1.7861881E+000	6.0757652E+001	-4.360327476520773E-006	-8.1699354E-006	9.3357197E+003
4.6441547E+001	5.6989207E+000	2.8449070E+000	6.3695521E+000	-2.6528418E+001	1.155853662898880E+001	2.7614030E-001	-3.4752578E-002	1.2046071E+003	2.4030553E+002	1.000000000000000E+000	10	4.7260844E-003	7.4198062E-004	0	-1.326531305286529E-004	1.4046717E-001	7.0121355E-002	1.5699691E-001	2.6528418E+001	2.4030555E+005	4.8138028E+005	5.3802763E+005	-6.3471581E+001	0.0000000E+000	0.0000000E+000	0.0000000E+000	6.3471581E+001	0.0000000E+000	0.0000000E+000	0.0000000E+000	-6.3471581E+001	0.0000000E+000	0.0000000E+000	0.0000000E+000	-2.6528418E+001	0.0000000E+000	0.0000000E+000	0.0000000E+000	2.6528418E+001	2.0032010E+000	6.3471581E+001	-4.395525624526056E-006	-9.5965870E-006	7.9458940E+003
3.1629555E+001	6.6261916E+000	2.7865138E+000	7.1882596E+000	-2.2808226E+001	1.200543145017582E+001	2.7615616E-001	-3.5707496E-002	1.8057842E+003	2.7135681E+002	1.000000000000000E+000	10	4.7634947E-003	6.6267705E-004	0	-1.366136835030112E-004	1.2823793E-001	5.3927928E-002	1.3911574E-001	2.2808226E+001	2.7135688E+005	6.4527306E+005	7.0000850E+005	-6.7191772E+001	0.0000000E+000	0.0000000E+000	0.0000000E+000	6.7191772E+001	0.0000000E+000	0.0000000E+000	0.0000000E+000	-6.7191772E+001	0.0000000E+000	0.0000000E+000	0.0000000E+000	-2.2808226E+001	0.0000000E+000	0.0000000E+000	0.0000000E+000	2.2808226E+001	2.3779504E+000	6.7191772E+001	-3.960552974358316E-006	-9.8608452E-006	7.7338428E+003
2.1551722E+001	7.3079357E+000	2.5936966E+000	7.7545590E+000	-1.9540541E+001	1.244436376439990E+001	2.7614912E-001	-3.7414055E-002	2.8472065E+003	3.1852469E+002	1.000000000000000E+000	10	4.7125346E-003	6.0771150E-004	0	-1.403305371018553E-004	1.2152915E-001	4.3132529E-002	1.2895639E-001	1.9540541E+001	3.1852475E+005	8.9746744E+005	9.5231600E+005	-7.0459457E+001	0.0000000E+000	0.0000000E+000	0.0000000E+000	7.0459457E+001	0.0000000E+000	0.0000000E+000	0.0000000E+000	-7.0459457E+001	0.0000000E+000	0.0000000E+000	0.0000000E+000	-1.9540541E+001	0.0000000E+000	0.0000000E+000	0.0000000E+000	1.9540541E+001	2.8175755E+000	7.0459457E+001	-3.716853598844159E-006	-1.0331859E-005	7.3808926E+003
1.4685154E+001	8.0121536E+000	2.4257858E+000	8.3713226E+000	-1.6844383E+001	1.292204530708841E+001	2.7617732E-001	-2.8273260E-002	4.4677534E+003	3.7515082E+002	1.000000000000000E+000	10	4.7431807E-003	5.6659873E-004	0	-1.446701798717065E-004	1.1433024E-001	3.4614995E-002	1.1945543E-001	1.6844383E+001	3.7515084E+005	1.2390899E+006	1.2946358E+006	-7.3155617E+001	0.0000000E+000	0.0000000E+000	0.0000000E+000	7.3155617E+001	0.0000000E+000	0.0000000E+000	0.0000000E+000	-7.3155617E+001	0.0000000E+000	0.0000000E+000	0.0000000E+000	-1.6844383E+001	0.0000000E+000	0.0000000E+000	0.0000000E+000	1.6844383E+001	3.3029106E+000	7.3155617E+001	-4.339642769851112E-006	-7.8084331E-006	9.7681455E+003
