EC-Lab ASCII FILE
Nb header lines : 63                          

Potentio Electrochemical Impedance Spectroscopy

Run on channel : 3 (SN 65921)
User : 
CE vs. WE compliance from -10 V to 10 V
Electrode connection : standard
Potential control : Ewe
Ewe ctrl range : min = -10.00 V, max = 10.00 V
Safety Limits :
	Do not start on E overload
Acquisition started on : 09/22/2025 08:43:48.679
Loaded Setting File :  C:\Users\Celltest\OneDrive - store-dot.com\Documents\EC-Lab\Data\Gyutae\17738_R277_UA674_SOC00_C02.mpr
Saved on :
	File : 17688_R288_UA670_SOC00_C03.mpr
	Directory : C:\Users\Celltest\OneDrive - store-dot.com\Documents\EC-Lab\Data\Charmaine\
	Host : 169.254.61.224
Device : VMP-3e (SN .003165)
Address : USB
EC-LAB for windows v11.62 (software)
Internet server v27.00 (firmware)
Command interpretor v12.03 (firmware)
Electrode material : 
Initial state : 
Electrolyte : 
Comments : 
Electrode surface area : 0.001 cm²
Characteristic mass : 0.001 g
Equivalent Weight : 0.000 g/eq.
Density : 0.000 g/cm3
Volume (V) : 0.001 cm³
Cycle Definition : Charge/Discharge alternance
Mode                Single sine         
E (V)               0.0000              
vs.                 Eoc                 
tE (h:m:s)          0:00:0.0000         
record              0                   
dI                  0.000               
unit dI             mA                  
dt (s)              0.000               
fi                  100.000             
unit fi             kHz                 
ff                  10.000              
unit ff             mHz                 
Nd                  6                   
Points              per decade          
spacing             Logarithmic         
Va (mV)             5.0                 
pw                  0.10                
Na                  2                   
corr                0                   
E range min (V)     -10.000             
E range max (V)     10.000              
I Range             Auto                
Bandwidth           5                   
nc cycles           0                   
goto Ns'            0                   
nr cycles           0                   
inc. cycle          0                   

freq/Hz	Re(Z)/Ohm	-Im(Z)/Ohm	|Z|/Ohm	Phase(Z)/deg	time/s	<Ewe>/V	<I>/mA	Cs/µF	Cp/µF	cycle number	I Range	|Ewe|/V	|I|/A	Ns	(Q-Qo)/mA.h	Re(Y)/Ohm-1	Im(Y)/Ohm-1	|Y|/Ohm-1	Phase(Y)/deg	Re(C)/nF	Im(C)/nF	|C|/nF	Phase(C)/deg	Re(M)	Im(M)	|M|	Phase(M)/deg	Re(Permittivity)	Im(Permittivity)	|Permittivity|	Phase(Permittivity)/deg	Re(Resistivity)/Ohm.cm	Im(Resistivity)/Ohm.cm	|Resistivity|/Ohm.cm	Phase(Resistivity)/deg	Re(Conductivity)/mS/cm	Im(Conductivity)/mS/cm	|Conductivity|/mS/cm	Phase(Conductivity)/deg	Tan(Delta)	Loss Angle(Delta)/deg	dq/mA.h	Pwe/W	Rwe/Ohm	
1.0000371E+005	9.6698582E-001	1.8145612E-001	9.8386377E-001	-1.0628028E+001	1.864494968525833E+000	2.7766582E-001	2.5894033E-002	8.7706623E+000	2.9833600E-001	1.000000000000000E+000	9	4.6754368E-003	4.7521181E-003	0	-1.205648920011138E-005	9.9896485E-001	1.8745703E-001	1.0164009E+000	1.0628028E+001	2.9833606E+002	1.5898429E+003	1.6175923E+003	-7.9371971E+001	0.0000000E+000	0.0000000E+000	0.0000000E+000	7.9371971E+001	0.0000000E+000	0.0000000E+000	0.0000000E+000	-7.9371971E+001	0.0000000E+000	0.0000000E+000	0.0000000E+000	-1.0628028E+001	0.0000000E+000	0.0000000E+000	0.0000000E+000	1.0628028E+001	5.3290339E+000	7.9371971E+001	-1.205648920011138E-005	7.1898880E-006	1.0723159E+004
6.8132047E+004	1.0117139E+000	2.0471284E-001	1.0322171E+000	-1.1438934E+001	2.302482882660115E+000	2.7762699E-001	2.4588775E-002	1.1410997E+001	4.4881940E-001	1.000000000000000E+000	9	5.4548886E-003	5.2846326E-003	0	-2.073827488870463E-005	9.4954497E-001	1.9213343E-001	9.6878839E-001	1.1438934E+001	4.4881940E+002	2.2181160E+003	2.2630681E+003	-7.8561066E+001	0.0000000E+000	0.0000000E+000	0.0000000E+000	7.8561066E+001	0.0000000E+000	0.0000000E+000	0.0000000E+000	-7.8561066E+001	0.0000000E+000	0.0000000E+000	0.0000000E+000	-1.1438934E+001	0.0000000E+000	0.0000000E+000	0.0000000E+000	1.1438934E+001	4.9421124E+000	7.8561066E+001	-8.681785688593259E-006	6.8265076E-006	1.1290802E+004
4.6420355E+004	1.0594132E+000	2.2870368E-001	1.0838181E+000	-1.2181938E+001	2.880478030099766E+000	2.7765557E-001	2.9623387E-002	1.4991274E+001	6.6753191E-001	1.000000000000000E+000	9	5.0572469E-003	4.6661398E-003	0	-2.324774687094355E-005	9.0188795E-001	1.9469748E-001	9.2266405E-001	1.2181938E+001	6.6753192E+002	3.0921763E+003	3.1634084E+003	-7.7818062E+001	0.0000000E+000	0.0000000E+000	0.0000000E+000	7.7818062E+001	0.0000000E+000	0.0000000E+000	0.0000000E+000	-7.7818062E+001	0.0000000E+000	0.0000000E+000	0.0000000E+000	-1.2181938E+001	0.0000000E+000	0.0000000E+000	0.0000000E+000	1.2181938E+001	4.6322527E+000	7.7818062E+001	-2.509471982238919E-006	8.2250990E-006	9.3728506E+003
3.1621139E+004	1.1115595E+000	2.6314968E-001	1.1422838E+000	-1.3318947E+001	3.318485677620629E+000	2.7764177E-001	2.3581844E-002	1.9126690E+001	1.0150734E+000	1.000000000000000E+000	9	5.4914593E-003	4.8074387E-003	0	-2.600734204954157E-005	8.5189223E-001	2.0167626E-001	8.7543917E-001	1.3318947E+001	1.0150735E+003	4.2877290E+003	4.4062451E+003	-7.6681053E+001	0.0000000E+000	0.0000000E+000	0.0000000E+000	7.6681053E+001	0.0000000E+000	0.0000000E+000	0.0000000E+000	-7.6681053E+001	0.0000000E+000	0.0000000E+000	0.0000000E+000	-1.3318947E+001	0.0000000E+000	0.0000000E+000	0.0000000E+000	1.3318947E+001	4.2240582E+000	7.6681053E+001	-2.759595178598021E-006	6.5473050E-006	1.1773540E+004
2.1544684E+004	1.1706467E+000	3.0112454E-001	1.2087554E+000	-1.4425416E+001	3.755483138345880E+000	2.7762586E-001	2.3749650E-002	2.4532053E+001	1.5224721E+000	1.000000000000000E+000	9	5.4430491E-003	4.5030196E-003	0	-1.865959256755499E-005	8.0121487E-001	2.0609590E-001	8.2729727E-001	1.4425416E+001	1.5224720E+003	5.9187368E+003	6.1114126E+003	-7.5574585E+001	0.0000000E+000	0.0000000E+000	0.0000000E+000	7.5574585E+001	0.0000000E+000	0.0000000E+000	0.0000000E+000	-7.5574585E+001	0.0000000E+000	0.0000000E+000	0.0000000E+000	-1.4425416E+001	0.0000000E+000	0.0000000E+000	0.0000000E+000	1.4425416E+001	3.8875830E+000	7.5574585E+001	7.347749481986587E-006	6.5935169E-006	1.1689683E+004
1.4678594E+004	1.2404777E+000	3.4369066E-001	1.2872094E+000	-1.5486093E+001	4.192475559102604E+000	2.7762166E-001	2.7087390E-002	3.1547718E+001	2.2490804E+000	1.000000000000000E+000	9	5.2622114E-003	4.0880772E-003	0	-2.355714862648812E-005	7.4867016E-001	2.0742892E-001	7.7687436E-001	1.5486093E+001	2.2490803E+003	8.1175732E+003	8.4233818E+003	-7.4513908E+001	0.0000000E+000	0.0000000E+000	0.0000000E+000	7.4513908E+001	0.0000000E+000	0.0000000E+000	0.0000000E+000	-7.4513908E+001	0.0000000E+000	0.0000000E+000	0.0000000E+000	-1.5486093E+001	0.0000000E+000	0.0000000E+000	0.0000000E+000	1.5486093E+001	3.6092854E+000	7.4513908E+001	-4.897556058933129E-006	7.5200460E-006	1.0249110E+004
1.0002226E+004	1.3195775E+000	3.9503872E-001	1.3774397E+000	-1.6665997E+001	4.629485179873882E+000	2.7763027E-001	2.9175822E-002	4.0279476E+001	3.3129735E+000	1.000000000000000E+000	9	5.0370959E-003	3.6568539E-003	0	-1.976016898274732E-005	6.9548804E-001	2.0820659E-001	7.2598457E-001	1.6665997E+001	3.3129741E+003	1.1066572E+004	1.1551832E+004	-7.3334000E+001	0.0000000E+000	0.0000000E+000	0.0000000E+000	7.3334000E+001	0.0000000E+000	0.0000000E+000	0.0000000E+000	-7.3334000E+001	0.0000000E+000	0.0000000E+000	0.0000000E+000	-1.6665997E+001	0.0000000E+000	0.0000000E+000	0.0000000E+000	1.6665997E+001	3.3403749E+000	7.3334000E+001	3.796979643740795E-006	8.1000917E-006	9.5157656E+003
6.8110674E+003	1.4114432E+000	4.5369509E-001	1.4825691E+000	-1.7819511E+001	5.007524611166446E+000	2.7753875E-001	-5.0800230E-002	5.1503990E+001	4.8232431E+000	1.000000000000000E+000	9	4.9944245E-003	3.3687635E-003	0	-2.110172230136717E-005	6.4214563E-001	2.0641164E-001	6.7450482E-001	1.7819511E+001	4.8232432E+003	1.5005085E+004	1.5761227E+004	-7.2180489E+001	0.0000000E+000	0.0000000E+000	0.0000000E+000	7.2180489E+001	0.0000000E+000	0.0000000E+000	0.0000000E+000	-7.2180489E+001	0.0000000E+000	0.0000000E+000	0.0000000E+000	-1.7819511E+001	0.0000000E+000	0.0000000E+000	0.0000000E+000	1.7819511E+001	3.1109953E+000	7.2180489E+001	-1.341553318619845E-006	-1.4099032E-005	5.4633364E+003
4.6414854E+003	1.5165648E+000	5.2523690E-001	1.6049432E+000	-1.9102673E+001	5.478675353580911E+000	2.7762505E-001	2.6024530E-002	6.5284172E+001	6.9919620E+000	1.000000000000000E+000	9	4.8890985E-003	3.0462751E-003	0	-1.544283119765007E-005	5.8876455E-001	2.0390876E-001	6.2307501E-001	1.9102673E+001	6.9919639E+003	2.0188537E+004	2.1365031E+004	-7.0897324E+001	0.0000000E+000	0.0000000E+000	0.0000000E+000	7.0897324E+001	0.0000000E+000	0.0000000E+000	0.0000000E+000	-7.0897324E+001	0.0000000E+000	0.0000000E+000	0.0000000E+000	-1.9102673E+001	0.0000000E+000	0.0000000E+000	0.0000000E+000	1.9102673E+001	2.8873920E+000	7.0897324E+001	5.658891103717097E-006	7.2250614E-006	1.0667822E+004
3.1610117E+003	1.6377789E+000	6.0090190E-001	1.7445351E+000	-2.0148113E+001	5.945684389094822E+000	2.7759689E-001	2.8691014E-002	8.3789665E+001	9.9411860E+000	1.000000000000000E+000	9	4.7944966E-003	2.7482947E-003	0	-1.295970402751118E-005	5.3814071E-001	1.9744411E-001	5.7321864E-001	2.0148113E+001	9.9411885E+003	2.7095045E+004	2.8861197E+004	-6.9851883E+001	0.0000000E+000	0.0000000E+000	0.0000000E+000	6.9851883E+001	0.0000000E+000	0.0000000E+000	0.0000000E+000	-6.9851883E+001	0.0000000E+000	0.0000000E+000	0.0000000E+000	-2.0148113E+001	0.0000000E+000	0.0000000E+000	0.0000000E+000	2.0148113E+001	2.7255344E+000	6.9851883E+001	2.483127170138889E-006	7.9645361E-006	9.6753945E+003
2.1556899E+003	1.7654812E+000	6.9371098E-001	1.8968813E+000	-2.1451365E+001	6.412674117942515E+000	2.7761427E-001	2.8243478E-002	1.0642785E+002	1.4234167E+001	1.000000000000000E+000	9	4.7363159E-003	2.4968963E-003	0	-8.118417809161150E-006	4.9066237E-001	1.9279608E-001	5.2718109E-001	2.1451365E+001	1.4234166E+004	3.6225684E+004	3.8921867E+004	-6.8548637E+001	0.0000000E+000	0.0000000E+000	0.0000000E+000	6.8548637E+001	0.0000000E+000	0.0000000E+000	0.0000000E+000	-6.8548637E+001	0.0000000E+000	0.0000000E+000	0.0000000E+000	-2.1451365E+001	0.0000000E+000	0.0000000E+000	0.0000000E+000	2.1451365E+001	2.5449810E+000	6.8548637E+001	4.841286218350029E-006	7.8407929E-006	9.8293232E+003
1.4685898E+003	1.9172572E+000	8.0761236E-001	2.0804117E+000	-2.2842442E+001	6.879968513443600E+000	2.7759829E-001	2.3749594E-002	1.3418892E+002	2.0221996E+001	1.000000000000000E+000	9	4.6970323E-003	2.2577418E-003	0	-3.595991862239316E-006	4.4297764E-001	1.8659689E-001	4.8067409E-001	2.2842442E+001	2.0221994E+004	4.8006656E+004	5.2091918E+004	-6.7157562E+001	0.0000000E+000	0.0000000E+000	0.0000000E+000	6.7157562E+001	0.0000000E+000	0.0000000E+000	0.0000000E+000	-6.7157562E+001	0.0000000E+000	0.0000000E+000	0.0000000E+000	-2.2842442E+001	0.0000000E+000	0.0000000E+000	0.0000000E+000	2.2842442E+001	2.3739820E+000	6.7157562E+001	4.522425946921834E-006	6.5928466E-006	1.1688549E+004
1.0003202E+003	2.0849271E+000	9.5427847E-001	2.2929387E+000	-2.4593737E+001	7.348704002397426E+000	2.7759033E-001	2.3991993E-002	1.6672702E+002	2.8878281E+001	1.000000000000000E+000	9	4.6646562E-003	2.0343571E-003	0	-2.391179518735347E-006	3.9655730E-001	1.8150568E-001	4.3612155E-001	2.4593737E+001	2.8878275E+004	6.3093852E+004	6.9388680E+004	-6.5406265E+001	0.0000000E+000	0.0000000E+000	0.0000000E+000	6.5406265E+001	0.0000000E+000	0.0000000E+000	0.0000000E+000	-6.5406265E+001	0.0000000E+000	0.0000000E+000	0.0000000E+000	-2.4593737E+001	0.0000000E+000	0.0000000E+000	0.0000000E+000	2.4593737E+001	2.1848204E+000	6.5406265E+001	1.204812343503969E-006	6.6599455E-006	1.1570124E+004
6.8108978E+002	2.2715001E+000	1.1404175E+000	2.5417051E+000	-2.6659157E+001	7.814434904459631E+000	2.7759972E-001	2.4327623E-002	2.0490471E+002	4.1250511E+001	1.000000000000000E+000	9	4.6432330E-003	1.8268181E-003	0	-6.617377821368994E-007	3.5161099E-001	1.7652798E-001	3.9343667E-001	2.6659157E+001	4.1250504E+004	8.2163359E+004	9.1937055E+004	-6.3340843E+001	0.0000000E+000	0.0000000E+000	0.0000000E+000	6.3340843E+001	0.0000000E+000	0.0000000E+000	0.0000000E+000	-6.3340843E+001	0.0000000E+000	0.0000000E+000	0.0000000E+000	-2.6659157E+001	0.0000000E+000	0.0000000E+000	0.0000000E+000	2.6659157E+001	1.9918146E+000	6.3340843E+001	1.729441736598447E-006	6.7533415E-006	1.1410886E+004
4.6396069E+002	2.5170059E+000	1.3724135E+000	2.8668516E+000	-2.8601707E+001	8.283184153406182E+000	2.7761605E-001	2.4458140E-002	2.4995047E+002	5.7281384E+001	1.000000000000000E+000	9	4.6325317E-003	1.6158952E-003	0	2.997396621568542E-006	3.0624840E-001	1.6698389E-001	3.4881470E-001	2.8601707E+001	5.7281383E+004	1.0505404E+005	1.1965579E+005	-6.1398293E+001	0.0000000E+000	0.0000000E+000	0.0000000E+000	6.1398293E+001	0.0000000E+000	0.0000000E+000	0.0000000E+000	-6.1398293E+001	0.0000000E+000	0.0000000E+000	0.0000000E+000	-2.8601707E+001	0.0000000E+000	0.0000000E+000	0.0000000E+000	2.8601707E+001	1.8339996E+000	6.1398293E+001	3.659134403705442E-006	6.7899723E-006	1.1350661E+004
3.1631589E+002	2.8009834E+000	1.6648841E+000	3.2584271E+000	-3.0726942E+001	9.002941414277302E+000	2.7761310E-001	-2.0265225E-002	3.0221439E+002	7.8898201E+001	1.000000000000000E+000	10	4.6588350E-003	1.4297803E-003	0	3.199036088384067E-006	2.6381198E-001	1.5680793E-001	3.0689654E-001	3.0726942E+001	7.8898203E+004	1.3273748E+005	1.5441556E+005	-5.9273056E+001	0.0000000E+000	0.0000000E+000	0.0000000E+000	5.9273056E+001	0.0000000E+000	0.0000000E+000	0.0000000E+000	-5.9273056E+001	0.0000000E+000	0.0000000E+000	0.0000000E+000	-3.0726942E+001	0.0000000E+000	0.0000000E+000	0.0000000E+000	3.0726942E+001	1.6823895E+000	5.9273056E+001	2.016394668155247E-007	-5.6258923E-006	1.3698989E+004
2.1534457E+002	3.1809161E+000	2.0234785E+000	3.7699723E+000	-3.2461693E+001	9.470409063127590E+000	2.7761513E-001	-1.9616397E-002	3.6524780E+002	1.0522247E+002	1.000000000000000E+000	10	4.6416977E-003	1.2312286E-003	0	-3.288022441039276E-007	2.2380814E-001	1.4237124E-001	2.6525393E-001	3.2461693E+001	1.0522246E+005	1.6541013E+005	1.9604152E+005	-5.7538307E+001	0.0000000E+000	0.0000000E+000	0.0000000E+000	5.7538307E+001	0.0000000E+000	0.0000000E+000	0.0000000E+000	-5.7538307E+001	0.0000000E+000	0.0000000E+000	0.0000000E+000	-3.2461693E+001	0.0000000E+000	0.0000000E+000	0.0000000E+000	3.2461693E+001	1.5720038E+000	5.7538307E+001	-3.527838332487994E-006	-5.4458087E-006	1.4152197E+004
1.4673740E+002	3.6739316E+000	2.4462967E+000	4.4138579E+000	-3.3657761E+001	9.933385725104017E+000	2.7761379E-001	-2.0630658E-002	4.4337399E+002	1.3619205E+002	1.000000000000000E+000	10	4.6272171E-003	1.0483385E-003	0	-2.373888330676386E-006	1.8857946E-001	1.2556611E-001	2.2655918E-001	3.3657761E+001	1.3619205E+005	2.0453786E+005	2.4573158E+005	-5.6342239E+001	0.0000000E+000	0.0000000E+000	0.0000000E+000	5.6342239E+001	0.0000000E+000	0.0000000E+000	0.0000000E+000	-5.6342239E+001	0.0000000E+000	0.0000000E+000	0.0000000E+000	-3.3657761E+001	0.0000000E+000	0.0000000E+000	0.0000000E+000	3.3657761E+001	1.5018340E+000	5.6342239E+001	-2.045086086572459E-006	-5.7273551E-006	1.3456371E+004
1.0003201E+002	4.3315158E+000	2.9197435E+000	5.2236896E+000	-3.3982716E+001	1.040169934740698E+001	2.7760753E-001	-1.9401994E-002	5.4492462E+002	1.7024373E+002	1.000000000000000E+000	10	4.6260455E-003	8.8558969E-004	0	-4.047161797625853E-006	1.5873957E-001	1.0700154E-001	1.9143558E-001	3.3982716E+001	1.7024373E+005	2.5256103E+005	3.0458169E+005	-5.6017284E+001	0.0000000E+000	0.0000000E+000	0.0000000E+000	5.6017284E+001	0.0000000E+000	0.0000000E+000	0.0000000E+000	-5.6017284E+001	0.0000000E+000	0.0000000E+000	0.0000000E+000	-3.3982716E+001	0.0000000E+000	0.0000000E+000	0.0000000E+000	3.3982716E+001	1.4835261E+000	5.6017288E+001	-1.673273466949467E-006	-5.3861395E-006	1.4308196E+004
6.8103981E+001	5.1859646E+000	3.3772388E+000	6.1886969E+000	-3.3073250E+001	1.088034710343345E+001	2.7760461E-001	-1.7889943E-002	6.9196771E+002	2.0606819E+002	1.000000000000000E+000	10	4.6148249E-003	7.4568606E-004	0	-5.817055813042922E-006	1.3540387E-001	8.8178620E-002	1.6158490E-001	3.3073250E+001	2.0606819E+005	3.1643078E+005	3.7761428E+005	-5.6926750E+001	0.0000000E+000	0.0000000E+000	0.0000000E+000	5.6926750E+001	0.0000000E+000	0.0000000E+000	0.0000000E+000	-5.6926750E+001	0.0000000E+000	0.0000000E+000	0.0000000E+000	-3.3073250E+001	0.0000000E+000	0.0000000E+000	0.0000000E+000	3.3073250E+001	1.5355635E+000	5.6926750E+001	-1.769894015417069E-006	-4.9663308E-006	1.5517355E+004
4.6441547E+001	6.2403026E+000	3.7110257E+000	7.2603779E+000	-3.0739393E+001	1.133556035169750E+001	2.7761185E-001	-2.0968135E-002	9.2346301E+002	2.4126202E+002	1.000000000000000E+000	10	4.6100104E-003	6.3495460E-004	0	-8.354610387604528E-006	1.1838241E-001	7.0400462E-002	1.3773388E-001	3.0739393E+001	2.4126205E+005	4.0569591E+005	4.7201328E+005	-5.9260605E+001	0.0000000E+000	0.0000000E+000	0.0000000E+000	5.9260605E+001	0.0000000E+000	0.0000000E+000	0.0000000E+000	-5.9260605E+001	0.0000000E+000	0.0000000E+000	0.0000000E+000	-3.0739393E+001	0.0000000E+000	0.0000000E+000	0.0000000E+000	3.0739393E+001	1.6815573E+000	5.9260605E+001	-2.537554574561606E-006	-5.8210030E-006	1.3239701E+004
3.1629555E+001	7.4219747E+000	3.8411229E+000	8.3570290E+000	-2.7363094E+001	1.178245527963736E+001	2.7760085E-001	-2.2409353E-002	1.3099926E+003	2.7674603E+002	1.000000000000000E+000	10	4.6118521E-003	5.5185310E-004	0	-1.089252729347855E-005	1.0627121E-001	5.4998953E-002	1.1965975E-001	2.7363094E+001	2.7674609E+005	5.3474006E+005	6.0210906E+005	-6.2636906E+001	0.0000000E+000	0.0000000E+000	0.0000000E+000	6.2636906E+001	0.0000000E+000	0.0000000E+000	0.0000000E+000	-6.2636906E+001	0.0000000E+000	0.0000000E+000	0.0000000E+000	-2.7363094E+001	0.0000000E+000	0.0000000E+000	0.0000000E+000	2.7363094E+001	1.9322408E+000	6.2636902E+001	-2.537916905874024E-006	-6.2208555E-006	1.2387723E+004
2.1551722E+001	8.5712090E+000	3.7477837E+000	9.3547583E+000	-2.3617481E+001	1.222133783382014E+001	2.7761909E-001	-2.3572767E-002	1.9704419E+003	3.1626236E+002	1.000000000000000E+000	10	4.6104337E-003	4.9284368E-004	0	-1.466862578908654E-005	9.7943798E-002	4.2826187E-002	1.0689747E-001	2.3617481E+001	3.1626234E+005	7.2329444E+005	7.8941544E+005	-6.6382523E+001	0.0000000E+000	0.0000000E+000	0.0000000E+000	6.6382523E+001	0.0000000E+000	0.0000000E+000	0.0000000E+000	-6.6382523E+001	0.0000000E+000	0.0000000E+000	0.0000000E+000	-2.3617481E+001	0.0000000E+000	0.0000000E+000	0.0000000E+000	2.3617481E+001	2.2870073E+000	6.6382523E+001	-3.776098495607989E-006	-6.5442500E-006	1.1777111E+004
1.4685154E+001	9.6058512E+000	3.4740951E+000	1.0214779E+001	-1.9883257E+001	1.269905948315864E+001	2.7761450E-001	-1.8313179E-002	3.1196072E+003	3.6084888E+002	1.000000000000000E+000	10	4.6118102E-003	4.5148408E-004	0	-1.644764086097712E-005	9.2061475E-002	3.3295363E-002	9.7897373E-002	1.9883257E+001	3.6084881E+005	9.9774488E+005	1.0609933E+006	-7.0116745E+001	0.0000000E+000	0.0000000E+000	0.0000000E+000	7.0116745E+001	0.0000000E+000	0.0000000E+000	0.0000000E+000	-7.0116745E+001	0.0000000E+000	0.0000000E+000	0.0000000E+000	-1.9883257E+001	0.0000000E+000	0.0000000E+000	0.0000000E+000	1.9883257E+001	2.7649937E+000	7.0116745E+001	-1.779015071890575E-006	-5.0840040E-006	1.5159274E+004
