EC-Lab ASCII FILE

Nb header lines : 63                          

Potentio Electrochemical Impedance Spectroscopy

Run on channel : 1 (SN 66354)
User : 
CE vs. WE compliance from -10 V to 10 V
Electrode connection : standard
Potential control : Ewe
Ewe ctrl range : min = -10.00 V, max = 10.00 V
Safety Limits :
	Do not start on E overload
Acquisition started on : 09/22/2025 08:43:30.064
Loaded Setting File :  C:\Users\Celltest\OneDrive - store-dot.com\Documents\EC-Lab\Data\txt_done\14380_R229_UA592_SOC00_C01.mpr
Saved on :
	File : 17686_R288_UA670_SOC00_C01.mpr
	Directory : C:\Users\Celltest\OneDrive - store-dot.com\Documents\EC-Lab\Data\Charmaine\
	Host : 169.254.61.224
Device : VMP-3e (SN .003165)
Address : USB
EC-LAB for windows v11.62 (software)
Internet server v27.00 (firmware)
Command interpretor v12.03 (firmware)
Electrode material : 
Initial state : 
Electrolyte : 
Comments : 
Electrode surface area : 0.001 cm²
Characteristic mass : 0.001 g
Equivalent Weight : 0.000 g/eq.
Density : 0.000 g/cm3
Volume (V) : 0.001 cm³
Cycle Definition : Charge/Discharge alternance
Mode                Single sine         
E (V)               0.0000              
vs.                 Eoc                 
tE (h:m:s)          0:00:0.0000         
record              0                   
dI                  0.000               
unit dI             mA                  
dt (s)              0.000               
fi                  100.000             
unit fi             kHz                 
ff                  10.000              
unit ff             mHz                 
Nd                  6                   
Points              per decade          
spacing             Logarithmic         
Va (mV)             5.0                 
pw                  0.10                
Na                  2                   
corr                0                   
E range min (V)     -10.000             
E range max (V)     10.000              
I Range             Auto                
Bandwidth           5                   
nc cycles           0                   
goto Ns'            0                   
nr cycles           0                   
inc. cycle          0                   

freq/Hz	Re(Z)/Ohm	-Im(Z)/Ohm	|Z|/Ohm	Phase(Z)/deg	time/s	<Ewe>/V	<I>/mA	Cs/µF	Cp/µF	cycle number	I Range	|Ewe|/V	|I|/A	Ns	(Q-Qo)/mA.h	Re(Y)/Ohm-1	Im(Y)/Ohm-1	|Y|/Ohm-1	Phase(Y)/deg	Re(C)/nF	Im(C)/nF	|C|/nF	Phase(C)/deg	Re(M)	Im(M)	|M|	Phase(M)/deg	Re(Permittivity)	Im(Permittivity)	|Permittivity|	Phase(Permittivity)/deg	Re(Resistivity)/Ohm.cm	Im(Resistivity)/Ohm.cm	|Resistivity|/Ohm.cm	Phase(Resistivity)/deg	Re(Conductivity)/mS/cm	Im(Conductivity)/mS/cm	|Conductivity|/mS/cm	Phase(Conductivity)/deg	Tan(Delta)	Loss Angle(Delta)/deg	dq/mA.h	Pwe/W	Rwe/Ohm	
1.0000371E+005	1.0195383E+000	1.8265502E-001	1.0357708E+000	-1.0157052E+001	2.067492871516151E+000	2.6887438E-001	6.7723870E-002	8.7130938E+000	2.7096194E-001	1.000000000000000E+000	9	4.6467879E-003	4.4863094E-003	0	6.977286460938760E-006	9.5033389E-001	1.7025673E-001	9.6546459E-001	1.0157052E+001	2.7096194E+002	1.5124473E+003	1.5365276E+003	-7.9842949E+001	0.0000000E+000	0.0000000E+000	0.0000000E+000	7.9842949E+001	0.0000000E+000	0.0000000E+000	0.0000000E+000	-7.9842949E+001	0.0000000E+000	0.0000000E+000	0.0000000E+000	-1.0157052E+001	0.0000000E+000	0.0000000E+000	0.0000000E+000	1.0157052E+001	5.5817699E+000	7.9842949E+001	6.977286460938760E-006	1.8209214E-005	3.9701567E+003
6.8132047E+004	1.0625144E+000	2.0300132E-001	1.0817331E+000	-1.0816433E+001	2.504483452270506E+000	2.6886278E-001	5.9397541E-002	1.1507204E+001	4.0525401E-001	1.000000000000000E+000	9	5.4375054E-003	5.0266609E-003	0	2.304787901261200E-005	9.0801835E-001	1.7348368E-001	9.2444247E-001	1.0816433E+001	4.0525415E+002	2.1211106E+003	2.1594771E+003	-7.9183563E+001	0.0000000E+000	0.0000000E+000	0.0000000E+000	7.9183563E+001	0.0000000E+000	0.0000000E+000	0.0000000E+000	-7.9183563E+001	0.0000000E+000	0.0000000E+000	0.0000000E+000	-1.0816433E+001	0.0000000E+000	0.0000000E+000	0.0000000E+000	1.0816433E+001	5.2340274E+000	7.9183563E+001	1.607059255167324E-005	1.5969788E-005	4.5264971E+003
4.6420355E+004	1.1074903E+000	2.2569792E-001	1.1302541E+000	-1.1518701E+001	3.083497773070121E+000	2.6886749E-001	6.8822876E-002	1.5190921E+001	6.0574108E-001	1.000000000000000E+000	9	5.0224559E-003	4.4436520E-003	0	3.299158745839830E-005	8.6693740E-001	1.7667510E-001	8.8475674E-001	1.1518701E+001	6.0574103E+002	2.9723464E+003	3.0334412E+003	-7.8481300E+001	0.0000000E+000	0.0000000E+000	0.0000000E+000	7.8481300E+001	0.0000000E+000	0.0000000E+000	0.0000000E+000	-7.8481300E+001	0.0000000E+000	0.0000000E+000	0.0000000E+000	-1.1518701E+001	0.0000000E+000	0.0000000E+000	0.0000000E+000	1.1518701E+001	4.9069586E+000	7.8481300E+001	9.943708445786291E-006	1.8504234E-005	3.9066587E+003
3.1621139E+004	1.1604599E+000	2.5817108E-001	1.1888311E+000	-1.2542503E+001	3.521484460594365E+000	2.6886413E-001	6.6904284E-002	1.9495531E+001	9.1941148E-001	1.000000000000000E+000	9	5.4490301E-003	4.5835190E-003	0	4.095017769652056E-005	8.2108819E-001	1.8267001E-001	8.4116238E-001	1.2542503E+001	9.1941138E+002	4.1326860E+003	4.2337231E+003	-7.7457497E+001	0.0000000E+000	0.0000000E+000	0.0000000E+000	7.7457497E+001	0.0000000E+000	0.0000000E+000	0.0000000E+000	-7.7457497E+001	0.0000000E+000	0.0000000E+000	0.0000000E+000	-1.2542503E+001	0.0000000E+000	0.0000000E+000	0.0000000E+000	1.2542503E+001	4.4949260E+000	7.7457497E+001	7.958590238122267E-006	1.7988163E-005	4.0186384E+003
2.1544684E+004	1.2173163E+000	2.9450008E-001	1.2524333E+000	-1.3600012E+001	3.958475414634449E+000	2.6886338E-001	6.3551374E-002	2.5083874E+001	1.3869354E+000	1.000000000000000E+000	9	5.4085618E-003	4.3184431E-003	0	4.375872405730964E-005	7.7605802E-001	1.8774837E-001	7.9844570E-001	1.3600012E+001	1.3869354E+003	5.7328979E+003	5.8982803E+003	-7.6399986E+001	0.0000000E+000	0.0000000E+000	0.0000000E+000	7.6399986E+001	0.0000000E+000	0.0000000E+000	0.0000000E+000	-7.6399986E+001	0.0000000E+000	0.0000000E+000	0.0000000E+000	-1.3600012E+001	0.0000000E+000	0.0000000E+000	0.0000000E+000	1.3600012E+001	4.1335006E+000	7.6399986E+001	2.808546360789074E-006	1.7086637E-005	4.2306460E+003
1.4678594E+004	1.2831308E+000	3.3337796E-001	1.3257320E+000	-1.4564343E+001	4.395474128745263E+000	2.6886275E-001	6.7090526E-002	3.2523613E+001	2.0566533E+000	1.000000000000000E+000	9	5.2231965E-003	3.9398586E-003	0	4.979100046495700E-005	7.3006147E-001	1.8968169E-001	7.5430030E-001	1.4564343E+001	2.0566536E+003	7.9158052E+003	8.1786182E+003	-7.5435654E+001	0.0000000E+000	0.0000000E+000	0.0000000E+000	7.5435654E+001	0.0000000E+000	0.0000000E+000	0.0000000E+000	-7.5435654E+001	0.0000000E+000	0.0000000E+000	0.0000000E+000	-1.4564343E+001	0.0000000E+000	0.0000000E+000	0.0000000E+000	1.4564343E+001	3.8488770E+000	7.5435654E+001	6.032276407647366E-006	1.8038143E-005	4.0074624E+003
1.0002226E+004	1.3598514E+000	3.8328263E-001	1.4128345E+000	-1.5740823E+001	4.833482896239730E+000	2.6886559E-001	6.2843509E-002	4.1514935E+001	3.0553434E+000	1.000000000000000E+000	9	5.1508495E-003	3.6457556E-003	0	5.922504908786828E-005	6.8125367E-001	1.9201562E-001	7.0779699E-001	1.5740823E+001	3.0553430E+003	1.0840076E+004	1.1262432E+004	-7.4259178E+001	0.0000000E+000	0.0000000E+000	0.0000000E+000	7.4259178E+001	0.0000000E+000	0.0000000E+000	0.0000000E+000	-7.4259178E+001	0.0000000E+000	0.0000000E+000	0.0000000E+000	-1.5740823E+001	0.0000000E+000	0.0000000E+000	0.0000000E+000	1.5740823E+001	3.5479076E+000	7.4259178E+001	9.434048622911278E-006	1.6896456E-005	4.2783350E+003
6.8110674E+003	1.4478438E+000	4.3656263E-001	1.5122297E+000	-1.6779427E+001	5.211517234187340E+000	2.6881641E-001	4.0863454E-002	5.3525211E+001	4.4608331E+000	1.000000000000000E+000	9	5.3551504E-003	3.5412284E-003	0	6.138888649647642E-005	6.3312024E-001	1.9090223E-001	6.6127521E-001	1.6779427E+001	4.4608335E+003	1.4794189E+004	1.5452090E+004	-7.3220573E+001	0.0000000E+000	0.0000000E+000	0.0000000E+000	7.3220573E+001	0.0000000E+000	0.0000000E+000	0.0000000E+000	-7.3220573E+001	0.0000000E+000	0.0000000E+000	0.0000000E+000	-1.6779427E+001	0.0000000E+000	0.0000000E+000	0.0000000E+000	1.6779427E+001	3.3164630E+000	7.3220573E+001	2.163837408608141E-006	1.0984767E-005	6.5784063E+003
4.6414854E+003	1.5476091E+000	5.0085098E-001	1.6266363E+000	-1.7933079E+001	5.682669149937283E+000	2.6884192E-001	5.4479908E-002	6.8462791E+001	6.4906883E+000	1.000000000000000E+000	9	5.3454950E-003	3.2862264E-003	0	6.556187367648818E-005	5.8489829E-001	1.8928999E-001	6.1476558E-001	1.7933079E+001	6.4906875E+003	2.0055963E+004	2.1080102E+004	-7.2066925E+001	0.0000000E+000	0.0000000E+000	0.0000000E+000	7.2066925E+001	0.0000000E+000	0.0000000E+000	0.0000000E+000	-7.2066925E+001	0.0000000E+000	0.0000000E+000	0.0000000E+000	-1.7933079E+001	0.0000000E+000	0.0000000E+000	0.0000000E+000	1.7933079E+001	3.0899591E+000	7.2066925E+001	4.172987180011754E-006	1.4646484E-005	4.9346987E+003
3.1610117E+003	1.6589769E+000	5.7648015E-001	1.7562841E+000	-1.9161898E+001	6.149705038784305E+000	2.6884505E-001	5.8093574E-002	8.7339294E+001	9.4099827E+000	1.000000000000000E+000	9	5.2813771E-003	3.0071314E-003	0	7.123096457344945E-005	5.3783721E-001	1.8689378E-001	5.6938398E-001	1.9161898E+001	9.4099824E+003	2.7079762E+004	2.8668123E+004	-7.0838104E+001	0.0000000E+000	0.0000000E+000	0.0000000E+000	7.0838104E+001	0.0000000E+000	0.0000000E+000	0.0000000E+000	-7.0838104E+001	0.0000000E+000	0.0000000E+000	0.0000000E+000	-1.9161898E+001	0.0000000E+000	0.0000000E+000	0.0000000E+000	1.9161898E+001	2.8777695E+000	7.0838104E+001	5.669090896961280E-006	1.5618170E-005	4.6277935E+003
2.1556899E+003	1.7837915E+000	6.6691691E-001	1.9043871E+000	-2.0499567E+001	6.616695060962229E+000	2.6883471E-001	5.3026982E-002	1.1070370E+002	1.3576727E+001	1.000000000000000E+000	9	5.2206712E-003	2.7413918E-003	0	7.788536849788701E-005	4.9185106E-001	1.8389134E-001	5.2510333E-001	2.0499567E+001	1.3576727E+004	3.6313445E+004	3.8768465E+004	-6.9500435E+001	0.0000000E+000	0.0000000E+000	0.0000000E+000	6.9500435E+001	0.0000000E+000	0.0000000E+000	0.0000000E+000	-6.9500435E+001	0.0000000E+000	0.0000000E+000	0.0000000E+000	-2.0499567E+001	0.0000000E+000	0.0000000E+000	0.0000000E+000	2.0499567E+001	2.6746833E+000	6.9500435E+001	6.654403924437552E-006	1.4255494E-005	5.0697720E+003
1.4685898E+003	1.9218949E+000	7.7627122E-001	2.0727463E+000	-2.1994240E+001	7.083950869797263E+000	2.6883087E-001	5.4200497E-002	1.3960666E+002	1.9581268E+001	1.000000000000000E+000	9	5.1656547E-003	2.4921789E-003	0	8.254228200517051E-005	4.4733959E-001	1.8068461E-001	4.8245171E-001	2.1994240E+001	1.9581268E+004	4.8479367E+004	5.2284559E+004	-6.8005760E+001	0.0000000E+000	0.0000000E+000	0.0000000E+000	6.8005760E+001	0.0000000E+000	0.0000000E+000	0.0000000E+000	-6.8005760E+001	0.0000000E+000	0.0000000E+000	0.0000000E+000	-2.1994240E+001	0.0000000E+000	0.0000000E+000	0.0000000E+000	2.1994240E+001	2.4758034E+000	6.8005760E+001	4.656913507283507E-006	1.4570766E-005	4.9599336E+003
1.0003202E+003	2.0833433E+000	9.1895127E-001	2.2770135E+000	-2.3802011E+001	7.552712732089276E+000	2.6883334E-001	5.2784827E-002	1.7313649E+002	2.8199560E+001	1.000000000000000E+000	9	5.1356354E-003	2.2554260E-003	0	9.097599786994720E-005	4.0181819E-001	1.7723979E-001	4.3917173E-001	2.3802011E+001	2.8199561E+004	6.3930887E+004	6.9873984E+004	-6.6197990E+001	0.0000000E+000	0.0000000E+000	0.0000000E+000	6.6197990E+001	0.0000000E+000	0.0000000E+000	0.0000000E+000	-6.6197990E+001	0.0000000E+000	0.0000000E+000	0.0000000E+000	-2.3802011E+001	0.0000000E+000	0.0000000E+000	0.0000000E+000	2.3802011E+001	2.2670879E+000	6.6197990E+001	8.433715864776683E-006	1.4190321E-005	5.0930039E+003
6.8108978E+002	2.2655714E+000	1.1025388E+000	2.5196042E+000	-2.5949842E+001	8.018444914167048E+000	2.6882994E-001	5.6901418E-002	2.1194438E+002	4.0583084E+001	1.000000000000000E+000	9	5.1034219E-003	2.0254855E-003	0	9.788339556487174E-005	3.5687250E-001	1.7367178E-001	3.9688772E-001	2.5949842E+001	4.0583086E+004	8.3392859E+004	9.2743492E+004	-6.4050156E+001	0.0000000E+000	0.0000000E+000	0.0000000E+000	6.4050156E+001	0.0000000E+000	0.0000000E+000	0.0000000E+000	-6.4050156E+001	0.0000000E+000	0.0000000E+000	0.0000000E+000	-2.5949842E+001	0.0000000E+000	0.0000000E+000	0.0000000E+000	2.5949842E+001	2.0548677E+000	6.4050156E+001	6.907397694924539E-006	1.5296804E-005	4.7244858E+003
4.6396069E+002	2.5011222E+000	1.3392824E+000	2.8371270E+000	-2.8167830E+001	8.487215736444341E+000	2.6883042E-001	5.7106305E-002	2.5613373E+002	5.7076000E+001	1.000000000000000E+000	9	5.0931447E-003	1.7951769E-003	0	1.050933939249210E-004	3.1072584E-001	1.6638517E-001	3.5246924E-001	2.8167830E+001	5.7076008E+004	1.0658996E+005	1.2090943E+005	-6.1832169E+001	0.0000000E+000	0.0000000E+000	0.0000000E+000	6.1832169E+001	0.0000000E+000	0.0000000E+000	0.0000000E+000	-6.1832169E+001	0.0000000E+000	0.0000000E+000	0.0000000E+000	-2.8167830E+001	0.0000000E+000	0.0000000E+000	0.0000000E+000	2.8167830E+001	1.8675092E+000	6.1832169E+001	7.209998360049218E-006	1.5351912E-005	4.7075435E+003
3.1631589E+002	2.8146460E+000	1.6290122E+000	3.2520628E+000	-3.0060659E+001	9.206943637313088E+000	2.6885581E-001	-9.5674768E-003	3.0886932E+002	7.7500702E+001	1.000000000000000E+000	10	5.1153591E-003	1.5729583E-003	0	1.075040062977415E-004	2.6613742E-001	1.5403041E-001	3.0749714E-001	3.0060659E+001	7.7500703E+004	1.3390753E+005	1.5471777E+005	-5.9939339E+001	0.0000000E+000	0.0000000E+000	0.0000000E+000	5.9939339E+001	0.0000000E+000	0.0000000E+000	0.0000000E+000	-5.9939339E+001	0.0000000E+000	0.0000000E+000	0.0000000E+000	-3.0060659E+001	0.0000000E+000	0.0000000E+000	0.0000000E+000	3.0060659E+001	1.7278237E+000	5.9939339E+001	2.410612372820542E-006	-2.5722718E-006	2.8101016E+004
2.1534457E+002	3.2016697E+000	1.9706577E+000	3.7595453E+000	-3.1612686E+001	9.674455632833997E+000	2.6885656E-001	-9.1649732E-003	3.7503778E+002	1.0304496E+002	1.000000000000000E+000	10	5.0948979E-003	1.3551899E-003	0	1.075765803548889E-004	2.2651964E-001	1.3942496E-001	2.6598960E-001	3.1612686E+001	1.0304496E+005	1.6741413E+005	1.9658523E+005	-5.8387314E+001	0.0000000E+000	0.0000000E+000	0.0000000E+000	5.8387314E+001	0.0000000E+000	0.0000000E+000	0.0000000E+000	-5.8387314E+001	0.0000000E+000	0.0000000E+000	0.0000000E+000	-3.1612686E+001	0.0000000E+000	0.0000000E+000	0.0000000E+000	3.1612686E+001	1.6246706E+000	5.8387314E+001	7.257405714740763E-008	-2.4640631E-006	2.9335227E+004
1.4673740E+002	3.7074792E+000	2.3478024E+000	4.3883457E+000	-3.2344490E+001	1.013740314813913E+001	2.6885507E-001	-1.0180566E-002	4.6197427E+002	1.3223280E+002	1.000000000000000E+000	10	5.0810925E-003	1.1578606E-003	0	1.058189215246497E-004	1.9252053E-001	1.2191577E-001	2.2787631E-001	3.2344490E+001	1.3223280E+005	2.0881244E+005	2.4716017E+005	-5.7655510E+001	0.0000000E+000	0.0000000E+000	0.0000000E+000	5.7655510E+001	0.0000000E+000	0.0000000E+000	0.0000000E+000	-5.7655510E+001	0.0000000E+000	0.0000000E+000	0.0000000E+000	-3.2344490E+001	0.0000000E+000	0.0000000E+000	0.0000000E+000	3.2344490E+001	1.5791274E+000	5.7655510E+001	-1.757658830239161E-006	-2.7370968E-006	2.6408654E+004
1.0003201E+002	4.3627038E+000	2.7562702E+000	5.1604466E+000	-3.2283890E+001	1.060568194376538E+001	2.6884857E-001	-9.2786513E-003	5.7724390E+002	1.6467525E+002	1.000000000000000E+000	10	5.0760400E-003	9.8364358E-004	0	1.037691013805808E-004	1.6382536E-001	1.0350163E-001	1.9378167E-001	3.2283890E+001	1.6467527E+005	2.6065273E+005	3.0831444E+005	-5.7716110E+001	0.0000000E+000	0.0000000E+000	0.0000000E+000	5.7716110E+001	0.0000000E+000	0.0000000E+000	0.0000000E+000	-5.7716110E+001	0.0000000E+000	0.0000000E+000	0.0000000E+000	-3.2283890E+001	0.0000000E+000	0.0000000E+000	0.0000000E+000	3.2283890E+001	1.5828288E+000	5.7716110E+001	-2.049820144068985E-006	-2.4945521E-006	2.8974961E+004
6.8103981E+001	5.1892629E+000	3.1002340E+000	6.0448241E+000	-3.0855465E+001	1.108432647309382E+001	2.6885816E-001	-7.1207574E-003	7.5379486E+002	1.9827811E+002	1.000000000000000E+000	10	5.0647850E-003	8.3787134E-004	0	1.023100448502874E-004	1.4201634E-001	8.4845170E-002	1.6543078E-001	3.0855465E+001	1.9827811E+005	3.3188372E+005	3.8660188E+005	-5.9144535E+001	0.0000000E+000	0.0000000E+000	0.0000000E+000	5.9144535E+001	0.0000000E+000	0.0000000E+000	0.0000000E+000	-5.9144535E+001	0.0000000E+000	0.0000000E+000	0.0000000E+000	-3.0855465E+001	0.0000000E+000	0.0000000E+000	0.0000000E+000	3.0855465E+001	1.6738294E+000	5.9144531E+001	-1.459056530293319E-006	-1.9144738E-006	3.7756961E+004
4.6441547E+001	6.1671867E+000	3.3154242E+000	7.0018735E+000	-2.8262075E+001	1.153954772141878E+001	2.6884902E-001	-1.2187538E-002	1.0336520E+003	2.3175229E+002	1.000000000000000E+000	10	5.0588194E-003	7.2249514E-004	0	1.005898091316663E-004	1.2579361E-001	6.7625515E-002	1.4281891E-001	2.8262075E+001	2.3175231E+005	4.3109403E+005	4.8943969E+005	-6.1737923E+001	0.0000000E+000	0.0000000E+000	0.0000000E+000	6.1737923E+001	0.0000000E+000	0.0000000E+000	0.0000000E+000	-6.1737923E+001	0.0000000E+000	0.0000000E+000	0.0000000E+000	-2.8262075E+001	0.0000000E+000	0.0000000E+000	0.0000000E+000	2.8262075E+001	1.8601501E+000	6.1737923E+001	-1.720235718621140E-006	-3.2766075E-006	2.2059338E+004
3.1629555E+001	7.1907477E+000	3.3310189E+000	7.9248052E+000	-2.4855309E+001	1.198644371595583E+001	2.6885113E-001	-1.2873295E-002	1.5106016E+003	2.6688672E+002	1.000000000000000E+000	10	5.0529819E-003	6.3761591E-004	0	9.940848539101554E-005	1.1449773E-001	5.3039562E-002	1.2618607E-001	2.4855309E+001	2.6688672E+005	5.7613450E+005	6.3494844E+005	-6.5144691E+001	0.0000000E+000	0.0000000E+000	0.0000000E+000	6.5144691E+001	0.0000000E+000	0.0000000E+000	0.0000000E+000	-6.5144691E+001	0.0000000E+000	0.0000000E+000	0.0000000E+000	-2.4855309E+001	0.0000000E+000	0.0000000E+000	0.0000000E+000	2.4855309E+001	2.1587231E+000	6.5144691E+001	-1.181323740650757E-006	-3.4609998E-006	2.0884408E+004
2.1551722E+001	8.1714449E+000	3.1626487E+000	8.7621260E+000	-2.1158264E+001	1.242532773679704E+001	2.6884899E-001	-1.3890753E-002	2.3350017E+003	3.0420764E+002	1.000000000000000E+000	10	5.0585931E-003	5.7732488E-004	0	9.775503064883783E-005	1.0643387E-001	4.1193809E-002	1.1412755E-001	2.1158264E+001	3.0420766E+005	7.8599181E+005	8.4280806E+005	-6.8841736E+001	0.0000000E+000	0.0000000E+000	0.0000000E+000	6.8841736E+001	0.0000000E+000	0.0000000E+000	0.0000000E+000	-6.8841736E+001	0.0000000E+000	0.0000000E+000	0.0000000E+000	-2.1158264E+001	0.0000000E+000	0.0000000E+000	0.0000000E+000	2.1158264E+001	2.5837345E+000	6.8841736E+001	-1.653454742177717E-006	-3.7345148E-006	1.9354529E+004
1.4685154E+001	9.0070667E+000	2.8847957E+000	9.4577637E+000	-1.7759295E+001	1.290306045286707E+001	2.6886195E-001	-7.2027599E-003	3.7568733E+003	3.4952621E+002	1.000000000000000E+000	10	5.0573568E-003	5.3473073E-004	0	9.613322134744117E-005	1.0069466E-001	3.2250624E-002	1.0573324E-001	1.7759295E+001	3.4952622E+005	1.0913100E+006	1.1459171E+006	-7.2240707E+001	0.0000000E+000	0.0000000E+000	0.0000000E+000	7.2240707E+001	0.0000000E+000	0.0000000E+000	0.0000000E+000	-7.2240707E+001	0.0000000E+000	0.0000000E+000	0.0000000E+000	-1.7759295E+001	0.0000000E+000	0.0000000E+000	0.0000000E+000	1.7759295E+001	3.1222546E+000	7.2240707E+001	-1.621809301396654E-006	-1.9365480E-006	3.7327629E+004
