EC-Lab ASCII FILE
Nb header lines : 63                          

Potentio Electrochemical Impedance Spectroscopy

Run on channel : 5 (SN 65912)
User : 
CE vs. WE compliance from -10 V to 10 V
Electrode connection : standard
Potential control : Ewe
Ewe ctrl range : min = -10.00 V, max = 10.00 V
Safety Limits :
	Do not start on E overload
Acquisition started on : 09/22/2025 09:04:13.605
Loaded Setting File :  C:\Users\Celltest\OneDrive - store-dot.com\Documents\EC-Lab\Data\Gyutae\17740_R277_UA674_SOC00_C04.mpr
Saved on :
	File : 17698_R287_UA660_SOC00_C05.mpr
	Directory : C:\Users\Celltest\OneDrive - store-dot.com\Documents\EC-Lab\Data\Charmaine\
	Host : 169.254.61.224
Device : VMP-3e (SN .003165)
Address : USB
EC-LAB for windows v11.62 (software)
Internet server v27.00 (firmware)
Command interpretor v12.03 (firmware)
Electrode material : 
Initial state : 
Electrolyte : 
Comments : 
Electrode surface area : 0.001 cm²
Characteristic mass : 0.001 g
Equivalent Weight : 0.000 g/eq.
Density : 0.000 g/cm3
Volume (V) : 0.001 cm³
Cycle Definition : Charge/Discharge alternance
Mode                Single sine         
E (V)               0.0000              
vs.                 Eoc                 
tE (h:m:s)          0:00:0.0000         
record              0                   
dI                  0.000               
unit dI             mA                  
dt (s)              0.000               
fi                  100.000             
unit fi             kHz                 
ff                  10.000              
unit ff             mHz                 
Nd                  6                   
Points              per decade          
spacing             Logarithmic         
Va (mV)             5.0                 
pw                  0.10                
Na                  2                   
corr                0                   
E range min (V)     -10.000             
E range max (V)     10.000              
I Range             Auto                
Bandwidth           5                   
nc cycles           0                   
goto Ns'            0                   
nr cycles           0                   
inc. cycle          0                   

freq/Hz	Re(Z)/Ohm	-Im(Z)/Ohm	|Z|/Ohm	Phase(Z)/deg	time/s	<Ewe>/V	<I>/mA	Cs/µF	Cp/µF	cycle number	I Range	|Ewe|/V	|I|/A	Ns	(Q-Qo)/mA.h	Re(Y)/Ohm-1	Im(Y)/Ohm-1	|Y|/Ohm-1	Phase(Y)/deg	Re(C)/nF	Im(C)/nF	|C|/nF	Phase(C)/deg	Re(M)	Im(M)	|M|	Phase(M)/deg	Re(Permittivity)	Im(Permittivity)	|Permittivity|	Phase(Permittivity)/deg	Re(Resistivity)/Ohm.cm	Im(Resistivity)/Ohm.cm	|Resistivity|/Ohm.cm	Phase(Resistivity)/deg	Re(Conductivity)/mS/cm	Im(Conductivity)/mS/cm	|Conductivity|/mS/cm	Phase(Conductivity)/deg	Tan(Delta)	Loss Angle(Delta)/deg	dq/mA.h	Pwe/W	Rwe/Ohm	
1.0000371E+005	1.3554307E+000	2.1931799E-001	1.3730596E+000	-9.1911898E+000	1.876499929087004E+000	2.8064561E-001	-1.1956853E-002	7.2565427E+000	1.8513966E-001	1.000000000000000E+000	9	5.4594302E-003	3.9761057E-003	0	6.557198307063017E-007	7.1894974E-001	1.1633100E-001	7.2830051E-001	9.1911898E+000	1.8513972E+002	1.1442015E+003	1.1590833E+003	-8.0808807E+001	0.0000000E+000	0.0000000E+000	0.0000000E+000	8.0808807E+001	0.0000000E+000	0.0000000E+000	0.0000000E+000	-8.0808807E+001	0.0000000E+000	0.0000000E+000	0.0000000E+000	-9.1911898E+000	0.0000000E+000	0.0000000E+000	0.0000000E+000	9.1911898E+000	6.1802077E+000	8.0808807E+001	6.557198307063017E-007	-3.3556382E-006	2.3471527E+004
6.8132047E+004	1.4115317E+000	2.7094418E-001	1.4373004E+000	-1.0865788E+001	2.454497529863147E+000	2.8060263E-001	-1.5140867E-002	8.6216192E+000	3.0637506E-001	1.000000000000000E+000	9	5.1263291E-003	3.5666372E-003	0	-3.290718097957627E-006	6.8327498E-001	1.3115495E-001	6.9574875E-001	1.0865788E+001	3.0637512E+002	1.5961151E+003	1.6252535E+003	-7.9134209E+001	0.0000000E+000	0.0000000E+000	0.0000000E+000	7.9134209E+001	0.0000000E+000	0.0000000E+000	0.0000000E+000	-7.9134209E+001	0.0000000E+000	0.0000000E+000	0.0000000E+000	-1.0865788E+001	0.0000000E+000	0.0000000E+000	0.0000000E+000	1.0865788E+001	5.2096772E+000	7.9134209E+001	-3.946437928663929E-006	-4.2485672E-006	1.8532799E+004
4.6420355E+004	1.4747458E+000	3.1621954E-001	1.5082672E+000	-1.2102283E+001	2.891486270615133E+000	2.8059274E-001	-1.6816659E-002	1.0842340E+001	4.7658879E-001	1.000000000000000E+000	9	5.4634926E-003	3.6223640E-003	0	-7.354058280121535E-006	6.4827698E-001	1.3900556E-001	6.6301250E-001	1.2102283E+001	4.7658868E+002	2.2226560E+003	2.2731777E+003	-7.7897720E+001	0.0000000E+000	0.0000000E+000	0.0000000E+000	7.7897720E+001	0.0000000E+000	0.0000000E+000	0.0000000E+000	-7.7897720E+001	0.0000000E+000	0.0000000E+000	0.0000000E+000	-1.2102283E+001	0.0000000E+000	0.0000000E+000	0.0000000E+000	1.2102283E+001	4.6636767E+000	7.7897720E+001	-4.063340182163908E-006	-4.7186322E-006	1.6685404E+004
3.1621139E+004	1.5531170E+000	3.6536446E-001	1.5955136E+000	-1.3237904E+001	3.469486538117053E+000	2.8057072E-001	-1.6164970E-002	1.3775784E+001	7.2238368E-001	1.000000000000000E+000	9	5.0809882E-003	3.1845472E-003	0	-8.762019563362830E-006	6.1010301E-001	1.4352424E-001	6.2675744E-001	1.3237904E+001	7.2238342E+002	3.0707595E+003	3.1545842E+003	-7.6762100E+001	0.0000000E+000	0.0000000E+000	0.0000000E+000	7.6762100E+001	0.0000000E+000	0.0000000E+000	0.0000000E+000	-7.6762100E+001	0.0000000E+000	0.0000000E+000	0.0000000E+000	-1.3237904E+001	0.0000000E+000	0.0000000E+000	0.0000000E+000	1.3237904E+001	4.2508707E+000	7.6762100E+001	-1.407961283241295E-006	-4.5354172E-006	1.7356711E+004
2.1544684E+004	1.6343087E+000	4.1217974E-001	1.6854842E+000	-1.4155052E+001	3.906475918862270E+000	2.8057349E-001	-2.0819945E-002	1.7922285E+001	1.0718088E+000	1.000000000000000E+000	9	5.4284330E-003	3.2206965E-003	0	-1.126225312377533E-005	5.7528722E-001	1.4508994E-001	5.9330136E-001	1.4155052E+001	1.0718088E+003	4.2497637E+003	4.3828374E+003	-7.5844948E+001	0.0000000E+000	0.0000000E+000	0.0000000E+000	7.5844948E+001	0.0000000E+000	0.0000000E+000	0.0000000E+000	-7.5844948E+001	0.0000000E+000	0.0000000E+000	0.0000000E+000	-1.4155052E+001	0.0000000E+000	0.0000000E+000	0.0000000E+000	1.4155052E+001	3.9650390E+000	7.5844948E+001	-2.500233560412501E-006	-5.8415249E-006	1.3476188E+004
1.4678594E+004	1.7290307E+000	4.7715354E-001	1.7936618E+000	-1.5427690E+001	4.485486053017667E+000	2.8056628E-001	-1.3353374E-002	2.2723619E+001	1.6080986E+000	1.000000000000000E+000	9	5.0705839E-003	2.8269454E-003	0	-1.066673676808002E-005	5.3742963E-001	1.4831226E-001	5.5751872E-001	1.5427690E+001	1.6080985E+003	5.8271641E+003	6.0449834E+003	-7.4572311E+001	0.0000000E+000	0.0000000E+000	0.0000000E+000	7.4572311E+001	0.0000000E+000	0.0000000E+000	0.0000000E+000	-7.4572311E+001	0.0000000E+000	0.0000000E+000	0.0000000E+000	-1.5427690E+001	0.0000000E+000	0.0000000E+000	0.0000000E+000	1.5427690E+001	3.6236360E+000	7.4572311E+001	5.955163556953063E-007	-3.7465063E-006	2.1010891E+004
1.0002226E+004	1.8358009E+000	5.4747397E-001	1.9156964E+000	-1.6605673E+001	4.922474953782512E+000	2.8056619E-001	-1.3148555E-002	2.9064308E+001	2.3737426E+000	1.000000000000000E+000	9	5.4442948E-003	2.8419404E-003	0	-1.408327442741332E-005	5.0023288E-001	1.4917983E-001	5.2200341E-001	1.6605673E+001	2.3737424E+003	7.9596812E+003	8.3060928E+003	-7.3394325E+001	0.0000000E+000	0.0000000E+000	0.0000000E+000	7.3394325E+001	0.0000000E+000	0.0000000E+000	0.0000000E+000	-7.3394325E+001	0.0000000E+000	0.0000000E+000	0.0000000E+000	-1.6605673E+001	0.0000000E+000	0.0000000E+000	0.0000000E+000	1.6605673E+001	3.3532205E+000	7.3394325E+001	-3.416537659333295E-006	-3.6890399E-006	2.1338178E+004
6.8110674E+003	1.9557633E+000	6.3382071E-001	2.0559034E+000	-1.7956392E+001	5.476493540074443E+000	2.8054208E-001	-4.1432187E-002	3.6867062E+001	3.5040150E+000	1.000000000000000E+000	9	5.4547228E-003	2.6531999E-003	0	-1.288287990294500E-005	4.6271214E-001	1.4995503E-001	4.8640418E-001	1.7956392E+001	3.5040149E+003	1.0812244E+004	1.1365858E+004	-7.2043610E+001	0.0000000E+000	0.0000000E+000	0.0000000E+000	7.2043610E+001	0.0000000E+000	0.0000000E+000	0.0000000E+000	-7.2043610E+001	0.0000000E+000	0.0000000E+000	0.0000000E+000	-1.7956392E+001	0.0000000E+000	0.0000000E+000	0.0000000E+000	1.7956392E+001	3.0856729E+000	7.2043610E+001	1.200394524468316E-006	-1.1623471E-005	6.7711143E+003
4.6414854E+003	2.0913391E+000	7.3376262E-001	2.2163274E+000	-1.9333818E+001	6.170691813116719E+000	2.8056639E-001	-1.9646900E-002	4.6731270E+001	5.1221333E+000	1.000000000000000E+000	9	5.4448126E-003	2.4566823E-003	0	-1.496264863382223E-005	4.2575195E-001	1.4937839E-001	4.5119688E-001	1.9333818E+001	5.1221333E+003	1.4598889E+004	1.5471387E+004	-7.0666183E+001	0.0000000E+000	0.0000000E+000	0.0000000E+000	7.0666183E+001	0.0000000E+000	0.0000000E+000	0.0000000E+000	-7.0666183E+001	0.0000000E+000	0.0000000E+000	0.0000000E+000	-1.9333818E+001	0.0000000E+000	0.0000000E+000	0.0000000E+000	1.9333818E+001	2.8501575E+000	7.0666183E+001	-2.079768730877226E-006	-5.5122600E-006	1.4280441E+004
3.1610117E+003	2.2472653E+000	8.6230457E-001	2.4070253E+000	-2.0992449E+001	6.860671712551266E+000	2.8055373E-001	-2.7318321E-002	5.8389313E+001	7.4936495E+000	1.000000000000000E+000	9	5.2593155E-003	2.1849854E-003	0	-2.214619319842314E-005	3.8787612E-001	1.4883304E-001	4.1545054E-001	2.0992449E+001	7.4936489E+003	1.9529316E+004	2.0917672E+004	-6.9007553E+001	0.0000000E+000	0.0000000E+000	0.0000000E+000	6.9007553E+001	0.0000000E+000	0.0000000E+000	0.0000000E+000	-6.9007553E+001	0.0000000E+000	0.0000000E+000	0.0000000E+000	-2.0992449E+001	0.0000000E+000	0.0000000E+000	0.0000000E+000	2.0992449E+001	2.6061156E+000	6.9007553E+001	-7.183544564600906E-006	-7.6642573E-006	1.0269801E+004
2.1556899E+003	2.4248850E+000	1.0233974E+000	2.6319973E+000	-2.2881670E+001	7.550697611994110E+000	2.8055772E-001	-2.9049978E-002	7.2142220E+001	1.0907049E+001	1.000000000000000E+000	9	5.1642251E-003	1.9620936E-003	0	-3.030471506055134E-005	3.5004207E-001	1.4773162E-001	3.7993959E-001	2.2881670E+001	1.0907049E+004	2.5843666E+004	2.8051004E+004	-6.7118332E+001	0.0000000E+000	0.0000000E+000	0.0000000E+000	6.7118332E+001	0.0000000E+000	0.0000000E+000	0.0000000E+000	-6.7118332E+001	0.0000000E+000	0.0000000E+000	0.0000000E+000	-2.2881670E+001	0.0000000E+000	0.0000000E+000	0.0000000E+000	2.2881670E+001	2.3694460E+000	6.7118332E+001	-8.158521862128207E-006	-8.1501958E-006	9.6577607E+003
1.4685898E+003	2.6313837E+000	1.2205178E+000	2.9006627E+000	-2.4883339E+001	8.017938434175448E+000	2.8056684E-001	-2.6759731E-002	8.8792343E+001	1.5720606E+001	1.000000000000000E+000	9	5.4610171E-003	1.8826792E-003	0	-3.409433239516026E-005	3.1274453E-001	1.4506066E-001	3.4474880E-001	2.4883339E+001	1.5720605E+004	3.3892949E+004	3.7361336E+004	-6.5116661E+001	0.0000000E+000	0.0000000E+000	0.0000000E+000	6.5116661E+001	0.0000000E+000	0.0000000E+000	0.0000000E+000	-6.5116661E+001	0.0000000E+000	0.0000000E+000	0.0000000E+000	-2.4883339E+001	0.0000000E+000	0.0000000E+000	0.0000000E+000	2.4883339E+001	2.1559570E+000	6.5116661E+001	-3.789617334608919E-006	-7.5078933E-006	1.0484666E+004
1.0003202E+003	2.8696544E+000	1.4740525E+000	3.2261040E+000	-2.7188162E+001	8.486699283115740E+000	2.8056166E-001	-2.2030273E-002	1.0793645E+002	2.2533949E+001	1.000000000000000E+000	9	5.4312046E-003	1.6835182E-003	0	-3.621375697892573E-005	2.7572289E-001	1.4163032E-001	3.0997139E-001	2.7188162E+001	2.2533953E+004	4.3868617E+004	4.9317691E+004	-6.2811836E+001	0.0000000E+000	0.0000000E+000	0.0000000E+000	6.2811836E+001	0.0000000E+000	0.0000000E+000	0.0000000E+000	-6.2811836E+001	0.0000000E+000	0.0000000E+000	0.0000000E+000	-2.7188162E+001	0.0000000E+000	0.0000000E+000	0.0000000E+000	2.7188162E+001	1.9467789E+000	6.2811836E+001	-2.119424583765469E-006	-6.1808501E-006	1.2735278E+004
6.8108978E+002	3.1554055E+000	1.7986507E+000	3.6320419E+000	-2.9684093E+001	9.206427477271063E+000	2.8056785E-001	-1.1771832E-002	1.2991788E+002	3.1861111E+001	1.000000000000000E+000	10	5.3819655E-003	1.4818016E-003	0	-3.908427312739918E-005	2.3919575E-001	1.3634685E-001	2.7532721E-001	2.9684093E+001	3.1861107E+004	5.5894520E+004	6.4337605E+004	-6.0315907E+001	0.0000000E+000	0.0000000E+000	0.0000000E+000	6.0315907E+001	0.0000000E+000	0.0000000E+000	0.0000000E+000	-6.0315907E+001	0.0000000E+000	0.0000000E+000	0.0000000E+000	-2.9684093E+001	0.0000000E+000	0.0000000E+000	0.0000000E+000	2.9684093E+001	1.7543181E+000	6.0315903E+001	-2.870516148473447E-006	-3.3027975E-006	2.3833832E+004
4.6396069E+002	3.5247130E+000	2.2097628E+000	4.1601267E+000	-3.2085003E+001	9.675201339501655E+000	2.8056881E-001	-1.1680599E-002	1.5523630E+002	4.3799736E+001	1.000000000000000E+000	10	5.2611106E-003	1.2646515E-003	0	-4.108334398818099E-005	2.0366231E-001	1.2768285E-001	2.4037729E-001	3.2085003E+001	4.3799738E+004	6.9863383E+004	8.2457922E+004	-5.7914997E+001	0.0000000E+000	0.0000000E+000	0.0000000E+000	5.7914997E+001	0.0000000E+000	0.0000000E+000	0.0000000E+000	-5.7914997E+001	0.0000000E+000	0.0000000E+000	0.0000000E+000	-3.2085003E+001	0.0000000E+000	0.0000000E+000	0.0000000E+000	3.2085003E+001	1.5950639E+000	5.7914993E+001	-1.999070860781814E-006	-3.2772118E-006	2.4020070E+004
3.1631589E+002	3.9882157E+000	2.7194800E+000	4.8271561E+000	-3.4289249E+001	1.014191128170933E+001	2.8057545E-001	-1.1403206E-002	1.8501768E+002	5.8722202E+001	1.000000000000000E+000	10	5.1711611E-003	1.0712645E-003	0	-4.260075380135741E-005	1.7115751E-001	1.1670869E-001	2.0716132E-001	3.4289249E+001	5.8722199E+004	8.6118234E+004	1.0423362E+005	-5.5710751E+001	0.0000000E+000	0.0000000E+000	0.0000000E+000	5.5710751E+001	0.0000000E+000	0.0000000E+000	0.0000000E+000	-5.5710751E+001	0.0000000E+000	0.0000000E+000	0.0000000E+000	-3.4289249E+001	0.0000000E+000	0.0000000E+000	0.0000000E+000	3.4289249E+001	1.4665362E+000	5.5710754E+001	-1.517409813176422E-006	-3.1994596E-006	2.4604963E+004
2.1534457E+002	4.5811839E+000	3.3424804E+000	5.6709275E+000	-3.6114887E+001	1.060945133058704E+001	2.8056389E-001	-1.1876085E-002	2.2111456E+002	7.6815155E+001	1.000000000000000E+000	10	5.1070773E-003	9.0057176E-004	0	-4.338672261017038E-005	1.4245231E-001	1.0393473E-001	1.7633800E-001	3.6114887E+001	7.6815148E+004	1.0528238E+005	1.3032631E+005	-5.3885113E+001	0.0000000E+000	0.0000000E+000	0.0000000E+000	5.3885113E+001	0.0000000E+000	0.0000000E+000	0.0000000E+000	-5.3885113E+001	0.0000000E+000	0.0000000E+000	0.0000000E+000	-3.6114887E+001	0.0000000E+000	0.0000000E+000	0.0000000E+000	3.6114887E+001	1.3705941E+000	5.3885117E+001	-7.859688088129722E-007	-3.3320005E-006	2.3624275E+004
1.4673740E+002	5.3551121E+000	4.0862217E+000	6.7360549E+000	-3.7345467E+001	1.107238425922696E+001	2.8056121E-001	-1.1351097E-002	2.6543451E+002	9.7676483E+001	1.000000000000000E+000	10	5.0616344E-003	7.5142417E-004	0	-4.487895433750236E-005	1.1802047E-001	9.0055600E-002	1.4845484E-001	3.7345467E+001	9.7676492E+004	1.2800787E+005	1.6101773E+005	-5.2654533E+001	0.0000000E+000	0.0000000E+000	0.0000000E+000	5.2654533E+001	0.0000000E+000	0.0000000E+000	0.0000000E+000	-5.2654533E+001	0.0000000E+000	0.0000000E+000	0.0000000E+000	-3.7345467E+001	0.0000000E+000	0.0000000E+000	0.0000000E+000	3.7345467E+001	1.3105290E+000	5.2654533E+001	-1.492231727331976E-006	-3.1846776E-006	2.4716660E+004
1.0003201E+002	6.3772435E+000	4.9467311E+000	8.0708971E+000	-3.7800190E+001	1.154068388151063E+001	2.8057200E-001	-1.1405093E-002	3.2163464E+002	1.2082472E+002	1.000000000000000E+000	10	5.0357450E-003	6.2393869E-004	0	-4.653858728968771E-005	9.7901508E-002	7.5940713E-002	1.2390196E-001	3.7800190E+001	1.2082471E+005	1.5576522E+005	1.9713298E+005	-5.2199810E+001	0.0000000E+000	0.0000000E+000	0.0000000E+000	5.2199810E+001	0.0000000E+000	0.0000000E+000	0.0000000E+000	-5.2199810E+001	0.0000000E+000	0.0000000E+000	0.0000000E+000	-3.7800190E+001	0.0000000E+000	0.0000000E+000	0.0000000E+000	3.7800190E+001	1.2891834E+000	5.2199814E+001	-1.659632952185353E-006	-3.1999496E-006	2.4600590E+004
6.8103981E+001	7.7355700E+000	5.8724427E+000	9.7120867E+000	-3.7203880E+001	1.201933041083976E+001	2.8056523E-001	-1.1371584E-002	3.9795029E+002	1.4549274E+002	1.000000000000000E+000	10	5.0234385E-003	5.1723578E-004	0	-4.809948739347035E-005	8.2010075E-002	6.2257789E-002	1.0296448E-001	3.7203880E+001	1.4549275E+005	1.9165266E+005	2.4062186E+005	-5.2796120E+001	0.0000000E+000	0.0000000E+000	0.0000000E+000	5.2796120E+001	0.0000000E+000	0.0000000E+000	0.0000000E+000	-5.2796120E+001	0.0000000E+000	0.0000000E+000	0.0000000E+000	-3.7203880E+001	0.0000000E+000	0.0000000E+000	0.0000000E+000	3.7203880E+001	1.3172661E+000	5.2796120E+001	-1.560900103782638E-006	-3.1904710E-006	2.4672486E+004
4.6441547E+001	9.4343100E+000	6.7121716E+000	1.1578404E+001	-3.5430481E+001	1.247455483247177E+001	2.8056401E-001	-1.1578234E-002	5.1056427E+002	1.7158490E+002	1.000000000000000E+000	10	5.0154184E-003	4.3317009E-004	0	-4.935722736798966E-005	7.0374079E-002	5.0068621E-002	8.6367689E-002	3.5430481E+001	1.7158491E+005	2.4117161E+005	2.9598163E+005	-5.4569519E+001	0.0000000E+000	0.0000000E+000	0.0000000E+000	5.4569519E+001	0.0000000E+000	0.0000000E+000	0.0000000E+000	-5.4569519E+001	0.0000000E+000	0.0000000E+000	0.0000000E+000	-3.5430481E+001	0.0000000E+000	0.0000000E+000	0.0000000E+000	3.5430481E+001	1.4055526E+000	5.4569519E+001	-1.257739974519307E-006	-3.2484356E-006	2.4232021E+004
3.1629555E+001	1.1499508E+001	7.3584557E+000	1.3652309E+001	-3.2614899E+001	1.292144642703352E+001	2.8056255E-001	-1.2187014E-002	6.8381775E+002	1.9865590E+002	1.000000000000000E+000	10	5.0083874E-003	3.6685276E-004	0	-5.089410102464737E-005	6.1697420E-002	3.9479755E-002	7.3247679E-002	3.2614899E+001	1.9865592E+005	3.1045172E+005	3.6857081E+005	-5.7385101E+001	0.0000000E+000	0.0000000E+000	0.0000000E+000	5.7385101E+001	0.0000000E+000	0.0000000E+000	0.0000000E+000	-5.7385101E+001	0.0000000E+000	0.0000000E+000	0.0000000E+000	-3.2614899E+001	0.0000000E+000	0.0000000E+000	0.0000000E+000	3.2614899E+001	1.5627611E+000	5.7385101E+001	-1.536873656657713E-006	-3.4192199E-006	2.3021434E+004
2.1551722E+001	1.3707303E+001	7.6654596E+000	1.5705076E+001	-2.9214991E+001	1.360134325936087E+001	2.8055698E-001	-9.1749206E-003	9.6338507E+002	2.2950716E+002	1.000000000000000E+000	11	5.0068060E-003	3.1880176E-004	0	-5.262097060929308E-005	5.5574033E-002	3.1078363E-002	6.3673683E-002	2.9214991E+001	2.2950716E+005	4.1040256E+005	4.7021675E+005	-6.0785011E+001	0.0000000E+000	0.0000000E+000	0.0000000E+000	6.0785011E+001	0.0000000E+000	0.0000000E+000	0.0000000E+000	-6.0785011E+001	0.0000000E+000	0.0000000E+000	0.0000000E+000	-2.9214991E+001	0.0000000E+000	0.0000000E+000	0.0000000E+000	2.9214991E+001	1.7881906E+000	6.0785011E+001	-1.726869584645709E-006	-2.5740881E-006	3.0578682E+004
1.4685154E+001	1.5920465E+001	7.6719379E+000	1.7672573E+001	-2.5729025E+001	1.407903130870545E+001	2.8056261E-001	-8.6471578E-003	1.4126564E+003	2.6622394E+002	1.000000000000000E+000	11	5.0056963E-003	2.8324660E-004	0	-5.339193622278334E-005	5.0974876E-002	2.4564363E-002	5.6584857E-002	2.5729025E+001	2.6622397E+005	5.5245613E+005	6.1325606E+005	-6.4270973E+001	0.0000000E+000	0.0000000E+000	0.0000000E+000	6.4270973E+001	0.0000000E+000	0.0000000E+000	0.0000000E+000	-6.4270973E+001	0.0000000E+000	0.0000000E+000	0.0000000E+000	-2.5729025E+001	0.0000000E+000	0.0000000E+000	0.0000000E+000	2.5729025E+001	2.0751557E+000	6.4270973E+001	-7.709656134902639E-007	-2.4260692E-006	3.2445645E+004
