EC-Lab ASCII FILE
Nb header lines : 63                          

Potentio Electrochemical Impedance Spectroscopy

Run on channel : 6 (SN 65795)
User : 
CE vs. WE compliance from -10 V to 10 V
Electrode connection : standard
Potential control : Ewe
Ewe ctrl range : min = -10.00 V, max = 10.00 V
Safety Limits :
	Do not start on E overload
Acquisition started on : 09/22/2025 09:04:20.034
Loaded Setting File :  C:\Users\Celltest\OneDrive - store-dot.com\Documents\EC-Lab\Data\Charmaine\17689_R288_UA670_SOC00_C04.mpr
Saved on :
	File : 17699_R287_UA660_SOC00_C06.mpr
	Directory : C:\Users\Celltest\OneDrive - store-dot.com\Documents\EC-Lab\Data\Charmaine\
	Host : 169.254.61.224
Device : VMP-3e (SN .003165)
Address : USB
EC-LAB for windows v11.62 (software)
Internet server v27.00 (firmware)
Command interpretor v12.03 (firmware)
Electrode material : 
Initial state : 
Electrolyte : 
Comments : 
Electrode surface area : 0.001 cm²
Characteristic mass : 0.001 g
Equivalent Weight : 0.000 g/eq.
Density : 0.000 g/cm3
Volume (V) : 0.001 cm³
Cycle Definition : Charge/Discharge alternance
Mode                Single sine         
E (V)               0.0000              
vs.                 Eoc                 
tE (h:m:s)          0:00:0.0000         
record              0                   
dI                  0.000               
unit dI             mA                  
dt (s)              0.000               
fi                  100.000             
unit fi             kHz                 
ff                  10.000              
unit ff             mHz                 
Nd                  6                   
Points              per decade          
spacing             Logarithmic         
Va (mV)             5.0                 
pw                  0.10                
Na                  2                   
corr                0                   
E range min (V)     -10.000             
E range max (V)     10.000              
I Range             Auto                
Bandwidth           5                   
nc cycles           0                   
goto Ns'            0                   
nr cycles           0                   
inc. cycle          0                   

freq/Hz	Re(Z)/Ohm	-Im(Z)/Ohm	|Z|/Ohm	Phase(Z)/deg	time/s	<Ewe>/V	<I>/mA	Cs/µF	Cp/µF	cycle number	I Range	|Ewe|/V	|I|/A	Ns	(Q-Qo)/mA.h	Re(Y)/Ohm-1	Im(Y)/Ohm-1	|Y|/Ohm-1	Phase(Y)/deg	Re(C)/nF	Im(C)/nF	|C|/nF	Phase(C)/deg	Re(M)	Im(M)	|M|	Phase(M)/deg	Re(Permittivity)	Im(Permittivity)	|Permittivity|	Phase(Permittivity)/deg	Re(Resistivity)/Ohm.cm	Im(Resistivity)/Ohm.cm	|Resistivity|/Ohm.cm	Phase(Resistivity)/deg	Re(Conductivity)/mS/cm	Im(Conductivity)/mS/cm	|Conductivity|/mS/cm	Phase(Conductivity)/deg	Tan(Delta)	Loss Angle(Delta)/deg	dq/mA.h	Pwe/W	Rwe/Ohm	
1.0000371E+005	1.3221400E+000	2.5271976E-001	1.3460763E+000	-1.0821243E+001	1.865488568582805E+000	2.6895088E-001	3.3778898E-002	6.2974510E+000	2.2197491E-001	1.000000000000000E+000	9	4.6004001E-003	3.4176370E-003	0	-4.901086489359537E-007	7.2968948E-001	1.3947612E-001	7.4289995E-001	1.0821243E+001	2.2197490E+002	1.1612938E+003	1.1823181E+003	-7.9178757E+001	0.0000000E+000	0.0000000E+000	0.0000000E+000	7.9178757E+001	0.0000000E+000	0.0000000E+000	0.0000000E+000	-7.9178757E+001	0.0000000E+000	0.0000000E+000	0.0000000E+000	-1.0821243E+001	0.0000000E+000	0.0000000E+000	0.0000000E+000	1.0821243E+001	5.2316446E+000	7.9178757E+001	-4.901086489359537E-007	9.0848644E-006	7.9620972E+003
6.8132047E+004	1.3775914E+000	2.6034176E-001	1.4019756E+000	-1.0701735E+001	2.443486116040731E+000	2.6893875E-001	3.2829028E-002	8.9727354E+000	3.0940804E-001	1.000000000000000E+000	9	5.0317380E-003	3.5890338E-003	0	4.868658651772421E-006	7.0087326E-001	1.3245335E-001	7.1327919E-001	1.0701735E+001	3.0940814E+002	1.6372244E+003	1.6662043E+003	-7.9298264E+001	0.0000000E+000	0.0000000E+000	0.0000000E+000	7.9298264E+001	0.0000000E+000	0.0000000E+000	0.0000000E+000	-7.9298264E+001	0.0000000E+000	0.0000000E+000	0.0000000E+000	-1.0701735E+001	0.0000000E+000	0.0000000E+000	0.0000000E+000	1.0701735E+001	5.2914729E+000	7.9298264E+001	5.358767300708374E-006	8.8289980E-006	8.1921025E+003
4.6420355E+004	1.4387002E+000	2.7285406E-001	1.4643455E+000	-1.0738787E+001	3.021483530144906E+000	2.6893738E-001	3.0836156E-002	1.2565543E+001	4.3626967E-001	1.000000000000000E+000	9	5.0368635E-003	3.4396688E-003	0	8.913856093319030E-006	6.7093927E-001	1.2724575E-001	6.8289894E-001	1.0738787E+001	4.3626959E+002	2.3003552E+003	2.3413596E+003	-7.9261215E+001	0.0000000E+000	0.0000000E+000	0.0000000E+000	7.9261215E+001	0.0000000E+000	0.0000000E+000	0.0000000E+000	-7.9261215E+001	0.0000000E+000	0.0000000E+000	0.0000000E+000	-1.0738787E+001	0.0000000E+000	0.0000000E+000	0.0000000E+000	1.0738787E+001	5.2727828E+000	7.9261215E+001	4.045197441546609E-006	8.2929946E-006	8.7214951E+003
3.1621139E+004	1.4967959E+000	2.9336864E-001	1.5252748E+000	-1.1089272E+001	3.458495950879296E+000	2.6894087E-001	3.5995275E-002	1.7156509E+001	6.3468784E-001	1.000000000000000E+000	9	5.4163523E-003	3.5510666E-003	0	1.798627814169352E-005	6.4337832E-001	1.2610070E-001	6.5561956E-001	1.1089272E+001	6.3468774E+002	3.2382400E+003	3.2998525E+003	-7.8910728E+001	0.0000000E+000	0.0000000E+000	0.0000000E+000	7.8910728E+001	0.0000000E+000	0.0000000E+000	0.0000000E+000	-7.8910728E+001	0.0000000E+000	0.0000000E+000	0.0000000E+000	-1.1089272E+001	0.0000000E+000	0.0000000E+000	0.0000000E+000	1.1089272E+001	5.1020994E+000	7.8910728E+001	9.072422048374492E-006	9.6806007E-006	7.4715601E+003
2.1544684E+004	1.5578090E+000	3.1791440E-001	1.5899178E+000	-1.1534415E+001	3.895486211666139E+000	2.6893422E-001	3.1041028E-002	2.3236454E+001	9.2905384E-001	1.000000000000000E+000	9	5.2906168E-003	3.3276039E-003	0	1.906272848959391E-005	6.1626130E-001	1.2576531E-001	6.2896335E-001	1.1534415E+001	9.2905389E+002	4.5524473E+003	4.6462798E+003	-7.8465584E+001	0.0000000E+000	0.0000000E+000	0.0000000E+000	7.8465584E+001	0.0000000E+000	0.0000000E+000	0.0000000E+000	-7.8465584E+001	0.0000000E+000	0.0000000E+000	0.0000000E+000	-1.1534415E+001	0.0000000E+000	0.0000000E+000	0.0000000E+000	1.1534415E+001	4.9000893E+000	7.8465584E+001	1.076450347900391E-006	8.3479945E-006	8.6638311E+003
1.4678594E+004	1.6210940E+000	3.5136268E-001	1.6587349E+000	-1.2229364E+001	4.332486605766462E+000	2.6892626E-001	3.1935025E-002	3.0858871E+001	1.3846414E+000	1.000000000000000E+000	9	5.2649449E-003	3.1740726E-003	0	2.066931771105737E-005	5.8918846E-001	1.2770316E-001	6.0286909E-001	1.2229364E+001	1.3846412E+003	6.3883677E+003	6.5367021E+003	-7.7770638E+001	0.0000000E+000	0.0000000E+000	0.0000000E+000	7.7770638E+001	0.0000000E+000	0.0000000E+000	0.0000000E+000	-7.7770638E+001	0.0000000E+000	0.0000000E+000	0.0000000E+000	-1.2229364E+001	0.0000000E+000	0.0000000E+000	0.0000000E+000	1.2229364E+001	4.6137342E+000	7.7770638E+001	1.606589221463461E-006	8.5881666E-006	8.4210439E+003
1.0002226E+004	1.6908109E+000	4.0387386E-001	1.7383773E+000	-1.3434175E+001	4.769484599848511E+000	2.6893058E-001	3.3834770E-002	3.9398323E+001	2.1265771E+000	1.000000000000000E+000	9	5.0714109E-003	2.9173247E-003	0	2.966908827861254E-005	5.5950880E-001	1.3364652E-001	5.7524908E-001	1.3434175E+001	2.1265771E+003	8.9028789E+003	9.1533369E+003	-7.6565826E+001	0.0000000E+000	0.0000000E+000	0.0000000E+000	7.6565826E+001	0.0000000E+000	0.0000000E+000	0.0000000E+000	-7.6565826E+001	0.0000000E+000	0.0000000E+000	0.0000000E+000	-1.3434175E+001	0.0000000E+000	0.0000000E+000	0.0000000E+000	1.3434175E+001	4.1864829E+000	7.6565826E+001	8.999770567555161E-006	9.0992044E-006	7.9483496E+003
6.8110674E+003	1.7666216E+000	4.6738198E-001	1.8274019E+000	-1.4818808E+001	5.147520937811350E+000	2.6884899E-001	-1.4124554E-002	4.9995735E+001	3.2704597E+000	1.000000000000000E+000	9	5.1705339E-003	2.8294455E-003	0	2.971663559251465E-005	5.2902400E-001	1.3995996E-001	5.4722500E-001	1.4818808E+001	3.2704602E+003	1.2361762E+004	1.2787066E+004	-7.5181190E+001	0.0000000E+000	0.0000000E+000	0.0000000E+000	7.5181190E+001	0.0000000E+000	0.0000000E+000	0.0000000E+000	-7.5181190E+001	0.0000000E+000	0.0000000E+000	0.0000000E+000	-1.4818808E+001	0.0000000E+000	0.0000000E+000	0.0000000E+000	1.4818808E+001	3.7798238E+000	7.5181190E+001	4.754731390211377E-008	-3.7973718E-006	1.9034158E+004
4.6414854E+003	1.8560877E+000	5.5890054E-001	1.9384094E+000	-1.6757971E+001	5.617667573511426E+000	2.6893991E-001	4.5307741E-002	6.1351986E+001	5.1004281E+000	1.000000000000000E+000	9	5.1721390E-003	2.6682387E-003	0	3.605265814190110E-005	4.9397784E-001	1.4874540E-001	5.1588690E-001	1.6757971E+001	5.1004292E+003	1.6938330E+004	1.7689584E+004	-7.3242027E+001	0.0000000E+000	0.0000000E+000	0.0000000E+000	7.3242027E+001	0.0000000E+000	0.0000000E+000	0.0000000E+000	-7.3242027E+001	0.0000000E+000	0.0000000E+000	0.0000000E+000	-1.6757971E+001	0.0000000E+000	0.0000000E+000	0.0000000E+000	1.6757971E+001	3.3209624E+000	7.3242027E+001	6.336022549386449E-006	1.2185060E-005	5.9358491E+003
3.1610117E+003	1.9602590E+000	6.7894912E-001	2.0745089E+000	-1.9103878E+001	6.084707275695109E+000	2.6893520E-001	4.5940984E-002	7.4157791E+001	7.9432940E+000	1.000000000000000E+000	9	5.1185573E-003	2.4673585E-003	0	4.201152879434328E-005	4.5549420E-001	1.5776354E-001	4.8204181E-001	1.9103878E+001	7.9432959E+003	2.2933844E+004	2.4270500E+004	-7.0896118E+001	0.0000000E+000	0.0000000E+000	0.0000000E+000	7.0896118E+001	0.0000000E+000	0.0000000E+000	0.0000000E+000	-7.0896118E+001	0.0000000E+000	0.0000000E+000	0.0000000E+000	-1.9103878E+001	0.0000000E+000	0.0000000E+000	0.0000000E+000	1.9103878E+001	2.8871956E+000	7.0896118E+001	5.958870652442177E-006	1.2355148E-005	5.8539277E+003
2.1556899E+003	2.0848641E+000	8.4015971E-001	2.2477827E+000	-2.1948477E+001	6.551695004542125E+000	2.6893428E-001	4.3854978E-002	8.7876343E+001	1.2276853E+001	1.000000000000000E+000	9	5.0770966E-003	2.2587134E-003	0	4.563574757252354E-005	4.1263792E-001	1.6628505E-001	4.4488287E-001	2.1948477E+001	1.2276855E+004	3.0465127E+004	3.2845777E+004	-6.8051521E+001	0.0000000E+000	0.0000000E+000	0.0000000E+000	6.8051521E+001	0.0000000E+000	0.0000000E+000	0.0000000E+000	-6.8051521E+001	0.0000000E+000	0.0000000E+000	0.0000000E+000	-2.1948477E+001	0.0000000E+000	0.0000000E+000	0.0000000E+000	2.1948477E+001	2.4815092E+000	6.8051521E+001	3.624218778180269E-006	1.1794107E-005	6.1323545E+003
1.4685898E+003	2.2424822E+000	1.0470304E+000	2.4748735E+000	-2.5028196E+001	7.018943266710266E+000	2.6893342E-001	4.5326345E-002	1.0350476E+002	1.8525627E+001	1.000000000000000E+000	9	5.0381818E-003	2.0357331E-003	0	5.020595858517724E-005	3.6611959E-001	1.7094377E-001	4.0406105E-001	2.5028196E+001	1.8525627E+004	3.9677340E+004	4.3789156E+004	-6.4971802E+001	0.0000000E+000	0.0000000E+000	0.0000000E+000	6.4971802E+001	0.0000000E+000	0.0000000E+000	0.0000000E+000	-6.4971802E+001	0.0000000E+000	0.0000000E+000	0.0000000E+000	-2.5028196E+001	0.0000000E+000	0.0000000E+000	0.0000000E+000	2.5028196E+001	2.1417546E+000	6.4971802E+001	4.570211012653692E-006	1.2189768E-005	5.9332695E+003
1.0003202E+003	2.4275641E+000	1.3128929E+000	2.7598469E+000	-2.8405733E+001	7.487682489001600E+000	2.6892352E-001	4.3258969E-002	1.2118581E+002	2.7424606E+001	1.000000000000000E+000	9	5.0058709E-003	1.8138220E-003	0	5.683544922647222E-005	3.1871367E-001	1.7236906E-001	3.6233893E-001	2.8405733E+001	2.7424607E+004	5.0708625E+004	5.7649578E+004	-6.1594269E+001	0.0000000E+000	0.0000000E+000	0.0000000E+000	6.1594269E+001	0.0000000E+000	0.0000000E+000	0.0000000E+000	-6.1594269E+001	0.0000000E+000	0.0000000E+000	0.0000000E+000	-2.8405733E+001	0.0000000E+000	0.0000000E+000	0.0000000E+000	2.8405733E+001	1.8490192E+000	6.1594269E+001	6.629490641294981E-006	1.1633354E-005	6.2165957E+003
6.8108978E+002	2.6893194E+000	1.6557620E+000	3.1581619E+000	-3.1619804E+001	8.208413936517900E+000	2.6893112E-001	-7.9214461E-003	1.4112953E+002	3.8792244E+001	1.000000000000000E+000	10	5.0679431E-003	1.6047129E-003	0	5.864354157187820E-005	2.6963335E-001	1.6600804E-001	3.1663987E-001	3.1619804E+001	3.8792242E+004	6.3007082E+004	7.3991422E+004	-5.8380196E+001	0.0000000E+000	0.0000000E+000	0.0000000E+000	5.8380196E+001	0.0000000E+000	0.0000000E+000	0.0000000E+000	-5.8380196E+001	0.0000000E+000	0.0000000E+000	0.0000000E+000	-3.1619804E+001	0.0000000E+000	0.0000000E+000	0.0000000E+000	3.1619804E+001	1.6242186E+000	5.8380196E+001	1.808092345405987E-006	-2.1303233E-006	3.3949750E+004
4.6396069E+002	3.0276840E+000	2.0869362E+000	3.6772506E+000	-3.4577900E+001	8.677187612134730E+000	2.6893353E-001	-8.1748562E-003	1.6437273E+002	5.2942158E+001	1.000000000000000E+000	10	5.0210208E-003	1.3654280E-003	0	5.839160254410753E-005	2.2390513E-001	1.5433438E-001	2.7194229E-001	3.4577900E+001	5.2942152E+004	7.6807383E+004	9.3285828E+004	-5.5422100E+001	0.0000000E+000	0.0000000E+000	0.0000000E+000	5.5422100E+001	0.0000000E+000	0.0000000E+000	0.0000000E+000	-5.5422100E+001	0.0000000E+000	0.0000000E+000	0.0000000E+000	-3.4577900E+001	0.0000000E+000	0.0000000E+000	0.0000000E+000	3.4577900E+001	1.4507793E+000	5.5422104E+001	-2.519390277706766E-007	-2.1984929E-006	3.2897648E+004
3.1631589E+002	3.4787979E+000	2.6095030E+000	4.3487401E+000	-3.6874165E+001	9.143941100977827E+000	2.6893148E-001	-8.7263975E-003	1.9281523E+002	6.9427261E+001	1.000000000000000E+000	10	4.9862140E-003	1.1465881E-003	0	5.795184789604617E-005	1.8395105E-001	1.3798469E-001	2.2995166E-001	3.6874165E+001	6.9427266E+004	9.2555320E+004	1.1570062E+005	-5.3125835E+001	0.0000000E+000	0.0000000E+000	0.0000000E+000	5.3125835E+001	0.0000000E+000	0.0000000E+000	0.0000000E+000	-5.3125835E+001	0.0000000E+000	0.0000000E+000	0.0000000E+000	-3.6874165E+001	0.0000000E+000	0.0000000E+000	0.0000000E+000	3.6874165E+001	1.3331265E+000	5.3125839E+001	-4.397546480613534E-007	-2.3468031E-006	3.0818156E+004
2.1534457E+002	4.0734253E+000	3.2400327E+000	5.2048635E+000	-3.8499001E+001	9.611429043143289E+000	2.6893082E-001	-8.5121207E-003	2.2810608E+002	8.8392807E+001	1.000000000000000E+000	10	4.9691852E-003	9.5471955E-004	0	5.669218611457230E-005	1.5036303E-001	1.1959987E-001	1.9212800E-001	3.8499001E+001	8.8392797E+004	1.1112895E+005	1.4199623E+005	-5.1500999E+001	0.0000000E+000	0.0000000E+000	0.0000000E+000	5.1500999E+001	0.0000000E+000	0.0000000E+000	0.0000000E+000	-5.1500999E+001	0.0000000E+000	0.0000000E+000	0.0000000E+000	-3.8499001E+001	0.0000000E+000	0.0000000E+000	0.0000000E+000	3.8499001E+001	1.2572174E+000	5.1501007E+001	-1.259661781473875E-006	-2.2891716E-006	3.1593869E+004
1.4673740E+002	4.8571229E+000	3.9574265E+000	6.2652111E+000	-3.9172031E+001	1.007440117179067E+001	2.6893282E-001	-8.8810548E-003	2.7407312E+002	1.0935049E+002	1.000000000000000E+000	10	4.9530533E-003	7.9056446E-004	0	5.556201163826497E-005	1.2373931E-001	1.0081878E-001	1.5961154E-001	3.9172031E+001	1.0935050E+005	1.3421067E+005	1.7311856E+005	-5.0827969E+001	0.0000000E+000	0.0000000E+000	0.0000000E+000	5.0827969E+001	0.0000000E+000	0.0000000E+000	0.0000000E+000	-5.0827969E+001	0.0000000E+000	0.0000000E+000	0.0000000E+000	-3.9172031E+001	0.0000000E+000	0.0000000E+000	0.0000000E+000	3.9172031E+001	1.2273438E+000	5.0827972E+001	-1.130174476307328E-006	-2.3884072E-006	3.0281631E+004
1.0003201E+002	5.8834395E+000	4.7640543E+000	7.5704079E+000	-3.8998463E+001	1.054268274077185E+001	2.6893273E-001	-8.2997186E-003	3.3396768E+002	1.3225719E+002	1.000000000000000E+000	10	4.9492889E-003	6.5376778E-004	0	5.441289526247419E-005	1.0265799E-001	8.3126239E-002	1.3209328E-001	3.8998463E+001	1.3225719E+005	1.6333297E+005	2.1016570E+005	-5.1001537E+001	0.0000000E+000	0.0000000E+000	0.0000000E+000	5.1001537E+001	0.0000000E+000	0.0000000E+000	0.0000000E+000	-5.1001537E+001	0.0000000E+000	0.0000000E+000	0.0000000E+000	-3.8998463E+001	0.0000000E+000	0.0000000E+000	0.0000000E+000	3.8998463E+001	1.2349648E+000	5.1001541E+001	-1.149116375790778E-006	-2.2320660E-006	3.2402633E+004
6.8103981E+001	7.2084451E+000	5.5738726E+000	9.1120653E+000	-3.7712700E+001	1.102133705679444E+001	2.6893240E-001	-7.7258321E-003	4.1926691E+002	1.5688124E+002	1.000000000000000E+000	10	4.9415021E-003	5.4230320E-004	0	5.339781064558257E-005	8.6817630E-002	6.7131035E-002	1.0974460E-001	3.7712700E+001	1.5688123E+005	2.0288764E+005	2.5646659E+005	-5.2287300E+001	0.0000000E+000	0.0000000E+000	0.0000000E+000	5.2287300E+001	0.0000000E+000	0.0000000E+000	0.0000000E+000	-5.2287300E+001	0.0000000E+000	0.0000000E+000	0.0000000E+000	-3.7712700E+001	0.0000000E+000	0.0000000E+000	0.0000000E+000	3.7712700E+001	1.2932562E+000	5.2287300E+001	-1.015084616891628E-006	-2.0777265E-006	3.4809508E+004
4.6441547E+001	8.8388395E+000	6.2907457E+000	1.0848897E+001	-3.5440075E+001	1.147656054506660E+001	2.6892471E-001	-9.9207722E-003	5.4476764E+002	1.8316582E+002	1.000000000000000E+000	10	4.9341884E-003	4.5481016E-004	0	5.198608443471959E-005	7.5097255E-002	5.3447936E-002	9.2175268E-002	3.5440075E+001	1.8316581E+005	2.5735794E+005	3.1588419E+005	-5.4559925E+001	0.0000000E+000	0.0000000E+000	0.0000000E+000	5.4559925E+001	0.0000000E+000	0.0000000E+000	0.0000000E+000	-5.4559925E+001	0.0000000E+000	0.0000000E+000	0.0000000E+000	-3.5440075E+001	0.0000000E+000	0.0000000E+000	0.0000000E+000	3.5440075E+001	1.4050543E+000	5.4559921E+001	-1.411726210862980E-006	-2.6679409E-006	2.7107236E+004
3.1629555E+001	1.0756111E+001	6.7627206E+000	1.2705444E+001	-3.2158924E+001	1.192345805963851E+001	2.6892132E-001	-1.1020110E-002	7.4405597E+002	2.1079910E+002	1.000000000000000E+000	10	4.9321204E-003	3.8818954E-004	0	5.096062981970317E-005	6.6630878E-002	4.1893024E-002	7.8706414E-002	3.2158924E+001	2.1079909E+005	3.3527609E+005	3.9603828E+005	-5.7841076E+001	0.0000000E+000	0.0000000E+000	0.0000000E+000	5.7841076E+001	0.0000000E+000	0.0000000E+000	0.0000000E+000	-5.7841076E+001	0.0000000E+000	0.0000000E+000	0.0000000E+000	-3.2158924E+001	0.0000000E+000	0.0000000E+000	0.0000000E+000	3.2158924E+001	1.5905006E+000	5.7841080E+001	-1.025454615016413E-006	-2.9635426E-006	2.4402779E+004
2.1551722E+001	1.2802271E+001	6.9503684E+000	1.4567284E+001	-2.8497589E+001	1.236234018715913E+001	2.6892436E-001	-1.2950470E-002	1.0625034E+003	2.4187379E+002	1.000000000000000E+000	10	4.9364679E-003	3.3887359E-004	0	4.843381264719937E-005	6.0329515E-002	3.2752968E-002	6.8646975E-002	2.8497589E+001	2.4187378E+005	4.4552081E+005	5.0694350E+005	-6.1502411E+001	0.0000000E+000	0.0000000E+000	0.0000000E+000	6.1502411E+001	0.0000000E+000	0.0000000E+000	0.0000000E+000	-6.1502411E+001	0.0000000E+000	0.0000000E+000	0.0000000E+000	-2.8497589E+001	0.0000000E+000	0.0000000E+000	0.0000000E+000	2.8497589E+001	1.8419558E+000	6.1502411E+001	-2.526817172503800E-006	-3.4826967E-006	2.0765605E+004
1.4685154E+001	1.4838214E+001	6.8836532E+000	1.6357178E+001	-2.4887239E+001	1.309902550216066E+001	2.6894867E-001	-5.9496351E-003	1.5744274E+003	2.7883279E+002	1.000000000000000E+000	11	4.9332222E-003	3.0159374E-004	0	4.819083758956630E-005	5.5458084E-002	2.5727775E-002	6.1135240E-002	2.4887239E+001	2.7883278E+005	6.0104431E+005	6.6257225E+005	-6.5112762E+001	0.0000000E+000	0.0000000E+000	0.0000000E+000	6.5112762E+001	0.0000000E+000	0.0000000E+000	0.0000000E+000	-6.5112762E+001	0.0000000E+000	0.0000000E+000	0.0000000E+000	-2.4887239E+001	0.0000000E+000	0.0000000E+000	0.0000000E+000	2.4887239E+001	2.1555727E+000	6.5112762E+001	-2.429750576330729E-007	-1.6001464E-006	4.5204230E+004
