EC-Lab ASCII FILE

Nb header lines : 63                          

Potentio Electrochemical Impedance Spectroscopy

Run on channel : 5 (SN 65912)
User : 
CE vs. WE compliance from -10 V to 10 V
Electrode connection : standard
Potential control : Ewe
Ewe ctrl range : min = -10.00 V, max = 10.00 V
Safety Limits :
	Do not start on E overload
Acquisition started on : 09/22/2025 08:44:07.659
Loaded Setting File :  C:\Users\Celltest\OneDrive - store-dot.com\Documents\EC-Lab\Data\Gyutae\17740_R277_UA674_SOC00_C04.mpr
Saved on :
	File : 17690_R288_UA670_SOC00_C05.mpr
	Directory : C:\Users\Celltest\OneDrive - store-dot.com\Documents\EC-Lab\Data\Charmaine\
	Host : 169.254.61.224
Device : VMP-3e (SN .003165)
Address : USB
EC-LAB for windows v11.62 (software)
Internet server v27.00 (firmware)
Command interpretor v12.03 (firmware)
Electrode material : 
Initial state : 
Electrolyte : 
Comments : 
Electrode surface area : 0.001 cm²
Characteristic mass : 0.001 g
Equivalent Weight : 0.000 g/eq.
Density : 0.000 g/cm3
Volume (V) : 0.001 cm³
Cycle Definition : Charge/Discharge alternance
Mode                Single sine         
E (V)               0.0000              
vs.                 Eoc                 
tE (h:m:s)          0:00:0.0000         
record              0                   
dI                  0.000               
unit dI             mA                  
dt (s)              0.000               
fi                  100.000             
unit fi             kHz                 
ff                  10.000              
unit ff             mHz                 
Nd                  6                   
Points              per decade          
spacing             Logarithmic         
Va (mV)             5.0                 
pw                  0.10                
Na                  2                   
corr                0                   
E range min (V)     -10.000             
E range max (V)     10.000              
I Range             Auto                
Bandwidth           5                   
nc cycles           0                   
goto Ns'            0                   
nr cycles           0                   
inc. cycle          0                   

freq/Hz	Re(Z)/Ohm	-Im(Z)/Ohm	|Z|/Ohm	Phase(Z)/deg	time/s	<Ewe>/V	<I>/mA	Cs/µF	Cp/µF	cycle number	I Range	|Ewe|/V	|I|/A	Ns	(Q-Qo)/mA.h	Re(Y)/Ohm-1	Im(Y)/Ohm-1	|Y|/Ohm-1	Phase(Y)/deg	Re(C)/nF	Im(C)/nF	|C|/nF	Phase(C)/deg	Re(M)	Im(M)	|M|	Phase(M)/deg	Re(Permittivity)	Im(Permittivity)	|Permittivity|	Phase(Permittivity)/deg	Re(Resistivity)/Ohm.cm	Im(Resistivity)/Ohm.cm	|Resistivity|/Ohm.cm	Phase(Resistivity)/deg	Re(Conductivity)/mS/cm	Im(Conductivity)/mS/cm	|Conductivity|/mS/cm	Phase(Conductivity)/deg	Tan(Delta)	Loss Angle(Delta)/deg	dq/mA.h	Pwe/W	Rwe/Ohm	
1.0000371E+005	1.1577343E+000	2.2304884E-001	1.1790248E+000	-1.0904980E+001	1.864486168517033E+000	2.7029279E-001	-3.5455171E-002	7.1351657E+000	2.5536305E-001	1.000000000000000E+000	9	4.6037771E-003	3.9047329E-003	0	-1.224297153520294E-005	8.3284277E-001	1.6045532E-001	8.4815860E-001	1.0904980E+001	2.5536316E+002	1.3254612E+003	1.3498362E+003	-7.9095016E+001	0.0000000E+000	0.0000000E+000	0.0000000E+000	7.9095016E+001	0.0000000E+000	0.0000000E+000	0.0000000E+000	-7.9095016E+001	0.0000000E+000	0.0000000E+000	0.0000000E+000	-1.0904980E+001	0.0000000E+000	0.0000000E+000	0.0000000E+000	1.0904980E+001	5.1904969E+000	7.9095016E+001	-1.224297153520294E-005	-9.5832775E-006	7.6235083E+003
6.8132047E+004	1.2065332E+000	2.3308855E-001	1.2288420E+000	-1.0934196E+001	2.301492482627509E+000	2.7028459E-001	-3.5120007E-002	1.0021847E+001	3.6057660E-001	1.000000000000000E+000	9	5.4158266E-003	4.4072601E-003	0	-1.064094968207387E-005	7.9900074E-001	1.5435790E-001	8.1377423E-001	1.0934196E+001	3.6057666E+002	1.8664480E+003	1.9009586E+003	-7.9065804E+001	0.0000000E+000	0.0000000E+000	0.0000000E+000	7.9065804E+001	0.0000000E+000	0.0000000E+000	0.0000000E+000	-7.9065804E+001	0.0000000E+000	0.0000000E+000	0.0000000E+000	-1.0934196E+001	0.0000000E+000	0.0000000E+000	0.0000000E+000	1.0934196E+001	5.1762867E+000	7.9065804E+001	1.602021853129069E-006	-9.4923971E-006	7.6960293E+003
4.6420355E+004	1.2540324E+000	2.4791282E-001	1.2783028E+000	-1.1182752E+001	2.738484130037250E+000	2.7028900E-001	-3.7466124E-002	1.3829698E+001	5.2016747E-001	1.000000000000000E+000	9	5.4637897E-003	4.2742533E-003	0	-1.274316030526016E-005	7.6743448E-001	1.5171604E-001	7.8228730E-001	1.1182752E+001	5.2016760E+002	2.6311946E+003	2.6821184E+003	-7.8817245E+001	0.0000000E+000	0.0000000E+000	0.0000000E+000	7.8817245E+001	0.0000000E+000	0.0000000E+000	0.0000000E+000	-7.8817245E+001	0.0000000E+000	0.0000000E+000	0.0000000E+000	-1.1182752E+001	0.0000000E+000	0.0000000E+000	0.0000000E+000	1.1182752E+001	5.0583601E+000	7.8817245E+001	-2.102210623186289E-006	-1.0126681E-005	7.2142236E+003
3.1621139E+004	1.3092200E+000	2.7270067E-001	1.3373191E+000	-1.1766046E+001	3.175480017467635E+000	2.7027941E-001	-3.7056480E-002	1.8456800E+001	7.6746523E-001	1.000000000000000E+000	9	5.4198126E-003	4.0527442E-003	0	-1.279767787572928E-005	7.3205292E-001	1.5248112E-001	7.4776465E-001	1.1766046E+001	7.6746521E+002	3.6845557E+003	3.7636357E+003	-7.8233955E+001	0.0000000E+000	0.0000000E+000	0.0000000E+000	7.8233955E+001	0.0000000E+000	0.0000000E+000	0.0000000E+000	-7.8233955E+001	0.0000000E+000	0.0000000E+000	0.0000000E+000	-1.1766046E+001	0.0000000E+000	0.0000000E+000	0.0000000E+000	1.1766046E+001	4.8009415E+000	7.8233955E+001	-5.451757046911487E-008	-1.0015603E-005	7.2937153E+003
2.1544684E+004	1.3655971E+000	3.0276012E-001	1.3987563E+000	-1.2500582E+001	3.613495024939766E+000	2.7027974E-001	-3.5771716E-002	2.4399523E+001	1.1431273E+000	1.000000000000000E+000	9	5.3220461E-003	3.8048418E-003	0	-2.000250824289914E-005	6.9797277E-001	1.5474427E-001	7.1492082E-001	1.2500582E+001	1.1431271E+003	5.1560659E+003	5.2812646E+003	-7.7499420E+001	0.0000000E+000	0.0000000E+000	0.0000000E+000	7.7499420E+001	0.0000000E+000	0.0000000E+000	0.0000000E+000	-7.7499420E+001	0.0000000E+000	0.0000000E+000	0.0000000E+000	-1.2500582E+001	0.0000000E+000	0.0000000E+000	0.0000000E+000	1.2500582E+001	4.5104918E+000	7.7499420E+001	-7.204830367169860E-006	-9.6683698E-006	7.5556826E+003
1.4678594E+004	1.4356747E+000	3.4023428E-001	1.4754393E+000	-1.3332318E+001	4.051483125746017E+000	2.7027160E-001	-3.3071835E-002	3.1868206E+001	1.6946149E+000	1.000000000000000E+000	9	5.2693984E-003	3.5714100E-003	0	-3.015169840472906E-005	6.5949780E-001	1.5629150E-001	6.7776424E-001	1.3332318E+001	1.6946155E+003	7.1507075E+003	7.3487646E+003	-7.6667679E+001	0.0000000E+000	0.0000000E+000	0.0000000E+000	7.6667679E+001	0.0000000E+000	0.0000000E+000	0.0000000E+000	-7.6667679E+001	0.0000000E+000	0.0000000E+000	0.0000000E+000	-1.3332318E+001	0.0000000E+000	0.0000000E+000	0.0000000E+000	1.3332318E+001	4.2196651E+000	7.6667679E+001	-1.014919016182992E-005	-8.9383775E-006	8.1722593E+003
1.0002226E+004	1.5119716E+000	3.8585240E-001	1.5604295E+000	-1.4316213E+001	4.488493946468225E+000	2.7027228E-001	-3.3946976E-002	4.1238445E+001	2.5214851E+000	1.000000000000000E+000	9	5.2376571E-003	3.3565485E-003	0	-2.971079220604669E-005	6.2094820E-001	1.5846483E-001	6.4084923E-001	1.4316213E+001	2.5214856E+003	9.8804980E+003	1.0197163E+004	-7.5683784E+001	0.0000000E+000	0.0000000E+000	0.0000000E+000	7.5683784E+001	0.0000000E+000	0.0000000E+000	0.0000000E+000	-7.5683784E+001	0.0000000E+000	0.0000000E+000	0.0000000E+000	-1.4316213E+001	0.0000000E+000	0.0000000E+000	0.0000000E+000	1.4316213E+001	3.9185233E+000	7.5683784E+001	4.409061986823665E-007	-9.1749271E-006	7.9616011E+003
6.8110674E+003	1.6020613E+000	4.4051048E-001	1.6615204E+000	-1.5374376E+001	5.043512666219613E+000	2.7023196E-001	-5.9381772E-002	5.3045517E+001	3.7286348E+000	1.000000000000000E+000	9	5.0878357E-003	3.0621567E-003	0	-4.168080216255556E-005	5.8032036E-001	1.5956767E-001	6.0185844E-001	1.5374376E+001	3.7286345E+003	1.3560408E+004	1.4063690E+004	-7.4625626E+001	0.0000000E+000	0.0000000E+000	0.0000000E+000	7.4625626E+001	0.0000000E+000	0.0000000E+000	0.0000000E+000	-7.4625626E+001	0.0000000E+000	0.0000000E+000	0.0000000E+000	-1.5374376E+001	0.0000000E+000	0.0000000E+000	0.0000000E+000	1.5374376E+001	3.6368289E+000	7.4625626E+001	-1.197000995650888E-005	-1.6046853E-005	4.5507563E+003
4.6414854E+003	1.7000890E+000	5.0331616E-001	1.7730284E+000	-1.6491537E+001	5.514710261959408E+000	2.7028707E-001	-1.5755337E-002	6.8127472E+001	5.4900041E+000	1.000000000000000E+000	9	5.3171306E-003	2.9988976E-003	0	-4.171302624815144E-005	5.4080445E-001	1.6010669E-001	5.6400675E-001	1.6491537E+001	5.4900049E+003	1.8544000E+004	1.9339600E+004	-7.3508461E+001	0.0000000E+000	0.0000000E+000	0.0000000E+000	7.3508461E+001	0.0000000E+000	0.0000000E+000	0.0000000E+000	-7.3508461E+001	0.0000000E+000	0.0000000E+000	0.0000000E+000	-1.6491537E+001	0.0000000E+000	0.0000000E+000	0.0000000E+000	1.6491537E+001	3.3777754E+000	7.3508461E+001	-3.222408559587275E-008	-4.2584638E-006	1.7155271E+004
3.1610117E+003	1.8125947E+000	5.7858676E-001	1.9026986E+000	-1.7703270E+001	5.981669510802021E+000	2.7028477E-001	-2.1881290E-002	8.7021294E+001	8.0467873E+000	1.000000000000000E+000	9	5.3405599E-003	2.8068344E-003	0	-4.684941860535440E-005	5.0068051E-001	1.5981902E-001	5.2556932E-001	1.7703270E+001	8.0467866E+003	2.5208947E+004	2.6462082E+004	-7.2296730E+001	0.0000000E+000	0.0000000E+000	0.0000000E+000	7.2296730E+001	0.0000000E+000	0.0000000E+000	0.0000000E+000	-7.2296730E+001	0.0000000E+000	0.0000000E+000	0.0000000E+000	-1.7703270E+001	0.0000000E+000	0.0000000E+000	0.0000000E+000	1.7703270E+001	3.1327968E+000	7.2296730E+001	-5.136392357202968E-006	-5.9141794E-006	1.2352323E+004
2.1556899E+003	1.9419841E+000	6.6334397E-001	2.0521519E+000	-1.8859169E+001	6.448706039649551E+000	2.7027664E-001	-2.4450833E-002	1.1129996E+002	1.1629300E+001	1.000000000000000E+000	9	5.3113746E-003	2.5881976E-003	0	-4.799226316380211E-005	4.6113348E-001	1.5751423E-001	4.8729336E-001	1.8859169E+001	1.1629302E+004	3.4045563E+004	3.5976949E+004	-7.1140831E+001	0.0000000E+000	0.0000000E+000	0.0000000E+000	7.1140831E+001	0.0000000E+000	0.0000000E+000	0.0000000E+000	-7.1140831E+001	0.0000000E+000	0.0000000E+000	0.0000000E+000	-1.8859169E+001	0.0000000E+000	0.0000000E+000	0.0000000E+000	1.8859169E+001	2.9275672E+000	7.1140831E+001	-1.142844558447703E-006	-6.6084890E-006	1.1053883E+004
1.4685898E+003	2.0769727E+000	7.7053124E-001	2.2152956E+000	-2.0354231E+001	6.915949395159259E+000	2.7028489E-001	-2.2421271E-002	1.4064664E+002	1.7015572E+001	1.000000000000000E+000	9	5.2618477E-003	2.3752351E-003	0	-4.982823626764326E-005	4.2322126E-001	1.5700985E-001	4.5140705E-001	2.0354231E+001	1.7015572E+004	4.5865602E+004	4.8920172E+004	-6.9645767E+001	0.0000000E+000	0.0000000E+000	0.0000000E+000	6.9645767E+001	0.0000000E+000	0.0000000E+000	0.0000000E+000	-6.9645767E+001	0.0000000E+000	0.0000000E+000	0.0000000E+000	-2.0354231E+001	0.0000000E+000	0.0000000E+000	0.0000000E+000	2.0354231E+001	2.6955075E+000	6.9645767E+001	-1.835973103841151E-006	-6.0601305E-006	1.2054843E+004
1.0003202E+003	2.2267456E+000	8.9737815E-001	2.4007673E+000	-2.1949429E+001	7.384713150779135E+000	2.7028328E-001	-2.0726878E-002	1.7729872E+002	2.4771736E+001	1.000000000000000E+000	9	5.2206861E-003	2.1745907E-003	0	-5.337350972249017E-005	3.8634071E-001	1.5569526E-001	4.1653350E-001	2.1949429E+001	2.4771740E+004	6.1468344E+004	6.6272141E+004	-6.8050568E+001	0.0000000E+000	0.0000000E+000	0.0000000E+000	6.8050568E+001	0.0000000E+000	0.0000000E+000	0.0000000E+000	-6.8050568E+001	0.0000000E+000	0.0000000E+000	0.0000000E+000	-2.1949429E+001	0.0000000E+000	0.0000000E+000	0.0000000E+000	2.1949429E+001	2.4813905E+000	6.8050568E+001	-3.545273454846915E-006	-5.6021286E-006	1.3040231E+004
6.8108978E+002	2.4278848E+000	1.1035081E+000	2.6668999E+000	-2.4442471E+001	7.850452372833388E+000	2.7027750E-001	-2.3817787E-002	2.1175821E+002	3.6255833E+001	1.000000000000000E+000	9	5.1939124E-003	1.9475467E-003	0	-5.842291955417669E-005	3.4136158E-001	1.5515368E-001	3.7496719E-001	2.4442471E+001	3.6255836E+004	7.9768313E+004	8.7621172E+004	-6.5557526E+001	0.0000000E+000	0.0000000E+000	0.0000000E+000	6.5557526E+001	0.0000000E+000	0.0000000E+000	0.0000000E+000	-6.5557526E+001	0.0000000E+000	0.0000000E+000	0.0000000E+000	-2.4442471E+001	0.0000000E+000	0.0000000E+000	0.0000000E+000	2.4442471E+001	2.2001512E+000	6.5557526E+001	-5.049409831686517E-006	-6.4374121E-006	1.1347717E+004
4.6396069E+002	2.6396070E+000	1.3398861E+000	2.9602060E+000	-2.6912722E+001	8.573183260537917E+000	2.7028686E-001	-1.4037507E-002	2.5601834E+002	5.2452106E+001	1.000000000000000E+000	10	5.2265236E-003	1.7655946E-003	0	-5.915506353503507E-005	3.0122805E-001	1.5290582E-001	3.3781433E-001	2.6912722E+001	5.2452105E+004	1.0333189E+005	1.1588228E+005	-6.3087280E+001	0.0000000E+000	0.0000000E+000	0.0000000E+000	6.3087280E+001	0.0000000E+000	0.0000000E+000	0.0000000E+000	-6.3087280E+001	0.0000000E+000	0.0000000E+000	0.0000000E+000	-2.6912722E+001	0.0000000E+000	0.0000000E+000	0.0000000E+000	2.6912722E+001	1.9700234E+000	6.3087280E+001	-7.321439808583764E-007	-3.7941536E-006	1.9254621E+004
3.1631589E+002	2.9390035E+000	1.6341827E+000	3.3627808E+000	-2.9075500E+001	9.038926856010221E+000	2.7028841E-001	-1.3910931E-002	3.0789209E+002	7.2711418E+001	1.000000000000000E+000	10	5.1941024E-003	1.5445855E-003	0	-6.172787175943248E-005	2.5989804E-001	1.4451186E-001	2.9737294E-001	2.9075500E+001	7.2711414E+004	1.3076818E+005	1.4962375E+005	-6.0924500E+001	0.0000000E+000	0.0000000E+000	0.0000000E+000	6.0924500E+001	0.0000000E+000	0.0000000E+000	0.0000000E+000	-6.0924500E+001	0.0000000E+000	0.0000000E+000	0.0000000E+000	-2.9075500E+001	0.0000000E+000	0.0000000E+000	0.0000000E+000	2.9075500E+001	1.7984546E+000	6.0924500E+001	-2.572808224397410E-006	-3.7599632E-006	1.9429930E+004
2.1534457E+002	3.3267882E+000	1.9784048E+000	3.8706079E+000	-3.0739489E+001	9.506418984819902E+000	2.7029413E-001	-1.3488320E-002	3.7356921E+002	9.7598473E+001	1.000000000000000E+000	10	5.1657143E-003	1.3346003E-003	0	-6.444860268333125E-005	2.2205819E-001	1.3205560E-001	2.5835735E-001	3.0739489E+001	9.7598461E+004	1.6411678E+005	1.9094444E+005	-5.9260513E+001	0.0000000E+000	0.0000000E+000	0.0000000E+000	5.9260513E+001	0.0000000E+000	0.0000000E+000	0.0000000E+000	-5.9260513E+001	0.0000000E+000	0.0000000E+000	0.0000000E+000	-3.0739489E+001	0.0000000E+000	0.0000000E+000	0.0000000E+000	3.0739489E+001	1.6815509E+000	5.9260513E+001	-2.720730923898773E-006	-3.6458136E-006	2.0039125E+004
1.4673740E+002	3.8347797E+000	2.3756325E+000	4.5110049E+000	-3.1778070E+001	9.969397860142635E+000	2.7029517E-001	-1.3992837E-002	4.5656229E+002	1.2662282E+002	1.000000000000000E+000	10	5.1518814E-003	1.1420696E-003	0	-6.543068856324923E-005	1.8844898E-001	1.1674349E-001	2.2168009E-001	3.1778070E+001	1.2662283E+005	2.0439636E+005	2.4043963E+005	-5.8221931E+001	0.0000000E+000	0.0000000E+000	0.0000000E+000	5.8221931E+001	0.0000000E+000	0.0000000E+000	0.0000000E+000	-5.8221931E+001	0.0000000E+000	0.0000000E+000	0.0000000E+000	-3.1778070E+001	0.0000000E+000	0.0000000E+000	0.0000000E+000	3.1778070E+001	1.6142142E+000	5.8221931E+001	-9.820858799179758E-007	-3.7821962E-006	1.9316682E+004
1.0003201E+002	4.4867139E+000	2.7889571E+000	5.2828860E+000	-3.1865231E+001	1.043767857578496E+001	2.7029628E-001	-1.3242573E-002	5.7047852E+002	1.5899391E+002	1.000000000000000E+000	10	5.1393840E-003	9.7283639E-004	0	-6.603633080026419E-005	1.6076294E-001	9.9930808E-002	1.8929048E-001	3.1865231E+001	1.5899392E+005	2.5578027E+005	3.0116875E+005	-5.8134769E+001	0.0000000E+000	0.0000000E+000	0.0000000E+000	5.8134769E+001	0.0000000E+000	0.0000000E+000	0.0000000E+000	-5.8134769E+001	0.0000000E+000	0.0000000E+000	0.0000000E+000	-3.1865231E+001	0.0000000E+000	0.0000000E+000	0.0000000E+000	3.1865231E+001	1.6087425E+000	5.8134766E+001	-6.056422370149649E-007	-3.5794183E-006	2.0411160E+004
6.8103981E+001	5.3228683E+000	3.1564629E+000	6.1883912E+000	-3.0667955E+001	1.091530678511481E+001	2.7029774E-001	-1.2421570E-002	7.4036676E+002	1.9261620E+002	1.000000000000000E+000	10	5.1293634E-003	8.2886865E-004	0	-6.702961375012010E-005	1.3899213E-001	8.2422383E-002	1.6159289E-001	3.0667955E+001	1.9261619E+005	3.2481634E+005	3.7763297E+005	-5.9332047E+001	0.0000000E+000	0.0000000E+000	0.0000000E+000	5.9332047E+001	0.0000000E+000	0.0000000E+000	0.0000000E+000	-5.9332047E+001	0.0000000E+000	0.0000000E+000	0.0000000E+000	-3.0667955E+001	0.0000000E+000	0.0000000E+000	0.0000000E+000	3.0667955E+001	1.6863396E+000	5.9332047E+001	-9.932829498559100E-007	-3.3575222E-006	2.1760352E+004
4.6441547E+001	6.3153777E+000	3.3977444E+000	7.1713781E+000	-2.8280752E+001	1.137053048671805E+001	2.7029070E-001	-1.4318658E-002	1.0086088E+003	2.2641173E+002	1.000000000000000E+000	10	5.1253918E-003	7.1470108E-004	0	-6.822399954806961E-005	1.2279880E-001	6.6067137E-002	1.3944322E-001	2.8280752E+001	2.2641173E+005	4.2083081E+005	4.7787116E+005	-6.1719246E+001	0.0000000E+000	0.0000000E+000	0.0000000E+000	6.1719246E+001	0.0000000E+000	0.0000000E+000	0.0000000E+000	-6.1719246E+001	0.0000000E+000	0.0000000E+000	0.0000000E+000	-2.8280752E+001	0.0000000E+000	0.0000000E+000	0.0000000E+000	2.8280752E+001	1.8586971E+000	6.1719246E+001	-1.194385797949511E-006	-3.8702001E-006	1.8876818E+004
3.1629555E+001	7.3960972E+000	3.4543886E+000	8.1630297E+000	-2.5035189E+001	1.181644821455120E+001	2.7028716E-001	-1.5422652E-002	1.4566521E+003	2.6085278E+002	1.000000000000000E+000	10	5.1324675E-003	6.2874542E-004	0	-7.030633940978846E-005	1.1099409E-001	5.1840410E-002	1.2250353E-001	2.5035189E+001	2.6085278E+005	5.5850488E+005	6.1641856E+005	-6.4964813E+001	0.0000000E+000	0.0000000E+000	0.0000000E+000	6.4964813E+001	0.0000000E+000	0.0000000E+000	0.0000000E+000	-6.4964813E+001	0.0000000E+000	0.0000000E+000	0.0000000E+000	-2.5035189E+001	0.0000000E+000	0.0000000E+000	0.0000000E+000	2.5035189E+001	2.1410728E+000	6.4964813E+001	-2.082339861718844E-006	-4.1685448E-006	1.7525336E+004
2.1551722E+001	8.3981466E+000	3.2958210E+000	9.0217133E+000	-2.1427336E+001	1.225532791539445E+001	2.7028519E-001	-1.7371859E-002	2.2406526E+003	2.9903616E+002	1.000000000000000E+000	10	5.1201251E-003	5.6753360E-004	0	-7.115949950333217E-005	1.0318235E-001	4.0493522E-002	1.1084369E-001	2.1427336E+001	2.9903622E+005	7.6198006E+005	8.1855744E+005	-6.8572662E+001	0.0000000E+000	0.0000000E+000	0.0000000E+000	6.8572662E+001	0.0000000E+000	0.0000000E+000	0.0000000E+000	-6.8572662E+001	0.0000000E+000	0.0000000E+000	0.0000000E+000	-2.1427336E+001	0.0000000E+000	0.0000000E+000	0.0000000E+000	2.1427336E+001	2.5481198E+000	6.8572662E+001	-8.531600935437144E-007	-4.6953564E-006	1.5558794E+004
1.4685154E+001	9.2751255E+000	3.0100245E+000	9.7513180E+000	-1.7979622E+001	1.273403380482341E+001	2.7029508E-001	-1.2464405E-002	3.6005725E+003	3.4307181E+002	1.000000000000000E+000	10	5.1182322E-003	5.2487594E-004	0	-7.198500018939335E-005	9.7542338E-002	3.1655077E-002	1.0255024E-001	1.7979622E+001	3.4307181E+005	1.0571456E+006	1.1114204E+006	-7.2020378E+001	0.0000000E+000	0.0000000E+000	0.0000000E+000	7.2020378E+001	0.0000000E+000	0.0000000E+000	0.0000000E+000	-7.2020378E+001	0.0000000E+000	0.0000000E+000	0.0000000E+000	-1.7979622E+001	0.0000000E+000	0.0000000E+000	0.0000000E+000	1.7979622E+001	3.0814118E+000	7.2020378E+001	-8.255006860611805E-007	-3.3690674E-006	2.1685357E+004
