EC-Lab ASCII FILE
Nb header lines : 63                          

Potentio Electrochemical Impedance Spectroscopy

Run on channel : 7 (SN 66126)
User : 
CE vs. WE compliance from -10 V to 10 V
Electrode connection : standard
Potential control : Ewe
Ewe ctrl range : min = -10.00 V, max = 10.00 V
Safety Limits :
	Do not start on E overload
Acquisition started on : 09/22/2025 08:45:32.408
Loaded Setting File :  C:\Users\Celltest\OneDrive - store-dot.com\Documents\EC-Lab\Data\Charmaine\17689_R288_UA670_SOC00_C04.mpr
Saved on :
	File : 17692_R287_UA658_SOC00_C07.mpr
	Directory : C:\Users\Celltest\OneDrive - store-dot.com\Documents\EC-Lab\Data\Charmaine\
	Host : 169.254.61.224
Device : VMP-3e (SN .003165)
Address : USB
EC-LAB for windows v11.62 (software)
Internet server v27.00 (firmware)
Command interpretor v12.03 (firmware)
Electrode material : 
Initial state : 
Electrolyte : 
Comments : 
Electrode surface area : 0.001 cm²
Characteristic mass : 0.001 g
Equivalent Weight : 0.000 g/eq.
Density : 0.000 g/cm3
Volume (V) : 0.001 cm³
Cycle Definition : Charge/Discharge alternance
Mode                Single sine         
E (V)               0.0000              
vs.                 Eoc                 
tE (h:m:s)          0:00:0.0000         
record              0                   
dI                  0.000               
unit dI             mA                  
dt (s)              0.000               
fi                  100.000             
unit fi             kHz                 
ff                  10.000              
unit ff             mHz                 
Nd                  6                   
Points              per decade          
spacing             Logarithmic         
Va (mV)             5.0                 
pw                  0.10                
Na                  2                   
corr                0                   
E range min (V)     -10.000             
E range max (V)     10.000              
I Range             Auto                
Bandwidth           5                   
nc cycles           0                   
goto Ns'            0                   
nr cycles           0                   
inc. cycle          0                   

freq/Hz	Re(Z)/Ohm	-Im(Z)/Ohm	|Z|/Ohm	Phase(Z)/deg	time/s	<Ewe>/V	<I>/mA	Cs/µF	Cp/µF	cycle number	I Range	|Ewe|/V	|I|/A	Ns	(Q-Qo)/mA.h	Re(Y)/Ohm-1	Im(Y)/Ohm-1	|Y|/Ohm-1	Phase(Y)/deg	Re(C)/nF	Im(C)/nF	|C|/nF	Phase(C)/deg	Re(M)	Im(M)	|M|	Phase(M)/deg	Re(Permittivity)	Im(Permittivity)	|Permittivity|	Phase(Permittivity)/deg	Re(Resistivity)/Ohm.cm	Im(Resistivity)/Ohm.cm	|Resistivity|/Ohm.cm	Phase(Resistivity)/deg	Re(Conductivity)/mS/cm	Im(Conductivity)/mS/cm	|Conductivity|/mS/cm	Phase(Conductivity)/deg	Tan(Delta)	Loss Angle(Delta)/deg	dq/mA.h	Pwe/W	Rwe/Ohm	
1.0000371E+005	9.0446264E-001	1.7627810E-001	9.2148066E-001	-1.1028587E+001	1.864474541886011E+000	2.7612650E-001	5.5023726E-002	9.0282927E+000	3.3039230E-001	1.000000000000000E+000	9	4.9491823E-003	5.3709019E-003	0	4.942312404021828E-006	1.0651681E+000	2.0759931E-001	1.0852100E+000	1.1028587E+001	3.3039230E+002	1.6952048E+003	1.7271012E+003	-7.8971413E+001	0.0000000E+000	0.0000000E+000	0.0000000E+000	7.8971413E+001	0.0000000E+000	0.0000000E+000	0.0000000E+000	-7.8971413E+001	0.0000000E+000	0.0000000E+000	0.0000000E+000	-1.1028587E+001	0.0000000E+000	0.0000000E+000	0.0000000E+000	1.1028587E+001	5.1308846E+000	7.8971413E+001	4.942312404021828E-006	1.5193509E-005	5.0183169E+003
6.8132047E+004	9.4578874E-001	1.9228083E-001	9.6513641E-001	-1.1491735E+001	2.301481415954186E+000	2.7614787E-001	5.4763075E-002	1.2148781E+001	4.8220009E-001	1.000000000000000E+000	9	5.3970269E-003	5.5919834E-003	0	2.057955011453790E-005	1.0153522E+000	2.0642322E-001	1.0361229E+000	1.1491735E+001	4.8220016E+002	2.3718403E+003	2.4203601E+003	-7.8508263E+001	0.0000000E+000	0.0000000E+000	0.0000000E+000	7.8508263E+001	0.0000000E+000	0.0000000E+000	0.0000000E+000	-7.8508263E+001	0.0000000E+000	0.0000000E+000	0.0000000E+000	-1.1491735E+001	0.0000000E+000	0.0000000E+000	0.0000000E+000	1.1491735E+001	4.9187884E+000	7.8508263E+001	1.563723771051607E-005	1.5122707E-005	5.0425923E+003
4.6420355E+004	9.9191010E-001	2.1274757E-001	1.0144689E+000	-1.2105549E+001	2.738483543362236E+000	2.7615121E-001	5.4539651E-002	1.6115622E+001	7.0875937E-001	1.000000000000000E+000	9	5.4628719E-003	5.3849574E-003	0	2.777676493956177E-005	9.6381754E-001	2.0672221E-001	9.8573744E-001	1.2105549E+001	7.0875916E+002	3.3045059E+003	3.3796594E+003	-7.7894455E+001	0.0000000E+000	0.0000000E+000	0.0000000E+000	7.7894455E+001	0.0000000E+000	0.0000000E+000	0.0000000E+000	-7.7894455E+001	0.0000000E+000	0.0000000E+000	0.0000000E+000	-1.2105549E+001	0.0000000E+000	0.0000000E+000	0.0000000E+000	1.2105549E+001	4.6623802E+000	7.7894455E+001	7.197214825023871E-006	1.5061190E-005	5.0633110E+003
3.1621139E+004	1.0409654E+000	2.4001905E-001	1.0682782E+000	-1.2983969E+001	3.316481864167145E+000	2.7616638E-001	6.1316602E-002	2.0969927E+001	1.0585701E+000	1.000000000000000E+000	9	5.0706011E-003	4.7465176E-003	0	2.925997176417150E-005	9.1215283E-001	2.1031827E-001	9.3608576E-001	1.2983969E+001	1.0585702E+003	4.5910308E+003	4.7114897E+003	-7.7016029E+001	0.0000000E+000	0.0000000E+000	0.0000000E+000	7.7016029E+001	0.0000000E+000	0.0000000E+000	0.0000000E+000	-7.7016029E+001	0.0000000E+000	0.0000000E+000	0.0000000E+000	-1.2983969E+001	0.0000000E+000	0.0000000E+000	0.0000000E+000	1.2983969E+001	4.3370118E+000	7.7016029E+001	1.483206824609725E-006	1.6933584E-005	4.5039414E+003
2.1544684E+004	1.0969400E+000	2.7182934E-001	1.1301188E+000	-1.3917921E+001	3.894499384943629E+000	2.7616423E-001	5.8877625E-002	2.7175884E+001	1.5722736E+000	1.000000000000000E+000	9	5.0663128E-003	4.4829911E-003	0	3.150319779038222E-005	8.5888422E-001	2.1283747E-001	8.8486266E-001	1.3917921E+001	1.5722738E+003	6.3447520E+003	6.5366597E+003	-7.6082077E+001	0.0000000E+000	0.0000000E+000	0.0000000E+000	7.6082077E+001	0.0000000E+000	0.0000000E+000	0.0000000E+000	-7.6082077E+001	0.0000000E+000	0.0000000E+000	0.0000000E+000	-1.3917921E+001	0.0000000E+000	0.0000000E+000	0.0000000E+000	1.3917921E+001	4.0353999E+000	7.6082077E+001	2.243226026210727E-006	1.6259894E-005	4.6904785E+003
1.4678594E+004	1.1561494E+000	3.0761304E-001	1.1963725E+000	-1.4899328E+001	4.190500438999152E+000	2.7615765E-001	5.8840387E-002	3.5247711E+001	2.3302770E+000	1.000000000000000E+000	9	5.3344294E-003	4.4588367E-003	0	3.890530662755999E-005	8.0775768E-001	2.1491757E-001	8.3586007E-001	1.4899328E+001	2.3302776E+003	8.7582393E+003	9.0629434E+003	-7.5100670E+001	0.0000000E+000	0.0000000E+000	0.0000000E+000	7.5100670E+001	0.0000000E+000	0.0000000E+000	0.0000000E+000	-7.5100670E+001	0.0000000E+000	0.0000000E+000	0.0000000E+000	-1.4899328E+001	0.0000000E+000	0.0000000E+000	0.0000000E+000	1.4899328E+001	3.7584536E+000	7.5100670E+001	7.402108837177770E-006	1.6249223E-005	4.6933350E+003
1.0002226E+004	1.2268329E+000	3.5041070E-001	1.2758944E+000	-1.5940517E+001	4.486491493094945E+000	2.7615961E-001	5.7592925E-002	4.5409439E+001	3.4250853E+000	1.000000000000000E+000	9	4.7188057E-003	3.6984298E-003	0	4.224887142706818E-005	7.5362611E-001	2.1525235E-001	7.8376395E-001	1.5940517E+001	3.4250859E+003	1.1991663E+004	1.2471215E+004	-7.4059479E+001	0.0000000E+000	0.0000000E+000	0.0000000E+000	7.4059479E+001	0.0000000E+000	0.0000000E+000	0.0000000E+000	-7.4059479E+001	0.0000000E+000	0.0000000E+000	0.0000000E+000	-1.5940517E+001	0.0000000E+000	0.0000000E+000	0.0000000E+000	1.5940517E+001	3.5011284E+000	7.4059479E+001	3.343564799508186E-006	1.5904840E-005	4.7950269E+003
6.8110674E+003	1.3081536E+000	4.0040764E-001	1.3680614E+000	-1.7018621E+001	5.041514852753608E+000	2.7603790E-001	-5.1974241E-002	5.8358292E+001	4.9991493E+000	1.000000000000000E+000	9	4.9361037E-003	3.6081010E-003	0	3.928400080268168E-005	6.9895232E-001	2.1393958E-001	7.3096132E-001	1.7018621E+001	4.9991504E+003	1.6332494E+004	1.7080453E+004	-7.2981377E+001	0.0000000E+000	0.0000000E+000	0.0000000E+000	7.2981377E+001	0.0000000E+000	0.0000000E+000	0.0000000E+000	-7.2981377E+001	0.0000000E+000	0.0000000E+000	0.0000000E+000	-1.7018621E+001	0.0000000E+000	0.0000000E+000	0.0000000E+000	1.7018621E+001	3.2670546E+000	7.2981377E+001	-2.964870624386502E-006	-1.4346861E-005	5.3110522E+003
4.6414854E+003	1.3977424E+000	4.6202073E-001	1.4721233E+000	-1.8291191E+001	5.512713035197521E+000	2.7607253E-001	1.7880643E-002	7.4216713E+001	7.3103175E+000	1.000000000000000E+000	9	4.7205673E-003	3.2066386E-003	0	4.016399817419005E-005	6.4496893E-001	2.1319307E-001	6.7929095E-001	1.8291191E+001	7.3103169E+003	2.2115762E+004	2.3292652E+004	-7.1708809E+001	0.0000000E+000	0.0000000E+000	0.0000000E+000	7.1708809E+001	0.0000000E+000	0.0000000E+000	0.0000000E+000	-7.1708809E+001	0.0000000E+000	0.0000000E+000	0.0000000E+000	-1.8291191E+001	0.0000000E+000	0.0000000E+000	0.0000000E+000	1.8291191E+001	3.0252807E+000	7.1708809E+001	8.799973715083764E-007	4.9363543E-006	1.5439743E+004
3.1610117E+003	1.5031462E+000	5.2939582E-001	1.5936463E+000	-1.9401848E+001	5.979672417379334E+000	2.7607080E-001	1.5385825E-002	9.5107224E+001	1.0495198E+001	1.000000000000000E+000	9	4.6267100E-003	2.9032226E-003	0	4.227238811033183E-005	5.9185779E-001	2.0844749E-001	6.2749183E-001	1.9401848E+001	1.0495199E+004	2.9799664E+004	3.1593816E+004	-7.0598152E+001	0.0000000E+000	0.0000000E+000	0.0000000E+000	7.0598152E+001	0.0000000E+000	0.0000000E+000	0.0000000E+000	-7.0598152E+001	0.0000000E+000	0.0000000E+000	0.0000000E+000	-1.9401848E+001	0.0000000E+000	0.0000000E+000	0.0000000E+000	1.9401848E+001	2.8393617E+000	7.0598152E+001	2.108389936141774E-006	4.2475772E-006	1.7943191E+004
2.1556899E+003	1.6177744E+000	6.1071199E-001	1.7292088E+000	-2.0681587E+001	6.446707612893078E+000	2.7606544E-001	1.6056074E-002	1.2089194E+002	1.5079099E+001	1.000000000000000E+000	9	4.5724474E-003	2.6442425E-003	0	4.529239966513382E-005	5.4103214E-001	2.0424035E-001	5.7829916E-001	2.0681587E+001	1.5079097E+004	3.9944488E+004	4.2695918E+004	-6.9318413E+001	0.0000000E+000	0.0000000E+000	0.0000000E+000	6.9318413E+001	0.0000000E+000	0.0000000E+000	0.0000000E+000	-6.9318413E+001	0.0000000E+000	0.0000000E+000	0.0000000E+000	-2.0681587E+001	0.0000000E+000	0.0000000E+000	0.0000000E+000	2.0681587E+001	2.6489973E+000	6.9318413E+001	3.020011554801991E-006	4.4325270E-006	1.7193832E+004
1.4685898E+003	1.7463332E+000	7.1238381E-001	1.8860463E+000	-2.2192080E+001	6.913958968390943E+000	2.7606794E-001	1.4696949E-002	1.5212674E+002	2.1703459E+001	1.000000000000000E+000	9	4.5377482E-003	2.4059580E-003	0	4.565363626591150E-005	4.9093321E-001	2.0026697E-001	5.3020966E-001	2.2192080E+001	2.1703457E+004	5.3203723E+004	5.7460215E+004	-6.7807922E+001	0.0000000E+000	0.0000000E+000	0.0000000E+000	6.7807922E+001	0.0000000E+000	0.0000000E+000	0.0000000E+000	-6.7807922E+001	0.0000000E+000	0.0000000E+000	0.0000000E+000	-2.2192080E+001	0.0000000E+000	0.0000000E+000	0.0000000E+000	2.2192080E+001	2.4513938E+000	6.7807922E+001	3.612366007776786E-007	4.0573564E-006	1.8784031E+004
1.0003202E+003	1.8936849E+000	8.3121717E-001	2.0680823E+000	-2.3698671E+001	7.382703737348493E+000	2.7606416E-001	1.5199619E-002	1.9141086E+002	3.0921457E+001	1.000000000000000E+000	9	4.5253010E-003	2.1881629E-003	0	4.900364478927158E-005	4.4276375E-001	1.9434746E-001	4.8353973E-001	2.3698671E+001	3.0921457E+004	7.0445492E+004	7.6933109E+004	-6.6301331E+001	0.0000000E+000	0.0000000E+000	0.0000000E+000	6.6301331E+001	0.0000000E+000	0.0000000E+000	0.0000000E+000	-6.6301331E+001	0.0000000E+000	0.0000000E+000	0.0000000E+000	-2.3698671E+001	0.0000000E+000	0.0000000E+000	0.0000000E+000	2.3698671E+001	2.2782071E+000	6.6301331E+001	3.350008523360078E-006	4.1960702E-006	1.8162570E+004
6.8108978E+002	2.0756369E+000	9.9591404E-001	2.3021975E+000	-2.5632217E+001	8.072413743386278E+000	2.7606195E-001	1.3170253E-002	2.3463560E+002	4.3908894E+001	1.000000000000000E+000	9	5.0013862E-003	2.1724401E-003	0	4.900610760373012E-005	3.9162123E-001	1.8790428E-001	4.3436760E-001	2.5632217E+001	4.3908887E+004	9.1512828E+004	1.0150166E+005	-6.4367783E+001	0.0000000E+000	0.0000000E+000	0.0000000E+000	6.4367783E+001	0.0000000E+000	0.0000000E+000	0.0000000E+000	-6.4367783E+001	0.0000000E+000	0.0000000E+000	0.0000000E+000	-2.5632217E+001	0.0000000E+000	0.0000000E+000	0.0000000E+000	2.5632217E+001	2.0841527E+000	6.4367783E+001	2.462814458541684E-009	3.6358058E-006	2.0961020E+004
4.6396069E+002	2.2901721E+000	1.1975111E+000	2.5843608E+000	-2.7604675E+001	8.541213792312192E+000	2.7607182E-001	1.4194239E-002	2.8645697E+002	6.1505245E+001	1.000000000000000E+000	9	4.9929847E-003	1.9319998E-003	0	5.157274779757588E-005	3.4289551E-001	1.7929707E-001	3.8694286E-001	2.7604675E+001	6.1505250E+004	1.1762531E+005	1.3273511E+005	-6.2395325E+001	0.0000000E+000	0.0000000E+000	0.0000000E+000	6.2395325E+001	0.0000000E+000	0.0000000E+000	0.0000000E+000	-6.2395325E+001	0.0000000E+000	0.0000000E+000	0.0000000E+000	-2.7604675E+001	0.0000000E+000	0.0000000E+000	0.0000000E+000	2.7604675E+001	1.9124434E+000	6.2395325E+001	2.566640193845766E-006	3.9186293E-006	1.9449568E+004
3.1631589E+002	2.5797844E+000	1.4474334E+000	2.9580991E+000	-2.9295372E+001	9.260941186541459E+000	2.7611259E-001	-2.5498254E-002	3.4761664E+002	8.3228539E+001	1.000000000000000E+000	10	5.0360947E-003	1.7024766E-003	0	4.981799498650556E-005	2.9482067E-001	1.6541433E-001	3.3805493E-001	2.9295372E+001	8.3228539E+004	1.4833959E+005	1.7009298E+005	-6.0704628E+001	0.0000000E+000	0.0000000E+000	0.0000000E+000	6.0704628E+001	0.0000000E+000	0.0000000E+000	0.0000000E+000	-6.0704628E+001	0.0000000E+000	0.0000000E+000	0.0000000E+000	-2.9295372E+001	0.0000000E+000	0.0000000E+000	0.0000000E+000	2.9295372E+001	1.7823166E+000	6.0704628E+001	-1.754752811070328E-006	-7.0403889E-006	1.0828686E+004
2.1534457E+002	2.9332843E+000	1.7235793E+000	3.4021878E+000	-3.0438227E+001	9.728412702068454E+000	2.7611551E-001	-2.5211615E-002	4.2880020E+002	1.1005275E+002	1.000000000000000E+000	10	5.0085038E-003	1.4721421E-003	0	4.705333300180630E-005	2.5341806E-001	1.4890686E-001	2.9392850E-001	3.0438227E+001	1.1005275E+005	1.8729397E+005	2.1723406E+005	-5.9561775E+001	0.0000000E+000	0.0000000E+000	0.0000000E+000	5.9561775E+001	0.0000000E+000	0.0000000E+000	0.0000000E+000	-5.9561775E+001	0.0000000E+000	0.0000000E+000	0.0000000E+000	-3.0438227E+001	0.0000000E+000	0.0000000E+000	0.0000000E+000	3.0438227E+001	1.7018563E+000	5.9561775E+001	-2.764661984699258E-006	-6.9613179E-006	1.0951916E+004
1.4673740E+002	3.3921547E+000	2.0290201E+000	3.9526744E+000	-3.0885788E+001	1.019136299067759E+001	2.7610189E-001	-2.5987813E-002	5.3455573E+002	1.4085867E+002	1.000000000000000E+000	10	5.0004106E-003	1.2650702E-003	0	4.340728609999577E-005	2.1711685E-001	1.2986863E-001	2.5299326E-001	3.0885788E+001	1.4085867E+005	2.3549023E+005	2.7440266E+005	-5.9114212E+001	0.0000000E+000	0.0000000E+000	0.0000000E+000	5.9114212E+001	0.0000000E+000	0.0000000E+000	0.0000000E+000	-5.9114212E+001	0.0000000E+000	0.0000000E+000	0.0000000E+000	-3.0885788E+001	0.0000000E+000	0.0000000E+000	0.0000000E+000	3.0885788E+001	1.6718192E+000	5.9114212E+001	-3.646046901810525E-006	-7.1752843E-006	1.0624283E+004
1.0003201E+002	3.9692152E+000	2.3293629E+000	4.6022387E+000	-3.0406851E+001	1.065967570633075E+001	2.7611381E-001	-2.4699742E-002	6.8303662E+002	1.7497662E+002	1.000000000000000E+000	10	4.9945633E-003	1.0852464E-003	0	3.965462396015128E-005	1.8739861E-001	1.0997624E-001	2.1728556E-001	3.0406851E+001	1.7497661E+005	2.9815869E+005	3.4571003E+005	-5.9593147E+001	0.0000000E+000	0.0000000E+000	0.0000000E+000	5.9593147E+001	0.0000000E+000	0.0000000E+000	0.0000000E+000	-5.9593147E+001	0.0000000E+000	0.0000000E+000	0.0000000E+000	-3.0406851E+001	0.0000000E+000	0.0000000E+000	0.0000000E+000	3.0406851E+001	1.7039918E+000	5.9593147E+001	-3.752662139844487E-006	-6.8199397E-006	1.1178813E+004
6.8103981E+001	4.6582460E+000	2.5750811E+000	5.3226213E+000	-2.8933842E+001	1.113833066236111E+001	2.7611738E-001	-2.1982133E-002	9.0752106E+002	2.1241608E+002	1.000000000000000E+000	10	4.9843239E-003	9.3644159E-004	0	3.642358757095644E-005	1.6442630E-001	9.0894952E-002	1.8787736E-001	2.8933842E+001	2.1241608E+005	3.8425447E+005	4.3905819E+005	-6.1066158E+001	0.0000000E+000	0.0000000E+000	0.0000000E+000	6.1066158E+001	0.0000000E+000	0.0000000E+000	0.0000000E+000	-6.1066158E+001	0.0000000E+000	0.0000000E+000	0.0000000E+000	-2.8933842E+001	0.0000000E+000	0.0000000E+000	0.0000000E+000	2.8933842E+001	1.8089706E+000	6.1066162E+001	-3.231036389194843E-006	-6.0696493E-006	1.2560991E+004
4.6441547E+001	5.4382677E+000	2.7055309E+000	6.0740967E+000	-2.6450283E+001	1.159355860398500E+001	2.7610335E-001	-2.7486235E-002	1.2666626E+003	2.5130583E+002	1.000000000000000E+000	10	4.9767406E-003	8.1933837E-004	0	3.257328739274009E-005	1.4739989E-001	7.3331244E-002	1.6463353E-001	2.6450283E+001	2.5130583E+005	5.0513872E+005	5.6419831E+005	-6.3549717E+001	0.0000000E+000	0.0000000E+000	0.0000000E+000	6.3549717E+001	0.0000000E+000	0.0000000E+000	0.0000000E+000	-6.3549717E+001	0.0000000E+000	0.0000000E+000	0.0000000E+000	-2.6450283E+001	0.0000000E+000	0.0000000E+000	0.0000000E+000	2.6450283E+001	2.0100558E+000	6.3549713E+001	-3.850300178216355E-006	-7.5890416E-006	1.0045149E+004
3.1629555E+001	6.2565131E+000	2.7126858E+000	6.8192830E+000	-2.3440489E+001	1.204044734520721E+001	2.7609915E-001	-2.8783619E-002	1.8549301E+003	2.9352771E+002	1.000000000000000E+000	10	4.9827811E-003	7.3068991E-004	0	2.962035165522603E-005	1.3454109E-001	5.8334041E-002	1.4664298E-001	2.3440489E+001	2.9352772E+005	6.7698956E+005	7.3788438E+005	-6.6559509E+001	0.0000000E+000	0.0000000E+000	0.0000000E+000	6.6559509E+001	0.0000000E+000	0.0000000E+000	0.0000000E+000	-6.6559509E+001	0.0000000E+000	0.0000000E+000	0.0000000E+000	-2.3440489E+001	0.0000000E+000	0.0000000E+000	0.0000000E+000	2.3440489E+001	2.3063905E+000	6.6559509E+001	-2.952935737514053E-006	-7.9471329E-006	9.5922314E+003
2.1551722E+001	6.9993758E+000	2.6065550E+000	7.4689617E+000	-2.0425240E+001	1.247933861936326E+001	2.7609801E-001	-2.9105641E-002	2.8331611E+003	3.4505200E+002	1.000000000000000E+000	10	4.9749739E-003	6.6608639E-004	0	2.457860190809834E-005	1.2546970E-001	4.6724688E-002	1.3388743E-001	2.0425240E+001	3.4505200E+005	9.2656731E+005	9.8873044E+005	-6.9574760E+001	0.0000000E+000	0.0000000E+000	0.0000000E+000	6.9574760E+001	0.0000000E+000	0.0000000E+000	0.0000000E+000	-6.9574760E+001	0.0000000E+000	0.0000000E+000	0.0000000E+000	-2.0425240E+001	0.0000000E+000	0.0000000E+000	0.0000000E+000	2.0425240E+001	2.6852975E+000	6.9574760E+001	-5.041749747127698E-006	-8.0360096E-006	9.4860654E+003
1.4685154E+001	7.6976504E+000	2.4399822E+000	8.0751057E+000	-1.7587444E+001	1.295702637542854E+001	2.7611250E-001	-2.0932328E-002	4.4417588E+003	4.0553827E+002	1.000000000000000E+000	10	4.9795224E-003	6.1665109E-004	0	2.141207650930705E-005	1.1804885E-001	3.7418831E-002	1.2383739E-001	1.7587444E+001	4.0553834E+005	1.2793913E+006	1.3421264E+006	-7.2412552E+001	0.0000000E+000	0.0000000E+000	0.0000000E+000	7.2412552E+001	0.0000000E+000	0.0000000E+000	0.0000000E+000	-7.2412552E+001	0.0000000E+000	0.0000000E+000	0.0000000E+000	-1.7587444E+001	0.0000000E+000	0.0000000E+000	0.0000000E+000	1.7587444E+001	3.1547978E+000	7.2412552E+001	-3.166525398791286E-006	-5.7796774E-006	1.3190721E+004
