EC-Lab ASCII FILE

Nb header lines : 63                          

Potentio Electrochemical Impedance Spectroscopy

Run on channel : 4 (SN 66756)
User : 
CE vs. WE compliance from -10 V to 10 V
Electrode connection : standard
Potential control : Ewe
Ewe ctrl range : min = -10.00 V, max = 10.00 V
Safety Limits :
	Do not start on E overload
Acquisition started on : 09/22/2025 09:04:03.651
Loaded Setting File :  C:\Users\Celltest\OneDrive - store-dot.com\Documents\EC-Lab\Data\Gyutae\17739_R277_UA674_SOC00_C03.mpr
Saved on :
	File : 17697_R287_UA660_SOC00_C04.mpr
	Directory : C:\Users\Celltest\OneDrive - store-dot.com\Documents\EC-Lab\Data\Charmaine\
	Host : 169.254.61.224
Device : VMP-3e (SN .003165)
Address : USB
EC-LAB for windows v11.62 (software)
Internet server v27.00 (firmware)
Command interpretor v12.03 (firmware)
Electrode material : 
Initial state : 
Electrolyte : 
Comments : 
Electrode surface area : 0.001 cm²
Characteristic mass : 0.001 g
Equivalent Weight : 0.000 g/eq.
Density : 0.000 g/cm3
Volume (V) : 0.001 cm³
Cycle Definition : Charge/Discharge alternance
Mode                Single sine         
E (V)               0.0000              
vs.                 Eoc                 
tE (h:m:s)          0:00:0.0000         
record              0                   
dI                  0.000               
unit dI             mA                  
dt (s)              0.000               
fi                  100.000             
unit fi             kHz                 
ff                  10.000              
unit ff             mHz                 
Nd                  6                   
Points              per decade          
spacing             Logarithmic         
Va (mV)             5.0                 
pw                  0.10                
Na                  2                   
corr                0                   
E range min (V)     -10.000             
E range max (V)     10.000              
I Range             Auto                
Bandwidth           5                   
nc cycles           0                   
goto Ns'            0                   
nr cycles           0                   
inc. cycle          0                   

freq/Hz	Re(Z)/Ohm	-Im(Z)/Ohm	|Z|/Ohm	Phase(Z)/deg	time/s	<Ewe>/V	<I>/mA	Cs/µF	Cp/µF	cycle number	I Range	|Ewe|/V	|I|/A	Ns	(Q-Qo)/mA.h	Re(Y)/Ohm-1	Im(Y)/Ohm-1	|Y|/Ohm-1	Phase(Y)/deg	Re(C)/nF	Im(C)/nF	|C|/nF	Phase(C)/deg	Re(M)	Im(M)	|M|	Phase(M)/deg	Re(Permittivity)	Im(Permittivity)	|Permittivity|	Phase(Permittivity)/deg	Re(Resistivity)/Ohm.cm	Im(Resistivity)/Ohm.cm	|Resistivity|/Ohm.cm	Phase(Resistivity)/deg	Re(Conductivity)/mS/cm	Im(Conductivity)/mS/cm	|Conductivity|/mS/cm	Phase(Conductivity)/deg	Tan(Delta)	Loss Angle(Delta)/deg	dq/mA.h	Pwe/W	Rwe/Ohm	
1.0000371E+005	1.2050169E+000	2.3642682E-001	1.2279916E+000	-1.1100545E+001	1.865499635256128E+000	2.6079315E-001	-2.6932573E-002	6.7314286E+000	2.4952264E-001	1.000000000000000E+000	9	4.7424482E-003	3.8619551E-003	0	-9.710468926285911E-006	7.9910225E-001	1.5678552E-001	8.1433785E-001	1.1100545E+001	2.4952272E+002	1.2717635E+003	1.2960109E+003	-7.8899452E+001	0.0000000E+000	0.0000000E+000	0.0000000E+000	7.8899452E+001	0.0000000E+000	0.0000000E+000	0.0000000E+000	-7.8899452E+001	0.0000000E+000	0.0000000E+000	0.0000000E+000	-1.1100545E+001	0.0000000E+000	0.0000000E+000	0.0000000E+000	1.1100545E+001	5.0967860E+000	7.8899452E+001	-9.710468926285911E-006	-7.0238307E-006	9.6831875E+003
6.8132047E+004	1.2635694E+000	2.5069115E-001	1.2881978E+000	-1.1221714E+001	2.443489076016704E+000	2.6079687E-001	-2.3407977E-002	9.3181496E+000	3.5289264E-001	1.000000000000000E+000	9	5.0198319E-003	3.8967866E-003	0	-1.346021723306815E-005	7.6143700E-001	1.5106849E-001	7.7627832E-001	1.1221714E+001	3.5289252E+002	1.7787000E+003	1.8133689E+003	-7.8778290E+001	0.0000000E+000	0.0000000E+000	0.0000000E+000	7.8778290E+001	0.0000000E+000	0.0000000E+000	0.0000000E+000	-7.8778290E+001	0.0000000E+000	0.0000000E+000	0.0000000E+000	-1.1221714E+001	0.0000000E+000	0.0000000E+000	0.0000000E+000	1.1221714E+001	5.0403428E+000	7.8778290E+001	-3.749748306782244E-006	-6.1047272E-006	1.1141367E+004
4.6420355E+004	1.3243899E+000	2.6285416E-001	1.3502226E+000	-1.1225719E+001	3.021497476816876E+000	2.6079085E-001	-2.5310144E-002	1.3043581E+001	4.9432868E-001	1.000000000000000E+000	9	5.0608632E-003	3.7481696E-003	0	-1.755643445810872E-005	7.2644901E-001	1.4417969E-001	7.4061865E-001	1.1225719E+001	4.9432877E+002	2.4906736E+003	2.5392549E+003	-7.8774277E+001	0.0000000E+000	0.0000000E+000	0.0000000E+000	7.8774277E+001	0.0000000E+000	0.0000000E+000	0.0000000E+000	-7.8774277E+001	0.0000000E+000	0.0000000E+000	0.0000000E+000	-1.1225719E+001	0.0000000E+000	0.0000000E+000	0.0000000E+000	1.1225719E+001	5.0384970E+000	7.8774277E+001	-4.096217225040569E-006	-6.6006542E-006	1.0303808E+004
3.1621139E+004	1.3828309E+000	2.8966242E-001	1.4128431E+000	-1.1830725E+001	3.599488810956245E+000	2.6080963E-001	-1.7253928E-002	1.7376026E+001	7.3037672E-001	1.000000000000000E+000	9	5.1038768E-003	3.6124866E-003	0	-1.487950807248449E-005	6.9275749E-001	1.4511232E-001	7.0779270E-001	1.1830725E+001	7.3037683E+002	3.4867744E+003	3.5624495E+003	-7.8169273E+001	0.0000000E+000	0.0000000E+000	0.0000000E+000	7.8169273E+001	0.0000000E+000	0.0000000E+000	0.0000000E+000	-7.8169273E+001	0.0000000E+000	0.0000000E+000	0.0000000E+000	-1.1830725E+001	0.0000000E+000	0.0000000E+000	0.0000000E+000	1.1830725E+001	4.7739396E+000	7.8169273E+001	2.676926385624232E-006	-4.4999906E-006	1.5115957E+004
2.1544684E+004	1.4494758E+000	3.1686455E-001	1.4837059E+000	-1.2331230E+001	4.036481631716015E+000	2.6083395E-001	-1.9435823E-002	2.3313440E+001	1.0633055E+000	1.000000000000000E+000	9	5.3225425E-003	3.5873300E-003	0	-1.225795856317402E-005	6.5843868E-001	1.4393885E-001	6.7398804E-001	1.2331230E+001	1.0633053E+003	4.8640195E+003	4.9788857E+003	-7.7668770E+001	0.0000000E+000	0.0000000E+000	0.0000000E+000	7.7668770E+001	0.0000000E+000	0.0000000E+000	0.0000000E+000	-7.7668770E+001	0.0000000E+000	0.0000000E+000	0.0000000E+000	-1.2331230E+001	0.0000000E+000	0.0000000E+000	0.0000000E+000	1.2331230E+001	4.5744333E+000	7.7668770E+001	2.621549509310473E-006	-5.0695226E-006	1.3420268E+004
1.4678594E+004	1.5119964E+000	3.4860966E-001	1.5516642E+000	-1.2983370E+001	4.332475032395450E+000	2.6077849E-001	-2.4806643E-002	3.1102570E+001	1.5699275E+000	1.000000000000000E+000	9	4.5976155E-003	2.9630221E-003	0	-1.554475523809540E-005	6.2799364E-001	1.4479178E-001	6.4446932E-001	1.2983370E+001	1.5699272E+003	6.8091196E+003	6.9877593E+003	-7.7016632E+001	0.0000000E+000	0.0000000E+000	0.0000000E+000	7.7016632E+001	0.0000000E+000	0.0000000E+000	0.0000000E+000	-7.7016632E+001	0.0000000E+000	0.0000000E+000	0.0000000E+000	-1.2983370E+001	0.0000000E+000	0.0000000E+000	0.0000000E+000	1.2983370E+001	4.3372188E+000	7.7016632E+001	-3.286796674921385E-006	-6.4690389E-006	1.0512445E+004
1.0002226E+004	1.5781611E+000	3.9774296E-001	1.6275110E+000	-1.4145626E+001	4.769495106505929E+000	2.6085806E-001	-2.8499082E-002	4.0005619E+001	2.3893409E+000	1.000000000000000E+000	9	4.8059956E-003	2.9529727E-003	0	-1.736452543955400E-005	5.9580404E-001	1.5016012E-001	6.1443514E-001	1.4145626E+001	2.3893416E+003	9.4804063E+003	9.7768633E+003	-7.5854370E+001	0.0000000E+000	0.0000000E+000	0.0000000E+000	7.5854370E+001	0.0000000E+000	0.0000000E+000	0.0000000E+000	-7.5854370E+001	0.0000000E+000	0.0000000E+000	0.0000000E+000	-1.4145626E+001	0.0000000E+000	0.0000000E+000	0.0000000E+000	1.4145626E+001	3.9677916E+000	7.5854370E+001	-1.819770201458594E-006	-7.4342151E-006	9.1532090E+003
6.8110674E+003	1.6574733E+000	4.6366042E-001	1.7211039E+000	-1.5628395E+001	5.147525311127538E+000	2.6062965E-001	-1.3667992E-001	5.0397026E+001	3.6575544E+000	1.000000000000000E+000	9	4.5323051E-003	2.6333709E-003	0	-2.877999105404079E-005	5.5954158E-001	1.5652578E-001	5.8102244E-001	1.5628395E+001	3.6575547E+003	1.3074868E+004	1.3576814E+004	-7.4371605E+001	0.0000000E+000	0.0000000E+000	0.0000000E+000	7.4371605E+001	0.0000000E+000	0.0000000E+000	0.0000000E+000	-7.4371605E+001	0.0000000E+000	0.0000000E+000	0.0000000E+000	-1.5628395E+001	0.0000000E+000	0.0000000E+000	0.0000000E+000	1.5628395E+001	3.5747571E+000	7.4371605E+001	-1.141546561448680E-005	-3.5622841E-005	1.9068613E+003
4.6414854E+003	1.7461571E+000	5.5758238E-001	1.8330201E+000	-1.7709307E+001	5.841708410822321E+000	2.6079774E-001	3.8749715E-003	6.1497021E+001	5.6903338E+000	1.000000000000000E+000	9	5.0465232E-003	2.7531195E-003	0	-2.803241124486279E-005	5.1969540E-001	1.6594899E-001	5.4554778E-001	1.7709307E+001	5.6903325E+003	1.7820176E+004	1.8706645E+004	-7.2290695E+001	0.0000000E+000	0.0000000E+000	0.0000000E+000	7.2290695E+001	0.0000000E+000	0.0000000E+000	0.0000000E+000	-7.2290695E+001	0.0000000E+000	0.0000000E+000	0.0000000E+000	-1.7709307E+001	0.0000000E+000	0.0000000E+000	0.0000000E+000	1.7709307E+001	3.1316576E+000	7.2290695E+001	7.475798091780033E-007	1.0105838E-006	6.7303141E+004
3.1610117E+003	1.8510565E+000	6.6619015E-001	1.9672873E+000	-1.9793665E+001	6.308677099666966E+000	2.6080540E-001	3.3900954E-003	7.5578072E+001	8.6667576E+000	1.000000000000000E+000	9	4.9728574E-003	2.5277738E-003	0	-2.910223914202975E-005	4.7828209E-001	1.7213242E-001	5.0831419E-001	1.9793665E+001	8.6667568E+003	2.4081199E+004	2.5593297E+004	-7.0206337E+001	0.0000000E+000	0.0000000E+000	0.0000000E+000	7.0206337E+001	0.0000000E+000	0.0000000E+000	0.0000000E+000	-7.0206337E+001	0.0000000E+000	0.0000000E+000	0.0000000E+000	-1.9793665E+001	0.0000000E+000	0.0000000E+000	0.0000000E+000	1.9793665E+001	2.7785707E+000	7.0206337E+001	-1.069827897166962E-006	8.8415521E-007	7.6931578E+004
2.1556899E+003	1.9782383E+000	8.2083905E-001	2.1417758E+000	-2.2535240E+001	6.775685868517030E+000	2.6088467E-001	-3.7523338E-003	8.9944748E+001	1.3211246E+001	1.000000000000000E+000	9	4.9356990E-003	2.3044890E-003	0	-2.842057983910329E-005	4.3125147E-001	1.7894104E-001	4.6690226E-001	2.2535240E+001	1.3211247E+004	3.1839369E+004	3.4471473E+004	-6.7464760E+001	0.0000000E+000	0.0000000E+000	0.0000000E+000	6.7464760E+001	0.0000000E+000	0.0000000E+000	0.0000000E+000	-6.7464760E+001	0.0000000E+000	0.0000000E+000	0.0000000E+000	-2.2535240E+001	0.0000000E+000	0.0000000E+000	0.0000000E+000	2.2535240E+001	2.4100199E+000	6.7464760E+001	6.816593029264683E-007	-9.7892632E-007	6.9525977E+004
1.4685898E+003	2.1292884E+000	1.0188968E+000	2.3605127E+000	-2.5571819E+001	7.242932157358155E+000	2.6080012E-001	8.9276131E-005	1.0636272E+002	1.9816965E+001	1.000000000000000E+000	9	4.9096867E-003	2.0799239E-003	0	-2.981491242716503E-005	3.8213938E-001	1.8285948E-001	4.2363676E-001	2.5571819E+001	1.9816965E+004	4.1413449E+004	4.5910629E+004	-6.4428177E+001	0.0000000E+000	0.0000000E+000	0.0000000E+000	6.4428177E+001	0.0000000E+000	0.0000000E+000	0.0000000E+000	-6.4428177E+001	0.0000000E+000	0.0000000E+000	0.0000000E+000	-2.5571819E+001	0.0000000E+000	0.0000000E+000	0.0000000E+000	2.5571819E+001	2.0897980E+000	6.4428177E+001	-1.394332588061743E-006	2.3283226E-008	2.9212750E+006
1.0003202E+003	2.3196855E+000	1.2676227E+000	2.6434462E+000	-2.8654980E+001	7.711694366305892E+000	2.6080504E-001	-6.5123541E-003	1.2551369E+002	2.8862247E+001	1.000000000000000E+000	9	4.8893909E-003	1.8496276E-003	0	-3.063536632930482E-005	3.3196181E-001	1.8140490E-001	3.7829405E-001	2.8654980E+001	2.8862248E+004	5.2816457E+004	6.0188102E+004	-6.1345020E+001	0.0000000E+000	0.0000000E+000	0.0000000E+000	6.1345020E+001	0.0000000E+000	0.0000000E+000	0.0000000E+000	-6.1345020E+001	0.0000000E+000	0.0000000E+000	0.0000000E+000	-2.8654980E+001	0.0000000E+000	0.0000000E+000	0.0000000E+000	2.8654980E+001	1.8299494E+000	6.1345016E+001	-8.204539021397874E-007	-1.6984548E-006	4.0047734E+004
6.8108978E+002	2.5637553E+000	1.5971199E+000	3.0205352E+000	-3.1921303E+001	8.177431748394156E+000	2.6078430E-001	1.1149356E-003	1.4631143E+002	4.0905857E+001	1.000000000000000E+000	9	4.8741060E-003	1.6136564E-003	0	-3.241049369738903E-005	2.8100157E-001	1.7505306E-001	3.3106714E-001	3.1921303E+001	4.0905855E+004	6.5663570E+004	7.7362742E+004	-5.8078697E+001	0.0000000E+000	0.0000000E+000	0.0000000E+000	5.8078697E+001	0.0000000E+000	0.0000000E+000	0.0000000E+000	-5.8078697E+001	0.0000000E+000	0.0000000E+000	0.0000000E+000	-3.1921303E+001	0.0000000E+000	0.0000000E+000	0.0000000E+000	3.1921303E+001	1.6052365E+000	5.8078697E+001	-1.775127368084215E-006	2.9075770E-007	2.3390077E+005
4.6396069E+002	2.9052687E+000	2.0019722E+000	3.5282402E+000	-3.4570076E+001	8.900194529356668E+000	2.6077339E-001	-2.5255527E-002	1.7134872E+002	5.5167168E+001	1.000000000000000E+000	10	4.9318597E-003	1.3978243E-003	0	-3.378874886443373E-005	2.3338343E-001	1.6082062E-001	2.8342742E-001	3.4570076E+001	5.5167168E+004	8.0058781E+004	9.7225641E+004	-5.5429924E+001	0.0000000E+000	0.0000000E+000	0.0000000E+000	5.5429924E+001	0.0000000E+000	0.0000000E+000	0.0000000E+000	-5.5429924E+001	0.0000000E+000	0.0000000E+000	0.0000000E+000	-3.4570076E+001	0.0000000E+000	0.0000000E+000	0.0000000E+000	3.4570076E+001	1.4512033E+000	5.5429924E+001	-1.378255167044699E-006	-6.5859695E-006	1.0325398E+004
3.1631589E+002	3.3460021E+000	2.5020702E+000	4.1780481E+000	-3.6788368E+001	9.366909991571447E+000	2.6086420E-001	-2.6913589E-002	2.0109425E+002	7.2119339E+001	1.000000000000000E+000	10	4.9116965E-003	1.1755959E-003	0	-3.717178265729712E-005	1.9168112E-001	1.4333512E-001	2.3934621E-001	3.6788368E+001	7.2119336E+004	9.6444719E+004	1.2042750E+005	-5.3211632E+001	0.0000000E+000	0.0000000E+000	0.0000000E+000	5.3211632E+001	0.0000000E+000	0.0000000E+000	0.0000000E+000	-5.3211632E+001	0.0000000E+000	0.0000000E+000	0.0000000E+000	-3.6788368E+001	0.0000000E+000	0.0000000E+000	0.0000000E+000	3.6788368E+001	1.3372935E+000	5.3211632E+001	-3.383033792863389E-006	-7.0207916E-006	9.6926572E+003
2.1534457E+002	3.9145808E+000	3.0928743E+000	4.9889693E+000	-3.8311939E+001	9.834435560420388E+000	2.6076868E-001	-2.6268268E-002	2.3895932E+002	9.1838928E+001	1.000000000000000E+000	10	4.8903204E-003	9.8022656E-004	0	-4.118003897416767E-005	1.5727642E-001	1.2426265E-001	2.0044221E-001	3.8311939E+001	9.1838930E+004	1.1623845E+005	1.4814103E+005	-5.1688061E+001	0.0000000E+000	0.0000000E+000	0.0000000E+000	5.1688061E+001	0.0000000E+000	0.0000000E+000	0.0000000E+000	-5.1688061E+001	0.0000000E+000	0.0000000E+000	0.0000000E+000	-3.8311939E+001	0.0000000E+000	0.0000000E+000	0.0000000E+000	3.8311939E+001	1.2656773E+000	5.1688065E+001	-4.008256316870553E-006	-6.8499417E-006	9.9271367E+003
1.4673740E+002	4.6701441E+000	3.7604170E+000	5.9959135E+000	-3.8841145E+001	1.029739230239647E+001	2.6076323E-001	-2.6820349E-002	2.8843192E+002	1.1345003E+002	1.000000000000000E+000	10	4.8814309E-003	8.1412628E-004	0	-4.417736414898213E-005	1.2990311E-001	1.0459846E-001	1.6678026E-001	3.8841145E+001	1.1345002E+005	1.4089606E+005	1.8089391E+005	-5.1158855E+001	0.0000000E+000	0.0000000E+000	0.0000000E+000	5.1158855E+001	0.0000000E+000	0.0000000E+000	0.0000000E+000	-5.1158855E+001	0.0000000E+000	0.0000000E+000	0.0000000E+000	-3.8841145E+001	0.0000000E+000	0.0000000E+000	0.0000000E+000	3.8841145E+001	1.2419219E+000	5.1158859E+001	-2.997325174814455E-006	-6.9937605E-006	9.7225889E+003
1.0003201E+002	5.6435914E+000	4.5232081E+000	7.2325330E+000	-3.8711369E+001	1.076569213803305E+001	2.6076528E-001	-2.5361851E-002	3.5175037E+002	1.3757733E+002	1.000000000000000E+000	10	4.8751128E-003	6.7405333E-004	0	-4.690973989449816E-005	1.0788839E-001	8.6470053E-002	1.3826415E-001	3.8711369E+001	1.3757733E+005	1.7165477E+005	2.1998381E+005	-5.1288631E+001	0.0000000E+000	0.0000000E+000	0.0000000E+000	5.1288631E+001	0.0000000E+000	0.0000000E+000	0.0000000E+000	-5.1288631E+001	0.0000000E+000	0.0000000E+000	0.0000000E+000	-3.8711369E+001	0.0000000E+000	0.0000000E+000	0.0000000E+000	3.8711369E+001	1.2476966E+000	5.1288635E+001	-2.732375745516034E-006	-6.6134903E-006	1.0281792E+004
6.8103981E+001	6.9574299E+000	5.2429881E+000	8.7117596E+000	-3.7000988E+001	1.124434418740566E+001	2.6078227E-001	-2.2980141E-002	4.4572681E+002	1.6144133E+002	1.000000000000000E+000	10	4.8755710E-003	5.5965397E-004	0	-4.953129041623874E-005	9.1672078E-002	6.9082342E-002	1.1478737E-001	3.7000988E+001	1.6144133E+005	2.1423219E+005	2.6825125E+005	-5.2999012E+001	0.0000000E+000	0.0000000E+000	0.0000000E+000	5.2999012E+001	0.0000000E+000	0.0000000E+000	0.0000000E+000	-5.2999012E+001	0.0000000E+000	0.0000000E+000	0.0000000E+000	-3.7000988E+001	0.0000000E+000	0.0000000E+000	0.0000000E+000	3.7000988E+001	1.3269970E+000	5.2999008E+001	-2.621550521740574E-006	-5.9928134E-006	1.1348158E+004
4.6441547E+001	8.4788570E+000	5.9112778E+000	1.0336064E+001	-3.4883385E+001	1.169956114233355E+001	2.6079687E-001	-2.9299060E-002	5.7973846E+002	1.8962012E+002	1.000000000000000E+000	10	4.8683165E-003	4.7100292E-004	0	-5.304008033150199E-005	7.9364613E-002	5.5331312E-002	9.6748620E-002	3.4883385E+001	1.8962013E+005	2.7198213E+005	3.3155703E+005	-5.5116615E+001	0.0000000E+000	0.0000000E+000	0.0000000E+000	5.5116615E+001	0.0000000E+000	0.0000000E+000	0.0000000E+000	-5.5116615E+001	0.0000000E+000	0.0000000E+000	0.0000000E+000	-3.4883385E+001	0.0000000E+000	0.0000000E+000	0.0000000E+000	3.4883385E+001	1.4343526E+000	5.5116615E+001	-3.508789915263253E-006	-7.6411034E-006	8.9012031E+003
3.1629555E+001	1.0292821E+001	6.3756409E+000	1.2107475E+001	-3.1775150E+001	1.214645092355204E+001	2.6079476E-001	-3.0559864E-002	7.8922931E+002	2.1884857E+002	1.000000000000000E+000	10	4.8769135E-003	4.0280184E-004	0	-5.649484071231563E-005	7.0214570E-002	4.3492731E-002	8.2593605E-002	3.1775150E+001	2.1884855E+005	3.5330863E+005	4.1559797E+005	-5.8224850E+001	0.0000000E+000	0.0000000E+000	0.0000000E+000	5.8224850E+001	0.0000000E+000	0.0000000E+000	0.0000000E+000	-5.8224850E+001	0.0000000E+000	0.0000000E+000	0.0000000E+000	-3.1775150E+001	0.0000000E+000	0.0000000E+000	0.0000000E+000	3.1775150E+001	1.6143979E+000	5.8224854E+001	-3.454760380813643E-006	-7.9698520E-006	8.5338975E+003
2.1551722E+001	1.2055702E+001	6.4008489E+000	1.3649572E+001	-2.7965599E+001	1.258532971775276E+001	2.6077577E-001	-3.2402575E-002	1.1537203E+003	2.5371002E+002	1.000000000000000E+000	10	4.8370296E-003	3.5437226E-004	0	-6.102615478721822E-005	6.4707473E-002	3.4355756E-002	7.3262371E-002	2.7965599E+001	2.5371005E+005	4.7785113E+005	5.4102725E+005	-6.2034401E+001	0.0000000E+000	0.0000000E+000	0.0000000E+000	6.2034401E+001	0.0000000E+000	0.0000000E+000	0.0000000E+000	-6.2034401E+001	0.0000000E+000	0.0000000E+000	0.0000000E+000	-2.7965599E+001	0.0000000E+000	0.0000000E+000	0.0000000E+000	2.7965599E+001	1.8834536E+000	6.2034401E+001	-4.531314074902588E-006	-8.4498070E-006	8.0479956E+003
1.4685154E+001	1.4085778E+001	6.2988944E+000	1.5430011E+001	-2.4093292E+001	1.332202471277560E+001	2.6078221E-001	-1.2685250E-002	1.7205896E+003	2.8673022E+002	1.000000000000000E+000	11	4.8688184E-003	3.1554213E-004	0	-6.111254562330982E-005	5.9162758E-002	2.6456470E-002	6.4808771E-002	2.4093292E+001	2.8673022E+005	6.4119481E+005	7.0238525E+005	-6.5906708E+001	0.0000000E+000	0.0000000E+000	0.0000000E+000	6.5906708E+001	0.0000000E+000	0.0000000E+000	0.0000000E+000	-6.5906708E+001	0.0000000E+000	0.0000000E+000	0.0000000E+000	-2.4093292E+001	0.0000000E+000	0.0000000E+000	0.0000000E+000	2.4093292E+001	2.2362301E+000	6.5906708E+001	-8.639083609159807E-008	-3.3080876E-006	2.0557908E+004
