EC-Lab ASCII FILE

Nb header lines : 63                          

Potentio Electrochemical Impedance Spectroscopy

Run on channel : 3 (SN 65921)
User : 
CE vs. WE compliance from -10 V to 10 V
Electrode connection : standard
Potential control : Ewe
Ewe ctrl range : min = -10.00 V, max = 10.00 V
Safety Limits :
	Do not start on E overload
Acquisition started on : 09/22/2025 09:03:57.388
Loaded Setting File :  C:\Users\Celltest\OneDrive - store-dot.com\Documents\EC-Lab\Data\Gyutae\17738_R277_UA674_SOC00_C02.mpr
Saved on :
	File : 17696_R287_UA660_SOC00_C03.mpr
	Directory : C:\Users\Celltest\OneDrive - store-dot.com\Documents\EC-Lab\Data\Charmaine\
	Host : 169.254.61.224
Device : VMP-3e (SN .003165)
Address : USB
EC-LAB for windows v11.62 (software)
Internet server v27.00 (firmware)
Command interpretor v12.03 (firmware)
Electrode material : 
Initial state : 
Electrolyte : 
Comments : 
Electrode surface area : 0.001 cm²
Characteristic mass : 0.001 g
Equivalent Weight : 0.000 g/eq.
Density : 0.000 g/cm3
Volume (V) : 0.001 cm³
Cycle Definition : Charge/Discharge alternance
Mode                Single sine         
E (V)               0.0000              
vs.                 Eoc                 
tE (h:m:s)          0:00:0.0000         
record              0                   
dI                  0.000               
unit dI             mA                  
dt (s)              0.000               
fi                  100.000             
unit fi             kHz                 
ff                  10.000              
unit ff             mHz                 
Nd                  6                   
Points              per decade          
spacing             Logarithmic         
Va (mV)             5.0                 
pw                  0.10                
Na                  2                   
corr                0                   
E range min (V)     -10.000             
E range max (V)     10.000              
I Range             Auto                
Bandwidth           5                   
nc cycles           0                   
goto Ns'            0                   
nr cycles           0                   
inc. cycle          0                   

freq/Hz	Re(Z)/Ohm	-Im(Z)/Ohm	|Z|/Ohm	Phase(Z)/deg	time/s	<Ewe>/V	<I>/mA	Cs/µF	Cp/µF	cycle number	I Range	|Ewe|/V	|I|/A	Ns	(Q-Qo)/mA.h	Re(Y)/Ohm-1	Im(Y)/Ohm-1	|Y|/Ohm-1	Phase(Y)/deg	Re(C)/nF	Im(C)/nF	|C|/nF	Phase(C)/deg	Re(M)	Im(M)	|M|	Phase(M)/deg	Re(Permittivity)	Im(Permittivity)	|Permittivity|	Phase(Permittivity)/deg	Re(Resistivity)/Ohm.cm	Im(Resistivity)/Ohm.cm	|Resistivity|/Ohm.cm	Phase(Resistivity)/deg	Re(Conductivity)/mS/cm	Im(Conductivity)/mS/cm	|Conductivity|/mS/cm	Phase(Conductivity)/deg	Tan(Delta)	Loss Angle(Delta)/deg	dq/mA.h	Pwe/W	Rwe/Ohm	
1.0000371E+005	1.2880982E+000	2.6909617E-001	1.3159064E+000	-1.1799933E+001	1.864476275193738E+000	2.7093238E-001	3.6075134E-002	5.9142065E+000	2.4732129E-001	1.000000000000000E+000	9	4.5823432E-003	3.4822712E-003	0	1.550051099850356E-006	7.4387330E-001	1.5540232E-001	7.5993246E-001	1.1799933E+001	2.4732133E+002	1.1838673E+003	1.2094253E+003	-7.8200066E+001	0.0000000E+000	0.0000000E+000	0.0000000E+000	7.8200066E+001	0.0000000E+000	0.0000000E+000	0.0000000E+000	-7.8200066E+001	0.0000000E+000	0.0000000E+000	0.0000000E+000	-1.1799933E+001	0.0000000E+000	0.0000000E+000	0.0000000E+000	1.1799933E+001	4.7867579E+000	7.8200066E+001	1.550051099850356E-006	9.7739221E-006	7.5102251E+003
6.8132047E+004	1.3505100E+000	2.7922896E-001	1.3790743E+000	-1.1681765E+001	2.442474649316864E+000	2.7092326E-001	3.3017058E-002	8.3658152E+000	3.4296814E-001	1.000000000000000E+000	9	5.0567244E-003	3.6667525E-003	0	1.914626244086927E-005	7.1010476E-001	1.4681995E-001	7.2512406E-001	1.1681765E+001	3.4296808E+002	1.6587889E+003	1.6938737E+003	-7.8318237E+001	0.0000000E+000	0.0000000E+000	0.0000000E+000	7.8318237E+001	0.0000000E+000	0.0000000E+000	0.0000000E+000	-7.8318237E+001	0.0000000E+000	0.0000000E+000	0.0000000E+000	-1.1681765E+001	0.0000000E+000	0.0000000E+000	0.0000000E+000	1.1681765E+001	4.8365688E+000	7.8318237E+001	1.759621134101892E-005	8.9450887E-006	8.2055537E+003
4.6420355E+004	1.4148301E+000	2.9520696E-001	1.4452997E+000	-1.1785780E+001	3.020495263423072E+000	2.7094278E-001	3.5534382E-002	1.1614088E+001	4.8453197E-001	1.000000000000000E+000	9	5.0410717E-003	3.4879074E-003	0	3.422512139243514E-005	6.7731148E-001	1.4132231E-001	6.9189799E-001	1.1785780E+001	4.8453201E+002	2.3222026E+003	2.3722134E+003	-7.8214218E+001	0.0000000E+000	0.0000000E+000	0.0000000E+000	7.8214218E+001	0.0000000E+000	0.0000000E+000	0.0000000E+000	-7.8214218E+001	0.0000000E+000	0.0000000E+000	0.0000000E+000	-1.1785780E+001	0.0000000E+000	0.0000000E+000	0.0000000E+000	1.1785780E+001	4.7926717E+000	7.8214218E+001	1.507885895156586E-005	9.6277845E-006	7.6248062E+003
3.1621139E+004	1.4756923E+000	3.1752974E-001	1.5094677E+000	-1.2143376E+001	3.598492704244563E+000	2.7095079E-001	4.0233377E-002	1.5851057E+001	7.0142198E-001	1.000000000000000E+000	9	5.1082019E-003	3.3841080E-003	0	4.506935769935242E-005	6.4766157E-001	1.3935955E-001	6.6248518E-001	1.2143376E+001	7.0142212E+002	3.2597986E+003	3.3344084E+003	-7.7856621E+001	0.0000000E+000	0.0000000E+000	0.0000000E+000	7.7856621E+001	0.0000000E+000	0.0000000E+000	0.0000000E+000	-7.7856621E+001	0.0000000E+000	0.0000000E+000	0.0000000E+000	-1.2143376E+001	0.0000000E+000	0.0000000E+000	0.0000000E+000	1.2143376E+001	4.6474142E+000	7.7856621E+001	1.084423630691728E-005	1.0901265E-005	6.7344780E+003
2.1544684E+004	1.5453627E+000	3.4954730E-001	1.5844018E+000	-1.2745323E+001	4.035488964960678E+000	2.7091715E-001	3.7566893E-002	2.1133631E+001	1.0286208E+000	1.000000000000000E+000	9	5.2300594E-003	3.3009679E-003	0	4.647407585413506E-005	6.1560160E-001	1.3924360E-001	6.3115299E-001	1.2745323E+001	1.0286207E+003	4.5475742E+003	4.6624556E+003	-7.7254677E+001	0.0000000E+000	0.0000000E+000	0.0000000E+000	7.7254677E+001	0.0000000E+000	0.0000000E+000	0.0000000E+000	-7.7254677E+001	0.0000000E+000	0.0000000E+000	0.0000000E+000	-1.2745323E+001	0.0000000E+000	0.0000000E+000	0.0000000E+000	1.2745323E+001	4.4210405E+000	7.7254677E+001	1.404718154782633E-006	1.0177516E-005	7.2115933E+003
1.4678594E+004	1.6206039E+000	3.8708878E-001	1.6661917E+000	-1.3433667E+001	4.331481165689183E+000	2.7092642E-001	3.7212599E-002	2.8010771E+001	1.5118068E+000	1.000000000000000E+000	9	5.0560413E-003	3.0344895E-003	0	4.850393710857154E-005	5.8375007E-001	1.3943142E-001	6.0017103E-001	1.3433667E+001	1.5118073E+003	6.3294014E+003	6.5074482E+003	-7.6566330E+001	0.0000000E+000	0.0000000E+000	0.0000000E+000	7.6566330E+001	0.0000000E+000	0.0000000E+000	0.0000000E+000	-7.6566330E+001	0.0000000E+000	0.0000000E+000	0.0000000E+000	-1.3433667E+001	0.0000000E+000	0.0000000E+000	0.0000000E+000	1.3433667E+001	4.1866465E+000	7.6566330E+001	2.029861254436485E-006	1.0081876E-005	7.2805024E+003
1.0002226E+004	1.6979084E+000	4.3889043E-001	1.7537154E+000	-1.4493088E+001	4.627494673099136E+000	2.7091947E-001	3.8890801E-002	3.6254959E+001	2.2707083E+000	1.000000000000000E+000	9	4.7076023E-003	2.6843594E-003	0	5.355097057384491E-005	5.5207241E-001	1.4270458E-001	5.7021797E-001	1.4493088E+001	2.2707085E+003	8.7845498E+003	9.0732813E+003	-7.5506912E+001	0.0000000E+000	0.0000000E+000	0.0000000E+000	7.5506912E+001	0.0000000E+000	0.0000000E+000	0.0000000E+000	-7.5506912E+001	0.0000000E+000	0.0000000E+000	0.0000000E+000	-1.4493088E+001	0.0000000E+000	0.0000000E+000	0.0000000E+000	1.4493088E+001	3.8686385E+000	7.5506912E+001	5.047033465273366E-006	1.0536275E-005	6.9661582E+003
6.8110674E+003	1.7840322E+000	5.1759279E-001	1.8575988E+000	-1.6178778E+001	5.005492904369021E+000	2.7073920E-001	-6.1354332E-002	4.5145737E+001	3.5050106E+000	1.000000000000000E+000	9	4.5057377E-003	2.4255710E-003	0	4.910416487625722E-005	5.1700985E-001	1.4999762E-001	5.3832936E-001	1.6178778E+001	3.5050105E+003	1.2081024E+004	1.2579199E+004	-7.3821220E+001	0.0000000E+000	0.0000000E+000	0.0000000E+000	7.3821220E+001	0.0000000E+000	0.0000000E+000	0.0000000E+000	-7.3821220E+001	0.0000000E+000	0.0000000E+000	0.0000000E+000	-1.6178778E+001	0.0000000E+000	0.0000000E+000	0.0000000E+000	1.6178778E+001	3.4467874E+000	7.3821220E+001	-4.446805697587685E-006	-1.6611022E-005	4.4127153E+003
4.6414854E+003	1.8784326E+000	6.0800445E-001	1.9743806E+000	-1.7935547E+001	5.699691044079373E+000	2.7093688E-001	7.0981912E-002	5.6397049E+001	5.3482065E+000	1.000000000000000E+000	9	4.9071019E-003	2.4853880E-003	0	6.376436322478629E-005	4.8187444E-001	1.5597142E-001	5.0648797E-001	1.7935547E+001	5.3482065E+003	1.6523309E+004	1.7367299E+004	-7.2064453E+001	0.0000000E+000	0.0000000E+000	0.0000000E+000	7.2064453E+001	0.0000000E+000	0.0000000E+000	0.0000000E+000	-7.2064453E+001	0.0000000E+000	0.0000000E+000	0.0000000E+000	-1.7935547E+001	0.0000000E+000	0.0000000E+000	0.0000000E+000	1.7935547E+001	3.0895047E+000	7.2064453E+001	1.466019834852907E-005	1.9231618E-005	3.8169849E+003
3.1610117E+003	1.9887164E+000	7.3423725E-001	2.1199286E+000	-2.0264225E+001	6.166697652923176E+000	2.7093589E-001	6.8800226E-002	6.8573700E+001	8.2259865E+000	1.000000000000000E+000	9	4.8340987E-003	2.2803121E-003	0	7.033002767150498E-005	4.4251743E-001	1.6337813E-001	4.7171399E-001	2.0264225E+001	8.2259844E+003	2.2280475E+004	2.3750502E+004	-6.9735779E+001	0.0000000E+000	0.0000000E+000	0.0000000E+000	6.9735779E+001	0.0000000E+000	0.0000000E+000	0.0000000E+000	-6.9735779E+001	0.0000000E+000	0.0000000E+000	0.0000000E+000	-2.0264225E+001	0.0000000E+000	0.0000000E+000	0.0000000E+000	2.0264225E+001	2.7085474E+000	6.9735779E+001	6.565664446718690E-006	1.8640450E-005	3.9380088E+003
2.1556899E+003	2.1224284E+000	9.0007520E-001	2.3053932E+000	-2.2980732E+001	6.632689061727433E+000	2.7093372E-001	6.6469371E-002	8.2026665E+001	1.2503241E+001	1.000000000000000E+000	9	4.7939336E-003	2.0794428E-003	0	7.983205410382814E-005	3.9934018E-001	1.6935138E-001	4.3376547E-001	2.2980732E+001	1.2503240E+004	2.9483355E+004	3.2024979E+004	-6.7019272E+001	0.0000000E+000	0.0000000E+000	0.0000000E+000	6.7019272E+001	0.0000000E+000	0.0000000E+000	0.0000000E+000	-6.7019272E+001	0.0000000E+000	0.0000000E+000	0.0000000E+000	-2.2980732E+001	0.0000000E+000	0.0000000E+000	0.0000000E+000	2.2980732E+001	2.3580568E+000	6.7019272E+001	9.502026432323159E-006	1.8008794E-005	4.0760686E+003
1.4685898E+003	2.2895281E+000	1.1217576E+000	2.5495646E+000	-2.6102612E+001	7.099933963909280E+000	2.7095383E-001	7.3107608E-002	9.6609673E+001	1.8701939E+001	1.000000000000000E+000	9	4.7719241E-003	1.8716624E-003	0	8.977949046020512E-005	3.5221997E-001	1.7257068E-001	3.9222383E-001	2.6102612E+001	1.8701939E+004	3.8171004E+004	4.2506328E+004	-6.3897388E+001	0.0000000E+000	0.0000000E+000	0.0000000E+000	6.3897388E+001	0.0000000E+000	0.0000000E+000	0.0000000E+000	-6.3897388E+001	0.0000000E+000	0.0000000E+000	0.0000000E+000	-2.6102612E+001	0.0000000E+000	0.0000000E+000	0.0000000E+000	2.6102612E+001	2.0410185E+000	6.3897385E+001	9.947436356376980E-006	1.9808787E-005	3.7062332E+003
1.0003202E+003	2.4883795E+000	1.4061685E+000	2.8582060E+000	-2.9470535E+001	7.569705639565655E+000	2.7093029E-001	6.8874784E-002	1.1314718E+002	2.7386175E+001	1.000000000000000E+000	9	4.7495365E-003	1.6617194E-003	0	9.672053058617490E-005	3.0459973E-001	1.7212752E-001	3.4986982E-001	2.9470535E+001	2.7386176E+004	4.8463035E+004	5.5665684E+004	-6.0529465E+001	0.0000000E+000	0.0000000E+000	0.0000000E+000	6.0529465E+001	0.0000000E+000	0.0000000E+000	0.0000000E+000	-6.0529465E+001	0.0000000E+000	0.0000000E+000	0.0000000E+000	-2.9470535E+001	0.0000000E+000	0.0000000E+000	0.0000000E+000	2.9470535E+001	1.7696170E+000	6.0529465E+001	6.941040125969781E-006	1.8660265E-005	3.9336646E+003
6.8108978E+002	2.7361996E+000	1.7849232E+000	3.2669158E+000	-3.3117882E+001	8.289433033700334E+000	2.7089816E-001	-1.4390369E-002	1.3091707E+002	3.9080441E+001	1.000000000000000E+000	10	4.8252195E-003	1.4769954E-003	0	1.003684111444163E-004	2.5637278E-001	1.6724135E-001	3.0609912E-001	3.3117882E+001	3.9080438E+004	5.9908395E+004	7.1528289E+004	-5.6882118E+001	0.0000000E+000	0.0000000E+000	0.0000000E+000	5.6882118E+001	0.0000000E+000	0.0000000E+000	0.0000000E+000	-5.6882118E+001	0.0000000E+000	0.0000000E+000	0.0000000E+000	-3.3117882E+001	0.0000000E+000	0.0000000E+000	0.0000000E+000	3.3117882E+001	1.5329509E+000	5.6882118E+001	3.647880558241409E-006	-3.8983244E-006	1.8824963E+004
4.6396069E+002	3.0901873E+000	2.2631230E+000	3.8302720E+000	-3.6217476E+001	8.758185482613044E+000	2.7089554E-001	-1.4142397E-002	1.5157611E+002	5.2916103E+001	1.000000000000000E+000	10	4.7872784E-003	1.2498534E-003	0	9.873510250769646E-005	2.1063259E-001	1.5425843E-001	2.6107806E-001	3.6217476E+001	5.2916109E+004	7.2254438E+004	8.9559023E+004	-5.3782524E+001	0.0000000E+000	0.0000000E+000	0.0000000E+000	5.3782524E+001	0.0000000E+000	0.0000000E+000	0.0000000E+000	-5.3782524E+001	0.0000000E+000	0.0000000E+000	0.0000000E+000	-3.6217476E+001	0.0000000E+000	0.0000000E+000	0.0000000E+000	3.6217476E+001	1.3654526E+000	5.3782524E+001	-1.633308636719849E-006	-3.8311123E-006	1.9154854E+004
3.1631589E+002	3.5576520E+000	2.8667724E+000	4.5689464E+000	-3.8862026E+001	9.224936118174810E+000	2.7092212E-001	-1.3245608E-002	1.7551163E+002	6.9097168E+001	1.000000000000000E+000	10	4.7528152E-003	1.0402432E-003	0	9.645903592856160E-005	1.7042422E-001	1.3732862E-001	2.1886884E-001	3.8862026E+001	6.9097156E+004	8.5749266E+004	1.1012427E+005	-5.1137974E+001	0.0000000E+000	0.0000000E+000	0.0000000E+000	5.1137974E+001	0.0000000E+000	0.0000000E+000	0.0000000E+000	-5.1137974E+001	0.0000000E+000	0.0000000E+000	0.0000000E+000	-3.8862026E+001	0.0000000E+000	0.0000000E+000	0.0000000E+000	3.8862026E+001	1.2409956E+000	5.1137970E+001	-2.276066579134855E-006	-3.5885282E-006	2.0453732E+004
2.1534457E+002	4.2085023E+000	3.5934467E+000	5.5339274E+000	-4.0492489E+001	9.692456060351105E+000	2.7091682E-001	-1.3029334E-002	2.0567192E+002	8.6722244E+001	1.000000000000000E+000	10	4.7395732E-003	8.5645739E-004	0	9.425573608624918E-005	1.3742340E-001	1.1733951E-001	1.8070349E-001	4.0492489E+001	8.6722242E+004	1.0156566E+005	1.3355272E+005	-4.9507511E+001	0.0000000E+000	0.0000000E+000	0.0000000E+000	4.9507511E+001	0.0000000E+000	0.0000000E+000	0.0000000E+000	-4.9507511E+001	0.0000000E+000	0.0000000E+000	0.0000000E+000	-4.0492489E+001	0.0000000E+000	0.0000000E+000	0.0000000E+000	4.0492489E+001	1.1711603E+000	4.9507507E+001	-2.203299842312430E-006	-3.5298658E-006	2.0792836E+004
1.4673740E+002	5.0728397E+000	4.4155874E+000	6.7254081E+000	-4.1037518E+001	1.015538416235358E+001	2.7089983E-001	-1.3305282E-002	2.4563535E+002	1.0588404E+002	1.000000000000000E+000	10	4.7204089E-003	7.0187694E-004	0	9.301573936584949E-005	1.1215377E-001	9.7622789E-002	1.4868987E-001	4.1037518E+001	1.0588405E+005	1.2164470E+005	1.6127264E+005	-4.8962482E+001	0.0000000E+000	0.0000000E+000	0.0000000E+000	4.8962482E+001	0.0000000E+000	0.0000000E+000	0.0000000E+000	-4.8962482E+001	0.0000000E+000	0.0000000E+000	0.0000000E+000	-4.1037518E+001	0.0000000E+000	0.0000000E+000	0.0000000E+000	4.1037518E+001	1.1488482E+000	4.8962479E+001	-1.239996720399689E-006	-3.6043987E-006	2.0360322E+004
1.0003201E+002	6.2032647E+000	5.3553433E+000	8.1951323E+000	-4.0804386E+001	1.062368127795344E+001	2.7090317E-001	-1.3180368E-002	2.9709396E+002	1.2686929E+002	1.000000000000000E+000	10	4.7200108E-003	5.7595299E-004	0	9.203778992571299E-005	9.2365198E-002	7.9739846E-002	1.2202366E-001	4.0804386E+001	1.2686929E+005	1.4695673E+005	1.9414453E+005	-4.9195614E+001	0.0000000E+000	0.0000000E+000	0.0000000E+000	4.9195614E+001	0.0000000E+000	0.0000000E+000	0.0000000E+000	-4.9195614E+001	0.0000000E+000	0.0000000E+000	0.0000000E+000	-4.0804386E+001	0.0000000E+000	0.0000000E+000	0.0000000E+000	4.0804386E+001	1.1583319E+000	4.9195618E+001	-9.779494401364970E-007	-3.5706034E-006	2.0553537E+004
6.8103981E+001	7.6814213E+000	6.3065290E+000	9.9386387E+000	-3.9386360E+001	1.110232922065188E+001	2.7090073E-001	-1.2016959E-002	3.7055890E+002	1.4920529E+002	1.000000000000000E+000	10	4.7145807E-003	4.7436886E-004	0	9.090586355156363E-005	7.7765644E-002	6.3846424E-002	1.0061740E-001	3.9386360E+001	1.4920528E+005	1.8173367E+005	2.3513686E+005	-5.0613640E+001	0.0000000E+000	0.0000000E+000	0.0000000E+000	5.0613640E+001	0.0000000E+000	0.0000000E+000	0.0000000E+000	-5.0613640E+001	0.0000000E+000	0.0000000E+000	0.0000000E+000	-3.9386360E+001	0.0000000E+000	0.0000000E+000	0.0000000E+000	3.9386360E+001	1.2180109E+000	5.0613647E+001	-1.131926374149360E-006	-3.2554030E-006	2.2543201E+004
4.6441547E+001	9.5109177E+000	7.2168369E+000	1.1939024E+001	-3.7191048E+001	1.155755777560989E+001	2.7089962E-001	-1.5208884E-002	4.7486105E+002	1.7350928E+002	1.000000000000000E+000	10	4.7184071E-003	3.9520877E-004	0	8.928860864139925E-005	6.6724412E-002	5.0630156E-002	8.3758943E-002	3.7191048E+001	1.7350927E+005	2.2866420E+005	2.8704144E+005	-5.2808952E+001	0.0000000E+000	0.0000000E+000	0.0000000E+000	5.2808952E+001	0.0000000E+000	0.0000000E+000	0.0000000E+000	-5.2808952E+001	0.0000000E+000	0.0000000E+000	0.0000000E+000	-3.7191048E+001	0.0000000E+000	0.0000000E+000	0.0000000E+000	3.7191048E+001	1.3178790E+000	5.2808952E+001	-1.617254910164383E-006	-4.1200810E-006	1.7811934E+004
3.1629555E+001	1.1672239E+001	7.8823586E+000	1.4084486E+001	-3.4031479E+001	1.200445161017706E+001	2.7089462E-001	-1.6907390E-002	6.3836761E+002	1.9994070E+002	1.000000000000000E+000	10	4.7131055E-003	3.3463098E-004	0	8.728874321544167E-005	5.8839936E-002	3.9735090E-002	7.1000107E-002	3.4031479E+001	1.9994072E+005	2.9607331E+005	3.5726138E+005	-5.5968521E+001	0.0000000E+000	0.0000000E+000	0.0000000E+000	5.5968521E+001	0.0000000E+000	0.0000000E+000	0.0000000E+000	-5.5968521E+001	0.0000000E+000	0.0000000E+000	0.0000000E+000	-3.4031479E+001	0.0000000E+000	0.0000000E+000	0.0000000E+000	3.4031479E+001	1.4808054E+000	5.5968521E+001	-1.999865425957574E-006	-4.5801212E-006	1.6022261E+004
2.1551722E+001	1.4112580E+001	8.2340088E+000	1.6339027E+001	-3.0261497E+001	1.268435572247836E+001	2.7092043E-001	-1.1831120E-002	8.9686444E+002	2.2777028E+002	1.000000000000000E+000	11	4.7134501E-003	2.8847801E-004	0	8.460127150965693E-005	5.2863266E-002	3.0843165E-002	6.1203152E-002	3.0261497E+001	2.2777031E+005	3.9038416E+005	4.5197247E+005	-5.9738503E+001	0.0000000E+000	0.0000000E+000	0.0000000E+000	5.9738503E+001	0.0000000E+000	0.0000000E+000	0.0000000E+000	-5.9738503E+001	0.0000000E+000	0.0000000E+000	0.0000000E+000	-3.0261497E+001	0.0000000E+000	0.0000000E+000	0.0000000E+000	3.0261497E+001	1.7139380E+000	5.9738503E+001	-2.687471705784740E-006	-3.2052919E-006	2.2898967E+004
1.4685154E+001	1.6481472E+001	8.1949387E+000	1.8406410E+001	-2.6437542E+001	1.316202171848272E+001	2.7091217E-001	-1.1436217E-002	1.3225006E+003	2.6214957E+002	1.000000000000000E+000	11	4.7052284E-003	2.5562989E-004	0	8.326504090768705E-005	4.8647195E-002	2.4188420E-002	5.4328900E-002	2.6437542E+001	2.6214953E+005	5.2722913E+005	5.8880638E+005	-6.3562458E+001	0.0000000E+000	0.0000000E+000	0.0000000E+000	6.3562458E+001	0.0000000E+000	0.0000000E+000	0.0000000E+000	-6.3562458E+001	0.0000000E+000	0.0000000E+000	0.0000000E+000	-2.6437542E+001	0.0000000E+000	0.0000000E+000	0.0000000E+000	2.6437542E+001	2.0111771E+000	6.3562454E+001	-1.336230601969881E-006	-3.0982103E-006	2.3688969E+004
