EC-Lab ASCII FILE
Nb header lines : 63                          

Potentio Electrochemical Impedance Spectroscopy

Run on channel : 2 (SN 66139)
User : 
CE vs. WE compliance from -10 V to 10 V
Electrode connection : standard
Potential control : Ewe
Ewe ctrl range : min = -10.00 V, max = 10.00 V
Safety Limits :
	Do not start on E overload
Acquisition started on : 09/22/2025 09:03:30.551
Loaded Setting File :  C:\Users\Celltest\OneDrive - store-dot.com\Documents\EC-Lab\Data\Gyutae\17737_R277_UA674_SOC00_C01.mpr
Saved on :
	File : 17695_R287_UA658_SOC00_C02.mpr
	Directory : C:\Users\Celltest\OneDrive - store-dot.com\Documents\EC-Lab\Data\Charmaine\
	Host : 169.254.61.224
Device : VMP-3e (SN .003165)
Address : USB
EC-LAB for windows v11.62 (software)
Internet server v27.00 (firmware)
Command interpretor v12.03 (firmware)
Electrode material : 
Initial state : 
Electrolyte : 
Comments : 
Electrode surface area : 0.001 cm²
Characteristic mass : 0.001 g
Equivalent Weight : 0.000 g/eq.
Density : 0.000 g/cm3
Volume (V) : 0.001 cm³
Cycle Definition : Charge/Discharge alternance
Mode                Single sine         
E (V)               0.0000              
vs.                 Eoc                 
tE (h:m:s)          0:00:0.0000         
record              0                   
dI                  0.000               
unit dI             mA                  
dt (s)              0.000               
fi                  100.000             
unit fi             kHz                 
ff                  10.000              
unit ff             mHz                 
Nd                  6                   
Points              per decade          
spacing             Logarithmic         
Va (mV)             5.0                 
pw                  0.10                
Na                  2                   
corr                0                   
E range min (V)     -10.000             
E range max (V)     10.000              
I Range             Auto                
Bandwidth           5                   
nc cycles           0                   
goto Ns'            0                   
nr cycles           0                   
inc. cycle          0                   

freq/Hz	Re(Z)/Ohm	-Im(Z)/Ohm	|Z|/Ohm	Phase(Z)/deg	time/s	<Ewe>/V	<I>/mA	Cs/µF	Cp/µF	cycle number	I Range	|Ewe|/V	|I|/A	Ns	(Q-Qo)/mA.h	Re(Y)/Ohm-1	Im(Y)/Ohm-1	|Y|/Ohm-1	Phase(Y)/deg	Re(C)/nF	Im(C)/nF	|C|/nF	Phase(C)/deg	Re(M)	Im(M)	|M|	Phase(M)/deg	Re(Permittivity)	Im(Permittivity)	|Permittivity|	Phase(Permittivity)/deg	Re(Resistivity)/Ohm.cm	Im(Resistivity)/Ohm.cm	|Resistivity|/Ohm.cm	Phase(Resistivity)/deg	Re(Conductivity)/mS/cm	Im(Conductivity)/mS/cm	|Conductivity|/mS/cm	Phase(Conductivity)/deg	Tan(Delta)	Loss Angle(Delta)/deg	dq/mA.h	Pwe/W	Rwe/Ohm	
1.0000371E+005	7.5559616E-001	1.5873548E-001	7.7208972E-001	-1.1864158E+001	1.865496595244622E+000	2.7561542E-001	1.5869141E-002	1.0026052E+001	4.2378196E-001	1.000000000000000E+000	9	4.7872891E-003	6.2004309E-003	0	-1.481275395743756E-005	1.2675183E+000	2.6627997E-001	1.2951863E+000	1.1864158E+001	4.2378207E+002	2.0172432E+003	2.0612766E+003	-7.8135841E+001	0.0000000E+000	0.0000000E+000	0.0000000E+000	7.8135841E+001	0.0000000E+000	0.0000000E+000	0.0000000E+000	-7.8135841E+001	0.0000000E+000	0.0000000E+000	0.0000000E+000	-1.1864158E+001	0.0000000E+000	0.0000000E+000	0.0000000E+000	1.1864158E+001	4.7600961E+000	7.8135841E+001	-1.481275395743756E-005	4.3737800E-006	1.7368012E+004
6.8132047E+004	7.9591966E-001	1.7820895E-001	8.1562644E-001	-1.2620556E+001	2.302494269359158E+000	2.7560133E-001	1.0058780E-002	1.3108084E+001	6.2577122E-001	1.000000000000000E+000	9	5.3212601E-003	6.5241386E-003	0	-4.022786070282261E-006	1.1964282E+000	2.6788411E-001	1.2260514E+000	1.2620556E+001	6.2577142E+002	2.7948293E+003	2.8640288E+003	-7.7379440E+001	0.0000000E+000	0.0000000E+000	0.0000000E+000	7.7379440E+001	0.0000000E+000	0.0000000E+000	0.0000000E+000	-7.7379440E+001	0.0000000E+000	0.0000000E+000	0.0000000E+000	-1.2620556E+001	0.0000000E+000	0.0000000E+000	0.0000000E+000	1.2620556E+001	4.4662161E+000	7.7379440E+001	1.078996788715530E-005	2.7722131E-006	2.7399080E+004
4.6420355E+004	8.3749473E-001	1.9982034E-001	8.6100268E-001	-1.3419481E+001	2.740485090151196E+000	2.7559796E-001	1.3801993E-002	1.7158211E+001	9.2414975E-001	1.000000000000000E+000	9	5.3637074E-003	6.2296060E-003	0	-1.777890784055409E-005	1.1297259E+000	2.6954463E-001	1.1614366E+000	1.3419481E+001	9.2414960E+002	3.8733323E+003	3.9820542E+003	-7.6580521E+001	0.0000000E+000	0.0000000E+000	0.0000000E+000	7.6580521E+001	0.0000000E+000	0.0000000E+000	0.0000000E+000	-7.6580521E+001	0.0000000E+000	0.0000000E+000	0.0000000E+000	-1.3419481E+001	0.0000000E+000	0.0000000E+000	0.0000000E+000	1.3419481E+001	4.1912389E+000	7.6580521E+001	-1.375612177027183E-005	3.8038011E-006	1.9967982E+004
3.1621139E+004	8.8443524E-001	2.2719000E-001	9.1314894E-001	-1.4406420E+001	3.319474957621424E+000	2.7559352E-001	1.1604479E-002	2.2154064E+001	1.3713510E+000	1.000000000000000E+000	9	5.0096540E-003	5.4861302E-003	0	-4.330845730327484E-006	1.0606761E+000	2.7246204E-001	1.0951116E+000	1.4406420E+001	1.3713508E+003	5.3385762E+003	5.5118960E+003	-7.5593582E+001	0.0000000E+000	0.0000000E+000	0.0000000E+000	7.5593582E+001	0.0000000E+000	0.0000000E+000	0.0000000E+000	-7.5593582E+001	0.0000000E+000	0.0000000E+000	0.0000000E+000	-1.4406420E+001	0.0000000E+000	0.0000000E+000	0.0000000E+000	1.4406420E+001	3.8929319E+000	7.5593582E+001	1.344806211022660E-005	3.1981192E-006	2.3748893E+004
2.1544684E+004	9.3989271E-001	2.5939596E-001	9.7503054E-001	-1.5428687E+001	3.897487891750643E+000	2.7558565E-001	7.4887984E-003	2.8478481E+001	2.0156114E+000	1.000000000000000E+000	9	4.9861530E-003	5.1138429E-003	0	-3.582262499277325E-006	9.8864836E-001	2.7285177E-001	1.0256089E+000	1.5428687E+001	2.0156113E+003	7.3033457E+003	7.5763809E+003	-7.4571312E+001	0.0000000E+000	0.0000000E+000	0.0000000E+000	7.4571312E+001	0.0000000E+000	0.0000000E+000	0.0000000E+000	-7.4571312E+001	0.0000000E+000	0.0000000E+000	0.0000000E+000	-1.5428687E+001	0.0000000E+000	0.0000000E+000	0.0000000E+000	1.5428687E+001	3.6233900E+000	7.4571312E+001	7.485832310501594E-007	2.0638054E-006	3.6799715E+004
1.4678594E+004	9.9791068E-001	2.9549789E-001	1.0407424E+000	-1.6494894E+001	4.193479265813949E+000	2.7559298E-001	8.7737795E-003	3.6692833E+001	2.9580367E+000	1.000000000000000E+000	9	5.3067240E-003	5.0989795E-003	0	-4.230366572013332E-006	9.2130870E-001	2.7281478E-001	9.6085256E-001	1.6494894E+001	2.9580369E+003	9.9894326E+003	1.0418193E+004	-7.3505104E+001	0.0000000E+000	0.0000000E+000	0.0000000E+000	7.3505104E+001	0.0000000E+000	0.0000000E+000	0.0000000E+000	-7.3505104E+001	0.0000000E+000	0.0000000E+000	0.0000000E+000	-1.6494894E+001	0.0000000E+000	0.0000000E+000	0.0000000E+000	1.6494894E+001	3.3770483E+000	7.3505104E+001	-6.481040727360074E-007	2.4179922E-006	3.1410977E+004
1.0002226E+004	1.0630782E+000	3.3685142E-001	1.1151700E+000	-1.7581543E+001	4.630482326581841E+000	2.7559865E-001	1.9481950E-002	4.7237305E+001	4.3100243E+000	1.000000000000000E+000	9	4.9442286E-003	4.4336095E-003	0	-3.454439431584130E-006	8.5483652E-001	2.7086705E-001	8.9672428E-001	1.7581543E+001	4.3100239E+003	1.3602118E+004	1.4268635E+004	-7.2418457E+001	0.0000000E+000	0.0000000E+000	0.0000000E+000	7.2418457E+001	0.0000000E+000	0.0000000E+000	0.0000000E+000	-7.2418457E+001	0.0000000E+000	0.0000000E+000	0.0000000E+000	-1.7581543E+001	0.0000000E+000	0.0000000E+000	0.0000000E+000	1.7581543E+001	3.1559260E+000	7.2418457E+001	7.759271404292020E-007	5.3691988E-006	1.4146358E+004
6.8110674E+003	1.1427310E+000	3.8567412E-001	1.2060591E+000	-1.8649647E+001	5.008516157889972E+000	2.7548116E-001	-1.2235051E-001	6.0587696E+001	6.1956697E+000	1.000000000000000E+000	9	4.5161285E-003	3.7445333E-003	0	-1.649623447441910E-005	7.8560966E-001	2.6514491E-001	8.2914674E-001	1.8649647E+001	6.1956685E+003	1.8357426E+004	1.9374762E+004	-7.1350357E+001	0.0000000E+000	0.0000000E+000	0.0000000E+000	7.1350357E+001	0.0000000E+000	0.0000000E+000	0.0000000E+000	-7.1350357E+001	0.0000000E+000	0.0000000E+000	0.0000000E+000	-1.8649647E+001	0.0000000E+000	0.0000000E+000	0.0000000E+000	1.8649647E+001	2.9629443E+000	7.1350357E+001	-1.304179504283497E-005	-3.3705262E-005	2.2515735E+003
4.6414854E+003	1.2306880E+000	4.4217753E-001	1.3077133E+000	-1.9763006E+001	5.702710190889775E+000	2.7549186E-001	-4.9553376E-002	7.7547264E+001	8.8661432E+000	1.000000000000000E+000	9	4.9391026E-003	3.7769002E-003	0	-3.041988925532334E-005	7.1965259E-001	2.5856614E-001	7.6469362E-001	1.9763006E+001	8.8661455E+003	2.4676643E+004	2.6221084E+004	-7.0236992E+001	0.0000000E+000	0.0000000E+000	0.0000000E+000	7.0236992E+001	0.0000000E+000	0.0000000E+000	0.0000000E+000	-7.0236992E+001	0.0000000E+000	0.0000000E+000	0.0000000E+000	-1.9763006E+001	0.0000000E+000	0.0000000E+000	0.0000000E+000	1.9763006E+001	2.7832441E+000	7.0236992E+001	-1.392365478090425E-005	-1.3651552E-005	5.5594976E+003
3.1610117E+003	1.3296472E+000	5.1102620E-001	1.4244682E+000	-2.1023373E+001	6.169672906398773E+000	2.7549818E-001	-5.1359806E-002	9.8525993E+001	1.2680364E+001	1.000000000000000E+000	9	4.8206192E-003	3.3841538E-003	0	-3.426346837698172E-005	6.5528607E-001	2.5184751E-001	7.0201641E-001	2.1023373E+001	1.2680365E+004	3.2993238E+004	3.5346082E+004	-6.8976624E+001	0.0000000E+000	0.0000000E+000	0.0000000E+000	6.8976624E+001	0.0000000E+000	0.0000000E+000	0.0000000E+000	-6.8976624E+001	0.0000000E+000	0.0000000E+000	0.0000000E+000	-2.1023373E+001	0.0000000E+000	0.0000000E+000	0.0000000E+000	2.1023373E+001	2.6019158E+000	6.8976624E+001	-3.843579121658374E-006	-1.4149533E-005	5.3640815E+003
2.1556899E+003	1.4418505E+000	5.9046388E-001	1.5580695E+000	-2.2269987E+001	6.636682661912346E+000	2.7549031E-001	-5.1452927E-002	1.2503757E+002	1.7957817E+001	1.000000000000000E+000	9	4.7600726E-003	3.0551094E-003	0	-4.193696944741532E-005	5.9394550E-001	2.4323142E-001	6.4181989E-001	2.2269987E+001	1.7957818E+004	4.3851098E+004	4.7385672E+004	-6.7730011E+001	0.0000000E+000	0.0000000E+000	0.0000000E+000	6.7730011E+001	0.0000000E+000	0.0000000E+000	0.0000000E+000	-6.7730011E+001	0.0000000E+000	0.0000000E+000	0.0000000E+000	-2.2269987E+001	0.0000000E+000	0.0000000E+000	0.0000000E+000	2.2269987E+001	2.4418945E+000	6.7730011E+001	-7.673501070433605E-006	-1.4174783E-005	5.3542202E+003
1.4685898E+003	1.5596513E+000	6.9114649E-001	1.7059295E+000	-2.3900127E+001	7.103930257435422E+000	2.7549559E-001	-4.5214240E-002	1.5680124E+002	2.5737572E+001	1.000000000000000E+000	9	4.7194464E-003	2.7664956E-003	0	-4.954579327390012E-005	5.3592664E-001	2.3749143E-001	5.8619070E-001	2.3900127E+001	2.5737574E+004	5.8079777E+004	6.3527027E+004	-6.6099869E+001	0.0000000E+000	0.0000000E+000	0.0000000E+000	6.6099869E+001	0.0000000E+000	0.0000000E+000	0.0000000E+000	-6.6099869E+001	0.0000000E+000	0.0000000E+000	0.0000000E+000	-2.3900127E+001	0.0000000E+000	0.0000000E+000	0.0000000E+000	2.3900127E+001	2.2566147E+000	6.6099869E+001	-7.608823826484799E-006	-1.2456324E-005	6.0931157E+003
1.0003202E+003	1.6961473E+000	8.1718600E-001	1.8827397E+000	-2.5724279E+001	7.572670679706789E+000	2.7548727E-001	-5.2980017E-002	1.9469742E+002	3.6679337E+001	1.000000000000000E+000	9	4.7000791E-003	2.4964041E-003	0	-5.379636008963765E-005	4.7850117E-001	2.3053685E-001	5.3114086E-001	2.5724279E+001	3.6679340E+004	7.6131453E+004	8.4506641E+004	-6.4275719E+001	0.0000000E+000	0.0000000E+000	0.0000000E+000	6.4275719E+001	0.0000000E+000	0.0000000E+000	0.0000000E+000	-6.4275719E+001	0.0000000E+000	0.0000000E+000	0.0000000E+000	-2.5724279E+001	0.0000000E+000	0.0000000E+000	0.0000000E+000	2.5724279E+001	2.0755951E+000	6.4275719E+001	-4.250566815737529E-006	-1.4595321E-005	5.1998335E+003
6.8108978E+002	1.8653272E+000	9.8820519E-001	2.1109228E+000	-2.7913559E+001	8.038435501774075E+000	2.7548832E-001	-5.4395378E-002	2.3646597E+002	5.1822483E+001	1.000000000000000E+000	9	4.6869209E-003	2.2203184E-003	0	-5.936628554511763E-005	4.1861069E-001	2.2176979E-001	4.7372645E-001	2.7913559E+001	5.1822480E+004	9.7819648E+004	1.1069893E+005	-6.2086441E+001	0.0000000E+000	0.0000000E+000	0.0000000E+000	6.2086441E+001	0.0000000E+000	0.0000000E+000	0.0000000E+000	-6.2086441E+001	0.0000000E+000	0.0000000E+000	0.0000000E+000	-2.7913559E+001	0.0000000E+000	0.0000000E+000	0.0000000E+000	2.7913559E+001	1.8875910E+000	6.2086441E+001	-5.569925455479984E-006	-1.4985291E-005	5.0645537E+003
4.6396069E+002	2.0683355E+000	1.2003055E+000	2.3913898E+000	-3.0127636E+001	8.507193684024969E+000	2.7549636E-001	-4.9981754E-002	2.8579007E+002	7.1999580E+001	1.000000000000000E+000	9	4.6755429E-003	1.9551571E-003	0	-6.542388386470784E-005	3.6167648E-001	2.0988965E-001	4.1816688E-001	3.0127636E+001	7.1999586E+004	1.2406784E+005	1.4344605E+005	-5.9872364E+001	0.0000000E+000	0.0000000E+000	0.0000000E+000	5.9872364E+001	0.0000000E+000	0.0000000E+000	0.0000000E+000	-5.9872364E+001	0.0000000E+000	0.0000000E+000	0.0000000E+000	-3.0127636E+001	0.0000000E+000	0.0000000E+000	0.0000000E+000	3.0127636E+001	1.7231743E+000	5.9872360E+001	-6.057598319590202E-006	-1.3769792E-005	5.5119385E+003
3.1631589E+002	2.3406861E+000	1.4616817E+000	2.7595878E+000	-3.1983427E+001	9.226921371591743E+000	2.7556205E-001	-2.8520003E-002	3.4422809E+002	9.6574738E+001	1.000000000000000E+000	10	4.7242520E-003	1.7119412E-003	0	-7.318096239293097E-005	3.0736524E-001	1.9193952E-001	3.6237296E-001	3.1983427E+001	9.6574734E+004	1.5465139E+005	1.8232864E+005	-5.8016571E+001	0.0000000E+000	0.0000000E+000	0.0000000E+000	5.8016571E+001	0.0000000E+000	0.0000000E+000	0.0000000E+000	-5.8016571E+001	0.0000000E+000	0.0000000E+000	0.0000000E+000	-3.1983427E+001	0.0000000E+000	0.0000000E+000	0.0000000E+000	3.1983427E+001	1.6013651E+000	5.8016571E+001	-7.757078528223136E-006	-7.8590301E-006	9.6620625E+003
2.1534457E+002	2.6962609E+000	1.7701254E+000	3.2253940E+000	-3.3285347E+001	9.694446593784960E+000	2.7556661E-001	-2.7996622E-002	4.1752472E+002	1.2575484E+002	1.000000000000000E+000	10	4.7016209E-003	1.4576889E-003	0	-7.524915749673608E-005	2.5917694E-001	1.7015256E-001	3.1003964E-001	3.3285347E+001	1.2575483E+005	1.9155016E+005	2.2914131E+005	-5.6714653E+001	0.0000000E+000	0.0000000E+000	0.0000000E+000	5.6714653E+001	0.0000000E+000	0.0000000E+000	0.0000000E+000	-5.6714653E+001	0.0000000E+000	0.0000000E+000	0.0000000E+000	-3.3285347E+001	0.0000000E+000	0.0000000E+000	0.0000000E+000	3.3285347E+001	1.5232034E+000	5.6714653E+001	-2.068195103805109E-006	-7.7149343E-006	9.8428516E+003
1.4673740E+002	3.1570394E+000	2.1099060E+000	3.7971833E+000	-3.3755516E+001	1.015737530906335E+001	2.7556947E-001	-2.8752841E-002	5.1406287E+002	1.5871548E+002	1.000000000000000E+000	10	4.6883277E-003	1.2346857E-003	0	-7.929723505796089E-005	2.1895602E-001	1.4633223E-001	2.6335311E-001	3.3755516E+001	1.5871548E+005	2.3748500E+005	2.8563916E+005	-5.6244484E+001	0.0000000E+000	0.0000000E+000	0.0000000E+000	5.6244484E+001	0.0000000E+000	0.0000000E+000	0.0000000E+000	-5.6244484E+001	0.0000000E+000	0.0000000E+000	0.0000000E+000	-3.3755516E+001	0.0000000E+000	0.0000000E+000	0.0000000E+000	3.3755516E+001	1.4962939E+000	5.6244484E+001	-4.048077561224803E-006	-7.9234051E-006	9.5840781E+003
1.0003201E+002	3.7424650E+000	2.4461925E+000	4.4710069E+000	-3.3169888E+001	1.062467671799823E+001	2.7556857E-001	-2.7793596E-002	6.5041492E+002	1.9469781E+002	1.000000000000000E+000	10	4.6737064E-003	1.0453365E-003	0	-8.352793807864913E-005	1.8721779E-001	1.2237141E-001	2.2366327E-001	3.3169888E+001	1.9469780E+005	2.9787100E+005	3.5585722E+005	-5.6830112E+001	0.0000000E+000	0.0000000E+000	0.0000000E+000	5.6830112E+001	0.0000000E+000	0.0000000E+000	0.0000000E+000	-5.6830112E+001	0.0000000E+000	0.0000000E+000	0.0000000E+000	-3.3169888E+001	0.0000000E+000	0.0000000E+000	0.0000000E+000	3.3169888E+001	1.5299144E+000	5.6830109E+001	-4.230703020688246E-006	-7.6590413E-006	9.9148232E+003
6.8103981E+001	4.4753680E+000	2.7531123E+000	5.2543836E+000	-3.1598583E+001	1.110332898070919E+001	2.7556875E-001	-2.5267906E-002	8.4883575E+002	2.3303868E+002	1.000000000000000E+000	10	4.6703611E-003	8.8885042E-004	0	-8.734902065088196E-005	1.6210082E-001	9.9719569E-002	1.9031729E-001	3.1598583E+001	2.3303869E+005	3.7881997E+005	4.4476016E+005	-5.8401417E+001	0.0000000E+000	0.0000000E+000	0.0000000E+000	5.8401417E+001	0.0000000E+000	0.0000000E+000	0.0000000E+000	-5.8401417E+001	0.0000000E+000	0.0000000E+000	0.0000000E+000	-3.1598583E+001	0.0000000E+000	0.0000000E+000	0.0000000E+000	3.1598583E+001	1.6255668E+000	5.8401413E+001	-3.821082572232827E-006	-6.9630455E-006	1.0905880E+004
4.6441547E+001	5.3179636E+000	2.9488482E+000	6.0808258E+000	-2.9008677E+001	1.155855553565198E+001	2.7556825E-001	-2.9678572E-002	1.1621470E+003	2.7330072E+002	1.000000000000000E+000	10	4.6738931E-003	7.6862803E-004	0	-9.132236782536427E-005	1.4382032E-001	7.9749376E-002	1.6445135E-001	2.9008677E+001	2.7330069E+005	4.9287150E+005	5.6357394E+005	-6.0991325E+001	0.0000000E+000	0.0000000E+000	0.0000000E+000	6.0991325E+001	0.0000000E+000	0.0000000E+000	0.0000000E+000	-6.0991325E+001	0.0000000E+000	0.0000000E+000	0.0000000E+000	-2.9008677E+001	0.0000000E+000	0.0000000E+000	0.0000000E+000	2.9008677E+001	1.8034036E+000	6.0991325E+001	-3.973347174482316E-006	-8.1784719E-006	9.2850908E+003
3.1629555E+001	6.1994581E+000	2.9953778E+000	6.8851705E+000	-2.5788332E+001	1.200544115688535E+001	2.7556095E-001	-3.1295322E-002	1.6798690E+003	3.1794299E+002	1.000000000000000E+000	10	4.6626069E-003	6.7719555E-004	0	-9.460838454497893E-005	1.3077489E-001	6.3186198E-002	1.4523968E-001	2.5788332E+001	3.1794297E+005	6.5803863E+005	7.3082319E+005	-6.4211670E+001	0.0000000E+000	0.0000000E+000	0.0000000E+000	6.4211670E+001	0.0000000E+000	0.0000000E+000	0.0000000E+000	-6.4211670E+001	0.0000000E+000	0.0000000E+000	0.0000000E+000	-2.5788332E+001	0.0000000E+000	0.0000000E+000	0.0000000E+000	2.5788332E+001	2.0696750E+000	6.4211670E+001	-3.286016719614661E-006	-8.6237687E-006	8.8051797E+003
2.1551722E+001	7.0669985E+000	2.9070482E+000	7.6415572E+000	-2.2360083E+001	1.244432627104106E+001	2.7555850E-001	-3.3023819E-002	2.5403052E+003	3.6764328E+002	1.000000000000000E+000	10	4.6624462E-003	6.1014347E-004	0	-9.880468366379177E-005	1.2102394E-001	4.9783856E-002	1.3086338E-001	2.2360083E+001	3.6764334E+005	8.9373638E+005	9.6639863E+005	-6.7639915E+001	0.0000000E+000	0.0000000E+000	0.0000000E+000	6.7639915E+001	0.0000000E+000	0.0000000E+000	0.0000000E+000	-6.7639915E+001	0.0000000E+000	0.0000000E+000	0.0000000E+000	-2.2360083E+001	0.0000000E+000	0.0000000E+000	0.0000000E+000	2.2360083E+001	2.4309876E+000	6.7639915E+001	-4.196299118812834E-006	-9.0999938E-006	8.3442344E+003
1.4685154E+001	7.8548450E+000	2.7352362E+000	8.3174582E+000	-1.9199284E+001	1.292203981376952E+001	2.7557594E-001	-2.4785500E-002	3.9622949E+003	4.2850430E+002	1.000000000000000E+000	10	4.6651228E-003	5.6088326E-004	0	-1.026154870742951E-004	1.1354195E-001	3.9537899E-002	1.2022904E-001	1.9199284E+001	4.2850431E+005	1.2305466E+006	1.3030199E+006	-7.0800720E+001	0.0000000E+000	0.0000000E+000	0.0000000E+000	7.0800720E+001	0.0000000E+000	0.0000000E+000	0.0000000E+000	-7.0800720E+001	0.0000000E+000	0.0000000E+000	0.0000000E+000	-1.9199284E+001	0.0000000E+000	0.0000000E+000	0.0000000E+000	1.9199284E+001	2.8717246E+000	7.0800720E+001	-3.810803410503373E-006	-6.8302875E-006	1.1118434E+004
