EC-Lab ASCII FILE
Nb header lines : 63                          

Potentio Electrochemical Impedance Spectroscopy

Run on channel : 8 (SN 65398)
User : 
CE vs. WE compliance from -10 V to 10 V
Electrode connection : standard
Potential control : Ewe
Ewe ctrl range : min = -10.00 V, max = 10.00 V
Safety Limits :
	Do not start on E overload
Acquisition started on : 09/22/2025 08:45:42.394
Loaded Setting File :  C:\Users\Celltest\OneDrive - store-dot.com\Documents\EC-Lab\Data\Charmaine\17688_R288_UA670_SOC00_C03.mpr
Saved on :
	File : 17693_R287_UA658_SOC00_C08.mpr
	Directory : C:\Users\Celltest\OneDrive - store-dot.com\Documents\EC-Lab\Data\Charmaine\
	Host : 169.254.61.224
Device : VMP-3e (SN .003165)
Address : USB
EC-LAB for windows v11.62 (software)
Internet server v27.00 (firmware)
Command interpretor v12.03 (firmware)
Electrode material : 
Initial state : 
Electrolyte : 
Comments : 
Electrode surface area : 0.001 cm²
Characteristic mass : 0.001 g
Equivalent Weight : 0.000 g/eq.
Density : 0.000 g/cm3
Volume (V) : 0.001 cm³
Cycle Definition : Charge/Discharge alternance
Mode                Single sine         
E (V)               0.0000              
vs.                 Eoc                 
tE (h:m:s)          0:00:0.0000         
record              0                   
dI                  0.000               
unit dI             mA                  
dt (s)              0.000               
fi                  100.000             
unit fi             kHz                 
ff                  10.000              
unit ff             mHz                 
Nd                  6                   
Points              per decade          
spacing             Logarithmic         
Va (mV)             5.0                 
pw                  0.10                
Na                  2                   
corr                0                   
E range min (V)     -10.000             
E range max (V)     10.000              
I Range             Auto                
Bandwidth           5                   
nc cycles           0                   
goto Ns'            0                   
nr cycles           0                   
inc. cycle          0                   

freq/Hz	Re(Z)/Ohm	-Im(Z)/Ohm	|Z|/Ohm	Phase(Z)/deg	time/s	<Ewe>/V	<I>/mA	Cs/µF	Cp/µF	cycle number	I Range	|Ewe|/V	|I|/A	Ns	(Q-Qo)/mA.h	Re(Y)/Ohm-1	Im(Y)/Ohm-1	|Y|/Ohm-1	Phase(Y)/deg	Re(C)/nF	Im(C)/nF	|C|/nF	Phase(C)/deg	Re(M)	Im(M)	|M|	Phase(M)/deg	Re(Permittivity)	Im(Permittivity)	|Permittivity|	Phase(Permittivity)/deg	Re(Resistivity)/Ohm.cm	Im(Resistivity)/Ohm.cm	|Resistivity|/Ohm.cm	Phase(Resistivity)/deg	Re(Conductivity)/mS/cm	Im(Conductivity)/mS/cm	|Conductivity|/mS/cm	Phase(Conductivity)/deg	Tan(Delta)	Loss Angle(Delta)/deg	dq/mA.h	Pwe/W	Rwe/Ohm	
1.0000371E+005	1.0085528E+000	1.8016975E-001	1.0245193E+000	-1.0128582E+001	1.864493181841681E+000	2.7941731E-001	2.3644496E-002	8.8332825E+000	2.7317789E-001	1.000000000000000E+000	9	4.8322203E-003	4.7165728E-003	0	-8.364784452650283E-007	9.6085602E-001	1.7164910E-001	9.7606748E-001	1.0128582E+001	2.7317798E+002	1.5291931E+003	1.5534020E+003	-7.9871414E+001	0.0000000E+000	0.0000000E+000	0.0000000E+000	7.9871414E+001	0.0000000E+000	0.0000000E+000	0.0000000E+000	-7.9871414E+001	0.0000000E+000	0.0000000E+000	0.0000000E+000	-1.0128582E+001	0.0000000E+000	0.0000000E+000	0.0000000E+000	1.0128582E+001	5.5977921E+000	7.9871414E+001	-8.364784452650283E-007	6.6066814E-006	1.1817436E+004
6.8132047E+004	1.0513037E+000	1.9657120E-001	1.0695232E+000	-1.0590787E+001	2.301485335949110E+000	2.7942178E-001	2.5411606E-002	1.1883621E+001	4.0142846E-001	1.000000000000000E+000	9	5.4483744E-003	5.0942088E-003	0	-2.235452757941352E-006	9.1906834E-001	1.7184600E-001	9.3499607E-001	1.0590787E+001	4.0142853E+002	2.1469231E+003	2.1841299E+003	-7.9409210E+001	0.0000000E+000	0.0000000E+000	0.0000000E+000	7.9409210E+001	0.0000000E+000	0.0000000E+000	0.0000000E+000	-7.9409210E+001	0.0000000E+000	0.0000000E+000	0.0000000E+000	-1.0590787E+001	0.0000000E+000	0.0000000E+000	0.0000000E+000	1.0590787E+001	5.3482084E+000	7.9409210E+001	-1.398974312676324E-006	7.1005561E-006	1.0995833E+004
4.6420355E+004	1.0983412E+000	2.1792430E-001	1.1197519E+000	-1.1222431E+001	2.879486403398914E+000	2.7942812E-001	2.8387764E-002	1.5732800E+001	5.9590042E-001	1.000000000000000E+000	9	5.0547649E-003	4.5141829E-003	0	4.016049938276410E-006	8.7597889E-001	1.7380491E-001	8.9305496E-001	1.1222431E+001	5.9590021E+002	3.0033455E+003	3.0618918E+003	-7.8777573E+001	0.0000000E+000	0.0000000E+000	0.0000000E+000	7.8777573E+001	0.0000000E+000	0.0000000E+000	0.0000000E+000	-7.8777573E+001	0.0000000E+000	0.0000000E+000	0.0000000E+000	-1.1222431E+001	0.0000000E+000	0.0000000E+000	0.0000000E+000	1.1222431E+001	5.0400128E+000	7.8777573E+001	6.251502696217762E-006	7.9323399E-006	9.8432588E+003
3.1621139E+004	1.1447499E+000	2.4643889E-001	1.1709758E+000	-1.2149076E+001	3.458477764244890E+000	2.7942303E-001	2.6955474E-002	2.0423653E+001	9.0459889E-001	1.000000000000000E+000	9	5.0432123E-003	4.3068458E-003	0	9.998066232306882E-006	8.3486211E-001	1.7972702E-001	8.5398859E-001	1.2149076E+001	9.0459900E+002	4.2020132E+003	4.2982803E+003	-7.7850922E+001	0.0000000E+000	0.0000000E+000	0.0000000E+000	7.7850922E+001	0.0000000E+000	0.0000000E+000	0.0000000E+000	-7.7850922E+001	0.0000000E+000	0.0000000E+000	0.0000000E+000	-1.2149076E+001	0.0000000E+000	0.0000000E+000	0.0000000E+000	1.2149076E+001	4.6451674E+000	7.7850922E+001	5.982016294030472E-006	7.5319804E-006	1.0366096E+004
2.1544684E+004	1.2049257E+000	2.8057846E-001	1.2371621E+000	-1.3108276E+001	3.895492798328632E+000	2.7942431E-001	2.6713656E-002	2.6328474E+001	1.3541948E+000	1.000000000000000E+000	9	5.4092826E-003	4.3723313E-003	0	8.031812707402018E-006	7.8723979E-001	1.8331631E-001	8.0830151E-001	1.3108276E+001	1.3541948E+003	5.8155000E+003	5.9710874E+003	-7.6891724E+001	0.0000000E+000	0.0000000E+000	0.0000000E+000	7.6891724E+001	0.0000000E+000	0.0000000E+000	0.0000000E+000	-7.6891724E+001	0.0000000E+000	0.0000000E+000	0.0000000E+000	-1.3108276E+001	0.0000000E+000	0.0000000E+000	0.0000000E+000	1.3108276E+001	4.2944341E+000	7.6891724E+001	-1.966253524904864E-006	7.4644449E-006	1.0459980E+004
1.4678594E+004	1.2654501E+000	3.1624791E-001	1.3043684E+000	-1.4031359E+001	4.191499745735200E+000	2.7942815E-001	2.0538075E-002	3.4285305E+001	2.0154071E+000	1.000000000000000E+000	9	5.4438156E-003	4.1735261E-003	0	1.211585394368093E-005	7.4378008E-001	1.8587765E-001	7.6665461E-001	1.4031359E+001	2.0154069E+003	8.0645508E+003	8.3125713E+003	-7.5968643E+001	0.0000000E+000	0.0000000E+000	0.0000000E+000	7.5968643E+001	0.0000000E+000	0.0000000E+000	0.0000000E+000	-7.5968643E+001	0.0000000E+000	0.0000000E+000	0.0000000E+000	-1.4031359E+001	0.0000000E+000	0.0000000E+000	0.0000000E+000	1.4031359E+001	4.0014496E+000	7.5968643E+001	4.084041236278913E-006	5.7389166E-006	1.3605372E+004
1.0002226E+004	1.3375325E+000	3.6190778E-001	1.3856300E+000	-1.5140473E+001	4.487491599778878E+000	2.7941871E-001	2.4425685E-002	4.3966873E+001	2.9993479E+000	1.000000000000000E+000	9	4.9827378E-003	3.5960090E-003	0	1.311206934013818E-005	6.9664222E-001	1.8849653E-001	7.2169340E-001	1.5140473E+001	2.9993477E+003	1.1084938E+004	1.1483551E+004	-7.4859528E+001	0.0000000E+000	0.0000000E+000	0.0000000E+000	7.4859528E+001	0.0000000E+000	0.0000000E+000	0.0000000E+000	-7.4859528E+001	0.0000000E+000	0.0000000E+000	0.0000000E+000	-1.5140473E+001	0.0000000E+000	0.0000000E+000	0.0000000E+000	1.5140473E+001	3.6957827E+000	7.4859528E+001	9.962153964572473E-007	6.8249933E-006	1.1439544E+004
6.8110674E+003	1.4216621E+000	4.1765422E-001	1.4817415E+000	-1.6371672E+001	4.866496844479116E+000	2.7922490E-001	-1.2641078E-001	5.5948456E+001	4.4450526E+000	1.000000000000000E+000	9	4.7014030E-003	3.1728901E-003	0	3.682601558846525E-006	6.4751738E-001	1.9022691E-001	6.7488152E-001	1.6371672E+001	4.4450527E+003	1.5130608E+004	1.5770028E+004	-7.3628326E+001	0.0000000E+000	0.0000000E+000	0.0000000E+000	7.3628326E+001	0.0000000E+000	0.0000000E+000	0.0000000E+000	-7.3628326E+001	0.0000000E+000	0.0000000E+000	0.0000000E+000	-1.6371672E+001	0.0000000E+000	0.0000000E+000	0.0000000E+000	1.6371672E+001	3.4039214E+000	7.3628326E+001	-9.429467781291654E-006	-3.5297038E-005	2.2088694E+003
4.6414854E+003	1.5199656E+000	4.8061988E-001	1.5941427E+000	-1.7547186E+001	5.337667160216370E+000	2.7937055E-001	2.3402618E-002	7.1344650E+001	6.4850078E+000	1.000000000000000E+000	9	4.5455252E-003	2.8513917E-003	0	8.282766624250346E-006	5.9810770E-001	1.8912432E-001	6.2729645E-001	1.7547186E+001	6.4850088E+003	2.0508908E+004	2.1509781E+004	-7.2452812E+001	0.0000000E+000	0.0000000E+000	0.0000000E+000	7.2452812E+001	0.0000000E+000	0.0000000E+000	0.0000000E+000	-7.2452812E+001	0.0000000E+000	0.0000000E+000	0.0000000E+000	-1.7547186E+001	0.0000000E+000	0.0000000E+000	0.0000000E+000	1.7547186E+001	3.1625111E+000	7.2452812E+001	4.600165065403822E-006	6.5380023E-006	1.1937576E+004
3.1610117E+003	1.6248391E+000	5.4997575E-001	1.7153937E+000	-1.8699940E+001	6.027712766321201E+000	2.7937314E-001	2.4667496E-002	9.1548340E+001	9.4104404E+000	1.000000000000000E+000	9	4.9893484E-003	2.9085735E-003	0	1.171224803611161E-005	5.5218261E-001	1.8690287E-001	5.8295655E-001	1.8699940E+001	9.4104385E+003	2.7802045E+004	2.9351492E+004	-7.1300064E+001	0.0000000E+000	0.0000000E+000	0.0000000E+000	7.1300064E+001	0.0000000E+000	0.0000000E+000	0.0000000E+000	-7.1300064E+001	0.0000000E+000	0.0000000E+000	0.0000000E+000	-1.8699940E+001	0.0000000E+000	0.0000000E+000	0.0000000E+000	1.8699940E+001	2.9543831E+000	7.1300064E+001	3.429481411861261E-006	6.8914355E-006	1.1325558E+004
2.1556899E+003	1.7480837E+000	6.3374978E-001	1.8594180E+000	-1.9927593E+001	6.494673241839337E+000	2.7937567E-001	2.2714376E-002	1.1649733E+002	1.3533109E+001	1.000000000000000E+000	9	4.9374630E-003	2.6553809E-003	0	1.417427462965457E-005	5.0560129E-001	1.8330055E-001	5.3780270E-001	1.9927593E+001	1.3533113E+004	3.7328625E+004	3.9706063E+004	-7.0072403E+001	0.0000000E+000	0.0000000E+000	0.0000000E+000	7.0072403E+001	0.0000000E+000	0.0000000E+000	0.0000000E+000	-7.0072403E+001	0.0000000E+000	0.0000000E+000	0.0000000E+000	-1.9927593E+001	0.0000000E+000	0.0000000E+000	0.0000000E+000	1.9927593E+001	2.7583184E+000	7.0072403E+001	2.462026593542963E-006	6.3458442E-006	1.2299509E+004
1.4685898E+003	1.8853732E+000	7.3833442E-001	2.0247889E+000	-2.1385899E+001	6.961926437332295E+000	2.7937558E-001	2.3867635E-002	1.4677988E+002	1.9517008E+001	1.000000000000000E+000	9	4.9069924E-003	2.4234590E-003	0	1.807421723965349E-005	4.5987293E-001	1.8009168E-001	4.9387866E-001	2.1385899E+001	1.9517004E+004	4.9837637E+004	5.3522926E+004	-6.8614105E+001	0.0000000E+000	0.0000000E+000	0.0000000E+000	6.8614105E+001	0.0000000E+000	0.0000000E+000	0.0000000E+000	-6.8614105E+001	0.0000000E+000	0.0000000E+000	0.0000000E+000	-2.1385899E+001	0.0000000E+000	0.0000000E+000	0.0000000E+000	2.1385899E+001	2.5535491E+000	6.8614105E+001	3.899942609998915E-006	6.6680345E-006	1.1705206E+004
1.0003202E+003	2.0309565E+000	8.7282866E-001	2.2105687E+000	-2.3256214E+001	7.430667766297120E+000	2.7937317E-001	2.5913751E-002	1.8228549E+002	2.8418560E+001	1.000000000000000E+000	9	4.8895199E-003	2.2118832E-003	0	1.939968212409359E-005	4.1561630E-001	1.7861626E-001	4.5237228E-001	2.3256214E+001	2.8418557E+004	6.6126219E+004	7.1974242E+004	-6.6743790E+001	0.0000000E+000	0.0000000E+000	0.0000000E+000	6.6743790E+001	0.0000000E+000	0.0000000E+000	0.0000000E+000	-6.6743790E+001	0.0000000E+000	0.0000000E+000	0.0000000E+000	-2.3256214E+001	0.0000000E+000	0.0000000E+000	0.0000000E+000	2.3256214E+001	2.3268673E+000	6.6743790E+001	1.325464884440105E-006	7.2396065E-006	1.0780885E+004
6.8108978E+002	2.2237499E+000	1.0312005E+000	2.4512115E+000	-2.4878168E+001	7.896455121721374E+000	2.7937397E-001	1.7096816E-002	2.2660664E+002	4.0104893E+001	1.000000000000000E+000	9	4.8800996E-003	1.9908929E-003	0	2.176385913557735E-005	3.7010449E-001	1.7162541E-001	4.0796155E-001	2.4878168E+001	4.0104887E+004	8.6484867E+004	9.5331180E+004	-6.5121834E+001	0.0000000E+000	0.0000000E+000	0.0000000E+000	6.5121834E+001	0.0000000E+000	0.0000000E+000	0.0000000E+000	-6.5121834E+001	0.0000000E+000	0.0000000E+000	0.0000000E+000	-2.4878168E+001	0.0000000E+000	0.0000000E+000	0.0000000E+000	2.4878168E+001	2.1564670E+000	6.5121834E+001	2.364177011483762E-006	4.7764051E-006	1.6340702E+004
4.6396069E+002	2.4516308E+000	1.2357163E+000	2.7454486E+000	-2.6749865E+001	8.365224983979715E+000	2.7937624E-001	2.0333404E-002	2.7760043E+002	5.6238159E+001	1.000000000000000E+000	9	4.8748446E-003	1.7756096E-003	0	2.312030299490046E-005	3.2525831E-001	1.6394272E-001	3.6423919E-001	2.6749865E+001	5.6238156E+004	1.1157512E+005	1.2494694E+005	-6.3250137E+001	0.0000000E+000	0.0000000E+000	0.0000000E+000	6.3250137E+001	0.0000000E+000	0.0000000E+000	0.0000000E+000	-6.3250137E+001	0.0000000E+000	0.0000000E+000	0.0000000E+000	-2.6749865E+001	0.0000000E+000	0.0000000E+000	0.0000000E+000	2.6749865E+001	1.9839754E+000	6.3250137E+001	1.356443859323108E-006	5.6806698E-006	1.3739768E+004
3.1631589E+002	2.7282033E+000	1.4791945E+000	3.1034029E+000	-2.8465944E+001	9.084930404846091E+000	2.7939430E-001	-2.3242064E-002	3.4015265E+002	7.7276619E+001	1.000000000000000E+000	10	4.9056238E-003	1.5807241E-003	0	2.066300395528863E-005	2.8326988E-001	1.5358506E-001	3.2222694E-001	2.8465944E+001	7.7276609E+004	1.4252778E+005	1.6212909E+005	-6.1534058E+001	0.0000000E+000	0.0000000E+000	0.0000000E+000	6.1534058E+001	0.0000000E+000	0.0000000E+000	0.0000000E+000	-6.1534058E+001	0.0000000E+000	0.0000000E+000	0.0000000E+000	-2.8465944E+001	0.0000000E+000	0.0000000E+000	0.0000000E+000	2.8465944E+001	1.8443844E+000	6.1534058E+001	-2.457299039611826E-006	-6.4937003E-006	1.2021063E+004
2.1534457E+002	3.0877612E+000	1.7662185E+000	3.5572176E+000	-2.9769823E+001	9.552444160362938E+000	2.7938393E-001	-2.3065375E-002	4.1844827E+002	1.0315964E+002	1.000000000000000E+000	10	4.8896722E-003	1.3745778E-003	0	1.743154889411784E-005	2.4401855E-001	1.3958012E-001	2.8111860E-001	2.9769823E+001	1.0315962E+005	1.8034705E+005	2.0776661E+005	-6.0230179E+001	0.0000000E+000	0.0000000E+000	0.0000000E+000	6.0230179E+001	0.0000000E+000	0.0000000E+000	0.0000000E+000	-6.0230179E+001	0.0000000E+000	0.0000000E+000	0.0000000E+000	-2.9769823E+001	0.0000000E+000	0.0000000E+000	0.0000000E+000	2.9769823E+001	1.7482328E+000	6.0230179E+001	-3.231455061170790E-006	-6.4440951E-006	1.2112698E+004
1.4673740E+002	3.5467918E+000	2.0888646E+000	4.1161981E+000	-3.0495735E+001	1.001537391569582E+001	2.7938563E-001	-2.3764728E-002	5.1924103E+002	1.3372021E+002	1.000000000000000E+000	10	4.8800292E-003	1.1855671E-003	0	1.515618824688014E-005	2.0933564E-001	1.2328713E-001	2.4294263E-001	3.0495735E+001	1.3372020E+005	2.2705050E+005	2.6350147E+005	-5.9504265E+001	0.0000000E+000	0.0000000E+000	0.0000000E+000	5.9504265E+001	0.0000000E+000	0.0000000E+000	0.0000000E+000	-5.9504265E+001	0.0000000E+000	0.0000000E+000	0.0000000E+000	-3.0495735E+001	0.0000000E+000	0.0000000E+000	0.0000000E+000	3.0495735E+001	1.6979520E+000	5.9504265E+001	-2.275360647237700E-006	-6.6395232E-006	1.1756315E+004
1.0003201E+002	4.1304770E+000	2.4194098E+000	4.7868972E+000	-3.0359461E+001	1.048370500464080E+001	2.7938899E-001	-2.2685943E-002	6.5761499E+002	1.6798959E+002	1.000000000000000E+000	10	4.8733447E-003	1.0180592E-003	0	1.325828609096869E-005	1.8025696E-001	1.0558476E-001	2.0890360E-001	3.0359461E+001	1.6798958E+005	2.8679606E+005	3.3237400E+005	-5.9640541E+001	0.0000000E+000	0.0000000E+000	0.0000000E+000	5.9640541E+001	0.0000000E+000	0.0000000E+000	0.0000000E+000	-5.9640541E+001	0.0000000E+000	0.0000000E+000	0.0000000E+000	-3.0359461E+001	0.0000000E+000	0.0000000E+000	0.0000000E+000	3.0359461E+001	1.7072251E+000	5.9640541E+001	-1.897902155911450E-006	-6.3382026E-006	1.2315512E+004
6.8103981E+001	4.8499250E+000	2.7103786E+000	5.5558910E+000	-2.9198626E+001	1.096230529397144E+001	2.7938986E-001	-2.1382097E-002	8.6221912E+002	2.0519659E+002	1.000000000000000E+000	10	4.8637842E-003	8.7542832E-004	0	1.121787571509938E-005	1.5711859E-001	8.7805666E-002	1.7998913E-001	2.9198626E+001	2.0519659E+005	3.6717678E+005	4.2062388E+005	-6.0801376E+001	0.0000000E+000	0.0000000E+000	0.0000000E+000	6.0801376E+001	0.0000000E+000	0.0000000E+000	0.0000000E+000	-6.0801376E+001	0.0000000E+000	0.0000000E+000	0.0000000E+000	-2.9198626E+001	0.0000000E+000	0.0000000E+000	0.0000000E+000	2.9198626E+001	1.7893902E+000	6.0801376E+001	-2.040410375869316E-006	-5.9739409E-006	1.3066532E+004
4.6441547E+001	5.6846900E+000	2.8846223E+000	6.3746958E+000	-2.6904924E+001	1.141753120892099E+001	2.7937931E-001	-2.6242239E-002	1.1880221E+003	2.4326717E+002	1.000000000000000E+000	10	4.8633008E-003	7.6290715E-004	0	8.698014376849944E-006	1.3989039E-001	7.0985563E-002	1.5687023E-001	2.6904924E+001	2.4326714E+005	4.7940366E+005	5.3759350E+005	-6.3095078E+001	0.0000000E+000	0.0000000E+000	0.0000000E+000	6.3095078E+001	0.0000000E+000	0.0000000E+000	0.0000000E+000	-6.3095078E+001	0.0000000E+000	0.0000000E+000	0.0000000E+000	-2.6904924E+001	0.0000000E+000	0.0000000E+000	0.0000000E+000	2.6904924E+001	1.9706877E+000	6.3095078E+001	-2.519861338249434E-006	-7.3315387E-006	1.0646169E+004
3.1629555E+001	6.5501575E+000	2.9163413E+000	7.1700497E+000	-2.4000170E+001	1.186343504345859E+001	2.7937624E-001	-2.8185923E-002	1.7253956E+003	2.8544409E+002	1.000000000000000E+000	10	4.8596137E-003	6.7776570E-004	0	5.126599447530074E-006	1.2741114E-001	5.6727547E-002	1.3946904E-001	2.4000170E+001	2.8544409E+005	6.4111288E+005	7.0178631E+005	-6.5999832E+001	0.0000000E+000	0.0000000E+000	0.0000000E+000	6.5999832E+001	0.0000000E+000	0.0000000E+000	0.0000000E+000	-6.5999832E+001	0.0000000E+000	0.0000000E+000	0.0000000E+000	-2.4000170E+001	0.0000000E+000	0.0000000E+000	0.0000000E+000	2.4000170E+001	2.2460189E+000	6.5999832E+001	-3.571414929319871E-006	-7.8744770E-006	9.9119072E+003
2.1551722E+001	7.3728714E+000	2.8241985E+000	7.8952727E+000	-2.0959475E+001	1.230235925098532E+001	2.7937067E-001	-3.0336061E-002	2.6148267E+003	3.3457932E+002	1.000000000000000E+000	10	4.8565553E-003	6.1512191E-004	0	3.286018656195665E-006	1.1827756E-001	4.5306545E-002	1.2665807E-001	2.0959475E+001	3.3457931E+005	8.7345500E+005	9.3534325E+005	-6.9040527E+001	0.0000000E+000	0.0000000E+000	0.0000000E+000	6.9040527E+001	0.0000000E+000	0.0000000E+000	0.0000000E+000	-6.9040527E+001	0.0000000E+000	0.0000000E+000	0.0000000E+000	-2.0959475E+001	0.0000000E+000	0.0000000E+000	0.0000000E+000	2.0959475E+001	2.6106067E+000	6.9040527E+001	-1.840580791334408E-006	-8.4750054E-006	9.2091934E+003
1.4685154E+001	8.1415730E+000	2.6402044E+000	8.5589657E+000	-1.7967192E+001	1.278004818034242E+001	2.7939221E-001	-2.0303318E-002	4.1049141E+003	3.9060391E+002	1.000000000000000E+000	10	4.8591462E-003	5.6772586E-004	0	1.340746377475120E-006	1.1113881E-001	3.6040846E-002	1.1683655E-001	1.7967192E+001	3.9060397E+005	1.2045016E+006	1.2662526E+006	-7.2032806E+001	0.0000000E+000	0.0000000E+000	0.0000000E+000	7.2032806E+001	0.0000000E+000	0.0000000E+000	0.0000000E+000	-7.2032806E+001	0.0000000E+000	0.0000000E+000	0.0000000E+000	-1.7967192E+001	0.0000000E+000	0.0000000E+000	0.0000000E+000	1.7967192E+001	3.0836904E+000	7.2032806E+001	-1.945272278720545E-006	-5.6725889E-006	1.3760914E+004
