EC-Lab ASCII FILE
Nb header lines : 63                          

Potentio Electrochemical Impedance Spectroscopy

Run on channel : 1 (SN 66354)
User : 
CE vs. WE compliance from -10 V to 10 V
Electrode connection : standard
Potential control : Ewe
Ewe ctrl range : min = -10.00 V, max = 10.00 V
Safety Limits :
	Do not start on E overload
Acquisition started on : 09/22/2025 09:03:24.167
Loaded Setting File :  C:\Users\Celltest\OneDrive - store-dot.com\Documents\EC-Lab\Data\txt_done\14380_R229_UA592_SOC00_C01.mpr
Saved on :
	File : 17694_R287_UA658_SOC00_C01.mpr
	Directory : C:\Users\Celltest\OneDrive - store-dot.com\Documents\EC-Lab\Data\Charmaine\
	Host : 169.254.61.224
Device : VMP-3e (SN .003165)
Address : USB
EC-LAB for windows v11.62 (software)
Internet server v27.00 (firmware)
Command interpretor v12.03 (firmware)
Electrode material : 
Initial state : 
Electrolyte : 
Comments : 
Electrode surface area : 0.001 cm²
Characteristic mass : 0.001 g
Equivalent Weight : 0.000 g/eq.
Density : 0.000 g/cm3
Volume (V) : 0.001 cm³
Cycle Definition : Charge/Discharge alternance
Mode                Single sine         
E (V)               0.0000              
vs.                 Eoc                 
tE (h:m:s)          0:00:0.0000         
record              0                   
dI                  0.000               
unit dI             mA                  
dt (s)              0.000               
fi                  100.000             
unit fi             kHz                 
ff                  10.000              
unit ff             mHz                 
Nd                  6                   
Points              per decade          
spacing             Logarithmic         
Va (mV)             5.0                 
pw                  0.10                
Na                  2                   
corr                0                   
E range min (V)     -10.000             
E range max (V)     10.000              
I Range             Auto                
Bandwidth           5                   
nc cycles           0                   
goto Ns'            0                   
nr cycles           0                   
inc. cycle          0                   

freq/Hz	Re(Z)/Ohm	-Im(Z)/Ohm	|Z|/Ohm	Phase(Z)/deg	time/s	<Ewe>/V	<I>/mA	Cs/µF	Cp/µF	cycle number	I Range	|Ewe|/V	|I|/A	Ns	(Q-Qo)/mA.h	Re(Y)/Ohm-1	Im(Y)/Ohm-1	|Y|/Ohm-1	Phase(Y)/deg	Re(C)/nF	Im(C)/nF	|C|/nF	Phase(C)/deg	Re(M)	Im(M)	|M|	Phase(M)/deg	Re(Permittivity)	Im(Permittivity)	|Permittivity|	Phase(Permittivity)/deg	Re(Resistivity)/Ohm.cm	Im(Resistivity)/Ohm.cm	|Resistivity|/Ohm.cm	Phase(Resistivity)/deg	Re(Conductivity)/mS/cm	Im(Conductivity)/mS/cm	|Conductivity|/mS/cm	Phase(Conductivity)/deg	Tan(Delta)	Loss Angle(Delta)/deg	dq/mA.h	Pwe/W	Rwe/Ohm	
1.0000371E+005	9.7470325E-001	1.7014517E-002	9.7485173E-001	-1.0000592E+000	1.865490061900346E+000	2.7363443E-001	7.4243389E-002	9.3537209E+001	2.8493544E-002	1.000000000000000E+000	9	4.9149599E-003	5.0417511E-003	0	8.037352554732933E-006	1.0256407E+000	1.7903687E-002	1.0257970E+000	1.0000592E+000	2.8493595E+001	1.6322974E+003	1.6325460E+003	-8.8999939E+001	0.0000000E+000	0.0000000E+000	0.0000000E+000	8.8999939E+001	0.0000000E+000	0.0000000E+000	0.0000000E+000	-8.8999939E+001	0.0000000E+000	0.0000000E+000	0.0000000E+000	-1.0000592E+000	0.0000000E+000	0.0000000E+000	0.0000000E+000	1.0000592E+000	5.7286568E+001	8.8999939E+001	8.037352554732933E-006	2.0315547E-005	3.6856404E+003
6.8132047E+004	9.8528659E-001	1.9813220E-001	1.0050105E+000	-1.1370021E+001	2.302482295985101E+000	2.7363208E-001	7.9980560E-002	1.1789995E+001	4.5822901E-001	1.000000000000000E+000	9	5.4141949E-003	5.3872024E-003	0	9.438247615988884E-006	9.7548681E-001	1.9616154E-001	9.9501449E-001	1.1370021E+001	4.5822888E+002	2.2787156E+003	2.3243318E+003	-7.8629982E+001	0.0000000E+000	0.0000000E+000	0.0000000E+000	7.8629982E+001	0.0000000E+000	0.0000000E+000	0.0000000E+000	-7.8629982E+001	0.0000000E+000	0.0000000E+000	0.0000000E+000	-1.1370021E+001	0.0000000E+000	0.0000000E+000	0.0000000E+000	1.1370021E+001	4.9728746E+000	7.8629982E+001	1.400895061255951E-006	2.1885247E-005	3.4212324E+003
4.6420355E+004	8.7614202E-001	4.1615152E-001	9.6995205E-001	-2.5406868E+001	3.022499050217448E+000	2.7359971E-001	8.0166832E-002	8.2387285E+000	1.5165707E+000	1.000000000000000E+000	9	4.8919586E-003	5.0435057E-003	0	2.107084261703615E-005	9.3126655E-001	4.4233465E-001	1.0309788E+000	2.5406868E+001	1.5165706E+003	3.1929023E+003	3.5347717E+003	-6.4593132E+001	0.0000000E+000	0.0000000E+000	0.0000000E+000	6.4593132E+001	0.0000000E+000	0.0000000E+000	0.0000000E+000	-6.4593132E+001	0.0000000E+000	0.0000000E+000	0.0000000E+000	-2.5406868E+001	0.0000000E+000	0.0000000E+000	0.0000000E+000	2.5406868E+001	2.1053438E+000	6.4593132E+001	1.163259500104727E-005	2.1933622E-005	3.4128792E+003
3.1621139E+004	1.0803565E+000	2.5919804E-001	1.1110147E+000	-1.3491344E+001	3.460485151008470E+000	2.7362725E-001	8.1042312E-002	1.9418287E+001	1.0569021E+000	1.000000000000000E+000	9	5.3350385E-003	4.8019513E-003	0	4.609473470814474E-005	8.7524056E-001	2.0998684E-001	9.0007806E-001	1.3491344E+001	1.0569022E+003	4.4052451E+003	4.5302568E+003	-7.6508652E+001	0.0000000E+000	0.0000000E+000	0.0000000E+000	7.6508652E+001	0.0000000E+000	0.0000000E+000	0.0000000E+000	-7.6508652E+001	0.0000000E+000	0.0000000E+000	0.0000000E+000	-1.3491344E+001	0.0000000E+000	0.0000000E+000	0.0000000E+000	1.3491344E+001	4.1680737E+000	7.6508652E+001	2.502389209110859E-005	2.2175385E-005	3.3763506E+003
2.1544684E+004	1.1407876E+000	2.8941497E-001	1.1769271E+000	-1.4235459E+001	4.039494218508480E+000	2.7361748E-001	8.0986403E-002	2.5524605E+001	1.5434831E+000	1.000000000000000E+000	9	4.9847607E-003	4.2354031E-003	0	6.021335571085931E-005	8.2357979E-001	2.0894013E-001	8.4967029E-001	1.4235459E+001	1.5434832E+003	6.0839512E+003	6.2766870E+003	-7.5764542E+001	0.0000000E+000	0.0000000E+000	0.0000000E+000	7.5764542E+001	0.0000000E+000	0.0000000E+000	0.0000000E+000	-7.5764542E+001	0.0000000E+000	0.0000000E+000	0.0000000E+000	-1.4235459E+001	0.0000000E+000	0.0000000E+000	0.0000000E+000	1.4235459E+001	3.9417021E+000	7.5764542E+001	1.411862100271457E-005	2.2159295E-005	3.3785608E+003
1.4678594E+004	1.2032548E+000	3.2367507E-001	1.2460288E+000	-1.5056138E+001	4.335488205921138E+000	2.7361953E-001	7.4951179E-002	3.3498581E+001	2.2604179E+000	1.000000000000000E+000	9	4.6569738E-003	3.7374529E-003	0	6.728268095496525E-005	7.7499956E-001	2.0847458E-001	8.0254966E-001	1.5056138E+001	2.2604180E+003	8.4030537E+003	8.7017695E+003	-7.4943863E+001	0.0000000E+000	0.0000000E+000	0.0000000E+000	7.4943863E+001	0.0000000E+000	0.0000000E+000	0.0000000E+000	-7.4943863E+001	0.0000000E+000	0.0000000E+000	0.0000000E+000	-1.5056138E+001	0.0000000E+000	0.0000000E+000	0.0000000E+000	1.5056138E+001	3.7174776E+000	7.4943863E+001	7.069325244105943E-006	2.0508107E-005	3.6506367E+003
1.0002226E+004	1.2761812E+000	3.6989659E-001	1.3287069E+000	-1.6164043E+001	4.772477799997432E+000	2.7362463E-001	7.4560001E-002	4.3017303E+001	3.3338454E+000	1.000000000000000E+000	9	4.9112239E-003	3.6962435E-003	0	8.110880655236542E-005	7.2285968E-001	2.0951831E-001	7.5261146E-001	1.6164043E+001	3.3338459E+003	1.1502108E+004	1.1975518E+004	-7.3835953E+001	0.0000000E+000	0.0000000E+000	0.0000000E+000	7.3835953E+001	0.0000000E+000	0.0000000E+000	0.0000000E+000	-7.3835953E+001	0.0000000E+000	0.0000000E+000	0.0000000E+000	-1.6164043E+001	0.0000000E+000	0.0000000E+000	0.0000000E+000	1.6164043E+001	3.4501026E+000	7.3835953E+001	1.382612559740017E-005	2.0401452E-005	3.6698582E+003
6.8110674E+003	1.3647649E+000	4.2648280E-001	1.4298500E+000	-1.7353786E+001	5.150512671301840E+000	2.7347025E-001	-5.2179266E-002	5.4790272E+001	4.8744488E+000	1.000000000000000E+000	9	4.5794109E-003	3.2027212E-003	0	7.938632476730790E-005	6.6753942E-001	2.0860302E-001	6.9937408E-001	1.7353786E+001	4.8744502E+003	1.5598465E+004	1.6342349E+004	-7.2646210E+001	0.0000000E+000	0.0000000E+000	0.0000000E+000	7.2646210E+001	0.0000000E+000	0.0000000E+000	0.0000000E+000	-7.2646210E+001	0.0000000E+000	0.0000000E+000	0.0000000E+000	-1.7353786E+001	0.0000000E+000	0.0000000E+000	0.0000000E+000	1.7353786E+001	3.2000468E+000	7.2646210E+001	-1.722481785057522E-006	-1.4269477E-005	5.2409756E+003
4.6414854E+003	1.4604638E+000	4.9023718E-001	1.5405476E+000	-1.8555473E+001	5.844709397628321E+000	2.7355590E-001	5.2877977E-002	6.9945038E+001	7.0830312E+000	1.000000000000000E+000	9	5.0363392E-003	3.2691876E-003	0	9.228008241333171E-005	6.1537600E-001	2.0656465E-001	6.4911985E-001	1.8555473E+001	7.0830308E+003	2.1101031E+004	2.2258096E+004	-7.1444527E+001	0.0000000E+000	0.0000000E+000	0.0000000E+000	7.1444527E+001	0.0000000E+000	0.0000000E+000	0.0000000E+000	-7.1444527E+001	0.0000000E+000	0.0000000E+000	0.0000000E+000	-1.8555473E+001	0.0000000E+000	0.0000000E+000	0.0000000E+000	1.8555473E+001	2.9790964E+000	7.1444527E+001	1.289375764602381E-005	1.4465083E-005	5.1733428E+003
3.1610117E+003	1.5705498E+000	5.6340343E-001	1.6685474E+000	-1.9734434E+001	6.311694326475845E+000	2.7354872E-001	5.4312255E-002	8.9366455E+001	1.0189114E+001	1.000000000000000E+000	9	4.9393838E-003	2.9602898E-003	0	9.739436253655650E-005	5.6412411E-001	2.0236824E-001	5.9932369E-001	1.9734434E+001	1.0189114E+004	2.8403291E+004	3.0175570E+004	-7.0265564E+001	0.0000000E+000	0.0000000E+000	0.0000000E+000	7.0265564E+001	0.0000000E+000	0.0000000E+000	0.0000000E+000	-7.0265564E+001	0.0000000E+000	0.0000000E+000	0.0000000E+000	-1.9734434E+001	0.0000000E+000	0.0000000E+000	0.0000000E+000	1.9734434E+001	2.7876115E+000	7.0265564E+001	5.114280123224793E-006	1.4857048E-005	5.0365928E+003
2.1556899E+003	1.6967407E+000	6.4714140E-001	1.8159629E+000	-2.0876982E+001	6.777689388611179E+000	2.7354583E-001	4.7010403E-002	1.1408660E+002	1.4488355E+001	1.000000000000000E+000	9	4.8839813E-003	2.6894719E-003	0	1.058232389635458E-004	5.1451916E-001	1.9623896E-001	5.5067205E-001	2.0876982E+001	1.4488355E+004	3.7987035E+004	4.0656207E+004	-6.9123016E+001	0.0000000E+000	0.0000000E+000	0.0000000E+000	6.9123016E+001	0.0000000E+000	0.0000000E+000	0.0000000E+000	-6.9123016E+001	0.0000000E+000	0.0000000E+000	0.0000000E+000	-2.0876982E+001	0.0000000E+000	0.0000000E+000	0.0000000E+000	2.0876982E+001	2.6219010E+000	6.9123016E+001	8.428876426989313E-006	1.2859500E-005	5.8188359E+003
1.4685898E+003	1.8360659E+000	7.4885261E-001	1.9829065E+000	-2.2188444E+001	7.244923650781857E+000	2.7355126E-001	4.6563357E-002	1.4471825E+002	2.0640087E+001	1.000000000000000E+000	9	4.8582004E-003	2.4500401E-003	0	1.123037233881057E-004	4.6696445E-001	1.9045481E-001	5.0431025E-001	2.2188444E+001	2.0640088E+004	5.0606164E+004	5.4653426E+004	-6.7811554E+001	0.0000000E+000	0.0000000E+000	0.0000000E+000	6.7811554E+001	0.0000000E+000	0.0000000E+000	0.0000000E+000	-6.7811554E+001	0.0000000E+000	0.0000000E+000	0.0000000E+000	-2.2188444E+001	0.0000000E+000	0.0000000E+000	0.0000000E+000	2.2188444E+001	2.4518387E+000	6.7811554E+001	6.480484424559920E-006	1.2737465E-005	5.8748184E+003
1.0003202E+003	1.9971460E+000	8.8017642E-001	2.1824992E+000	-2.3783909E+001	7.713668313066592E+000	2.7355278E-001	4.8165288E-002	1.8076375E+002	2.9399683E+001	1.000000000000000E+000	9	4.8428117E-003	2.2189296E-003	0	1.167145497128367E-004	4.1927758E-001	1.8478280E-001	4.5819032E-001	2.3783909E+001	2.9399680E+004	6.6708742E+004	7.2899914E+004	-6.6216095E+001	0.0000000E+000	0.0000000E+000	0.0000000E+000	6.6216095E+001	0.0000000E+000	0.0000000E+000	0.0000000E+000	-6.6216095E+001	0.0000000E+000	0.0000000E+000	0.0000000E+000	-2.3783909E+001	0.0000000E+000	0.0000000E+000	0.0000000E+000	2.3783909E+001	2.2690291E+000	6.6216095E+001	4.410826324731005E-006	1.3175748E-005	5.6794590E+003
6.8108978E+002	2.1701009E+000	1.0453655E+000	2.4087605E+000	-2.5720713E+001	8.179436175123556E+000	2.7354589E-001	5.3175982E-002	2.2353609E+002	4.2101414E+001	1.000000000000000E+000	9	4.8347507E-003	2.0071529E-003	0	1.216441048931964E-004	3.7401816E-001	1.8016934E-001	4.1515127E-001	2.5720713E+001	4.2101410E+004	8.7399406E+004	9.7011258E+004	-6.4279289E+001	0.0000000E+000	0.0000000E+000	0.0000000E+000	6.4279289E+001	0.0000000E+000	0.0000000E+000	0.0000000E+000	-6.4279289E+001	0.0000000E+000	0.0000000E+000	0.0000000E+000	-2.5720713E+001	0.0000000E+000	0.0000000E+000	0.0000000E+000	2.5720713E+001	2.0759256E+000	6.4279289E+001	4.929555180359686E-006	1.4546072E-005	5.1441626E+003
4.6396069E+002	2.3891723E+000	1.2492068E+000	2.6960456E+000	-2.7603348E+001	8.647197957354365E+000	2.7355132E-001	5.3474009E-002	2.7460257E+002	5.8954746E+001	1.000000000000000E+000	9	4.8249229E-003	1.7896295E-003	0	1.288628737489796E-004	3.2869491E-001	1.7186201E-001	3.7091359E-001	2.7603348E+001	5.8954750E+004	1.1275399E+005	1.2723649E+005	-6.2396652E+001	0.0000000E+000	0.0000000E+000	0.0000000E+000	6.2396652E+001	0.0000000E+000	0.0000000E+000	0.0000000E+000	-6.2396652E+001	0.0000000E+000	0.0000000E+000	0.0000000E+000	-2.7603348E+001	0.0000000E+000	0.0000000E+000	0.0000000E+000	2.7603348E+001	1.9125515E+000	6.2396652E+001	7.218768855783196E-006	1.4627885E-005	5.1155938E+003
3.1631589E+002	2.6733630E+000	1.5199003E+000	3.0752182E+000	-2.9619743E+001	9.365908258187119E+000	2.7359653E-001	-2.6342429E-002	3.3104269E+002	8.0865334E+001	1.000000000000000E+000	10	4.8627397E-003	1.5812665E-003	0	1.302534611884168E-004	2.8268716E-001	1.6071752E-001	3.2518017E-001	2.9619743E+001	8.0865328E+004	1.4223458E+005	1.6361503E+005	-6.0380257E+001	0.0000000E+000	0.0000000E+000	0.0000000E+000	6.0380257E+001	0.0000000E+000	0.0000000E+000	0.0000000E+000	-6.0380257E+001	0.0000000E+000	0.0000000E+000	0.0000000E+000	-2.9619743E+001	0.0000000E+000	0.0000000E+000	0.0000000E+000	2.9619743E+001	1.7589067E+000	6.0380257E+001	1.390587439437194E-006	-7.2071971E-006	1.0386154E+004
2.1534457E+002	3.0260828E+000	1.8226370E+000	3.5325887E+000	-3.1060934E+001	9.833439000387443E+000	2.7359900E-001	-2.2110498E-002	4.0549548E+002	1.0794443E+002	1.000000000000000E+000	10	4.8398725E-003	1.3700640E-003	0	1.264336001993571E-004	2.4249046E-001	1.4605419E-001	2.8307852E-001	3.1060934E+001	1.0794444E+005	1.7921769E+005	2.0921516E+005	-5.8939064E+001	0.0000000E+000	0.0000000E+000	0.0000000E+000	5.8939064E+001	0.0000000E+000	0.0000000E+000	0.0000000E+000	-5.8939064E+001	0.0000000E+000	0.0000000E+000	0.0000000E+000	-3.1060934E+001	0.0000000E+000	0.0000000E+000	0.0000000E+000	3.1060934E+001	1.6602772E+000	5.8939064E+001	-3.819860989059736E-006	-6.0494099E-006	1.2374167E+004
1.4673740E+002	3.4687581E+000	2.1934724E+000	4.1040959E+000	-3.2307251E+001	1.029640691567329E+001	2.7359402E-001	-2.2770168E-002	4.9447818E+002	1.4124611E+002	1.000000000000000E+000	10	4.8295679E-003	1.1767677E-003	0	1.241511246501921E-004	2.0593919E-001	1.3022584E-001	2.4365902E-001	3.2307251E+001	1.4124611E+005	2.2336666E+005	2.6427850E+005	-5.7692749E+001	0.0000000E+000	0.0000000E+000	0.0000000E+000	5.7692749E+001	0.0000000E+000	0.0000000E+000	0.0000000E+000	-5.7692749E+001	0.0000000E+000	0.0000000E+000	0.0000000E+000	-3.2307251E+001	0.0000000E+000	0.0000000E+000	0.0000000E+000	3.2307251E+001	1.5814004E+000	5.7692749E+001	-2.282475549165004E-006	-6.2297818E-006	1.2015459E+004
1.0003201E+002	4.0524526E+000	2.5819111E+000	4.8050637E+000	-3.2502151E+001	1.076468779132119E+001	2.7358028E-001	-2.1773219E-002	6.1622577E+002	1.7791974E+002	1.000000000000000E+000	10	4.8230360E-003	1.0037402E-003	0	1.222007759485762E-004	1.7551719E-001	1.1182605E-001	2.0811379E-001	3.2502151E+001	1.7791972E+005	2.7925488E+005	3.3111738E+005	-5.7497849E+001	0.0000000E+000	0.0000000E+000	0.0000000E+000	5.7497849E+001	0.0000000E+000	0.0000000E+000	0.0000000E+000	-5.7497849E+001	0.0000000E+000	0.0000000E+000	0.0000000E+000	-3.2502151E+001	0.0000000E+000	0.0000000E+000	0.0000000E+000	3.2502151E+001	1.5695554E+000	5.7497849E+001	-1.950348701615834E-006	-5.9567233E-006	1.2564990E+004
6.8103981E+001	4.7992582E+000	2.9571679E+000	5.6371732E+000	-3.1640205E+001	1.124334418735816E+001	2.7360129E-001	-1.8497238E-002	7.9026300E+002	2.1747075E+002	1.000000000000000E+000	10	4.8166718E-003	8.5444807E-004	0	1.203984607320615E-004	1.5102589E-001	9.3057893E-002	1.7739388E-001	3.1640205E+001	2.1747073E+005	3.5293847E+005	4.1455891E+005	-5.8359795E+001	0.0000000E+000	0.0000000E+000	0.0000000E+000	5.8359795E+001	0.0000000E+000	0.0000000E+000	0.0000000E+000	-5.8359795E+001	0.0000000E+000	0.0000000E+000	0.0000000E+000	-3.1640205E+001	0.0000000E+000	0.0000000E+000	0.0000000E+000	3.1640205E+001	1.6229239E+000	5.8359795E+001	-1.802315216514722E-006	-5.0608683E-006	1.4791468E+004
4.6441547E+001	5.7037520E+000	3.2593987E+000	6.5693583E+000	-2.9745726E+001	1.169856367559987E+001	2.7358609E-001	-2.4434259E-002	1.0514193E+003	2.5882431E+002	1.000000000000000E+000	10	4.8146928E-003	7.3290151E-004	0	1.174958316246888E-004	1.3216448E-001	7.5525150E-002	1.5222187E-001	2.9745726E+001	2.5882430E+005	4.5292700E+005	5.2166356E+005	-6.0254272E+001	0.0000000E+000	0.0000000E+000	0.0000000E+000	6.0254272E+001	0.0000000E+000	0.0000000E+000	0.0000000E+000	-6.0254272E+001	0.0000000E+000	0.0000000E+000	0.0000000E+000	-2.9745726E+001	0.0000000E+000	0.0000000E+000	0.0000000E+000	2.9745726E+001	1.7499399E+000	6.0254272E+001	-2.902629107372676E-006	-6.6848734E-006	1.1196824E+004
3.1629555E+001	6.7001929E+000	3.3839710E+000	7.5062537E+000	-2.6796322E+001	1.214545404349337E+001	2.7358854E-001	-2.5699558E-002	1.4869639E+003	3.0220886E+002	1.000000000000000E+000	10	4.8092301E-003	6.4069644E-004	0	1.147017501074006E-004	1.1891615E-001	6.0059287E-002	1.3322225E-001	2.6796322E+001	3.0220891E+005	5.9836738E+005	6.7035344E+005	-6.3203678E+001	0.0000000E+000	0.0000000E+000	0.0000000E+000	6.3203678E+001	0.0000000E+000	0.0000000E+000	0.0000000E+000	-6.3203678E+001	0.0000000E+000	0.0000000E+000	0.0000000E+000	-2.6796322E+001	0.0000000E+000	0.0000000E+000	0.0000000E+000	2.6796322E+001	1.9799794E+000	6.3203674E+001	-2.794081517288254E-006	-7.0311044E-006	1.0645651E+004
2.1551722E+001	7.7084055E+000	3.3385420E+000	8.4003201E+000	-2.3417635E+001	1.258433937103837E+001	2.7359217E-001	-2.6495263E-002	2.2119805E+003	3.4938425E+002	1.000000000000000E+000	10	4.8148609E-003	5.7317590E-004	0	1.103054204335042E-004	1.0923778E-001	4.7311332E-002	1.1904308E-001	2.3417635E+001	3.4938428E+005	8.0669819E+005	8.7910825E+005	-6.6582367E+001	0.0000000E+000	0.0000000E+000	0.0000000E+000	6.6582367E+001	0.0000000E+000	0.0000000E+000	0.0000000E+000	-6.6582367E+001	0.0000000E+000	0.0000000E+000	0.0000000E+000	-2.3417635E+001	0.0000000E+000	0.0000000E+000	0.0000000E+000	2.3417635E+001	2.3089137E+000	6.6582367E+001	-4.396329673896421E-006	-7.2488965E-006	1.0326079E+004
1.4685154E+001	8.6330633E+000	3.1656718E+000	9.1951761E+000	-2.0137564E+001	1.306202256708639E+001	2.7359316E-001	-1.8935166E-002	3.4235427E+003	4.0577698E+002	1.000000000000000E+000	10	4.8109465E-003	5.2320329E-004	0	1.085183186697088E-004	1.0210449E-001	3.7440859E-002	1.0875268E-001	2.0137564E+001	4.0577706E+005	1.1065893E+006	1.1786411E+006	-6.9862434E+001	0.0000000E+000	0.0000000E+000	0.0000000E+000	6.9862434E+001	0.0000000E+000	0.0000000E+000	0.0000000E+000	-6.9862434E+001	0.0000000E+000	0.0000000E+000	0.0000000E+000	-2.0137564E+001	0.0000000E+000	0.0000000E+000	0.0000000E+000	2.0137564E+001	2.7270873E+000	6.9862434E+001	-1.787101763795363E-006	-5.1805318E-006	1.4448944E+004
