EC-Lab ASCII FILE
Nb header lines : 63                          

Potentio Electrochemical Impedance Spectroscopy

Run on channel : 6 (SN 65795)
User : 
CE vs. WE compliance from -10 V to 10 V
Electrode connection : standard
Potential control : Ewe
Ewe ctrl range : min = -10.00 V, max = 10.00 V
Safety Limits :
	Do not start on E overload
Acquisition started on : 09/22/2025 08:45:21.043
Loaded Setting File :  C:\Users\Celltest\OneDrive - store-dot.com\Documents\EC-Lab\Data\Charmaine\17689_R288_UA670_SOC00_C04.mpr
Saved on :
	File : 17691_R287_UA658_SOC00_C06.mpr
	Directory : C:\Users\Celltest\OneDrive - store-dot.com\Documents\EC-Lab\Data\Charmaine\
	Host : 169.254.61.224
Device : VMP-3e (SN .003165)
Address : USB
EC-LAB for windows v11.62 (software)
Internet server v27.00 (firmware)
Command interpretor v12.03 (firmware)
Electrode material : 
Initial state : 
Electrolyte : 
Comments : 
Electrode surface area : 0.001 cm²
Characteristic mass : 0.001 g
Equivalent Weight : 0.000 g/eq.
Density : 0.000 g/cm3
Volume (V) : 0.001 cm³
Cycle Definition : Charge/Discharge alternance
Mode                Single sine         
E (V)               0.0000              
vs.                 Eoc                 
tE (h:m:s)          0:00:0.0000         
record              0                   
dI                  0.000               
unit dI             mA                  
dt (s)              0.000               
fi                  100.000             
unit fi             kHz                 
ff                  10.000              
unit ff             mHz                 
Nd                  6                   
Points              per decade          
spacing             Logarithmic         
Va (mV)             5.0                 
pw                  0.10                
Na                  2                   
corr                0                   
E range min (V)     -10.000             
E range max (V)     10.000              
I Range             Auto                
Bandwidth           5                   
nc cycles           0                   
goto Ns'            0                   
nr cycles           0                   
inc. cycle          0                   

freq/Hz	Re(Z)/Ohm	-Im(Z)/Ohm	|Z|/Ohm	Phase(Z)/deg	time/s	<Ewe>/V	<I>/mA	Cs/µF	Cp/µF	cycle number	I Range	|Ewe|/V	|I|/A	Ns	(Q-Qo)/mA.h	Re(Y)/Ohm-1	Im(Y)/Ohm-1	|Y|/Ohm-1	Phase(Y)/deg	Re(C)/nF	Im(C)/nF	|C|/nF	Phase(C)/deg	Re(M)	Im(M)	|M|	Phase(M)/deg	Re(Permittivity)	Im(Permittivity)	|Permittivity|	Phase(Permittivity)/deg	Re(Resistivity)/Ohm.cm	Im(Resistivity)/Ohm.cm	|Resistivity|/Ohm.cm	Phase(Resistivity)/deg	Re(Conductivity)/mS/cm	Im(Conductivity)/mS/cm	|Conductivity|/mS/cm	Phase(Conductivity)/deg	Tan(Delta)	Loss Angle(Delta)/deg	dq/mA.h	Pwe/W	Rwe/Ohm	
1.0000371E+005	9.8050392E-001	2.0036383E-001	1.0007665E+000	-1.1549261E+001	1.865489661897300E+000	2.7774721E-001	4.5717571E-002	7.9430017E+000	3.1838879E-001	1.000000000000000E+000	9	4.7509708E-003	4.7473321E-003	0	-5.285556002093169E-006	9.7900254E-001	2.0005703E-001	9.9923408E-001	1.1549261E+001	3.1838885E+002	1.5580730E+003	1.5902714E+003	-7.8450737E+001	0.0000000E+000	0.0000000E+000	0.0000000E+000	7.8450737E+001	0.0000000E+000	0.0000000E+000	0.0000000E+000	-7.8450737E+001	0.0000000E+000	0.0000000E+000	0.0000000E+000	-1.1549261E+001	0.0000000E+000	0.0000000E+000	0.0000000E+000	1.1549261E+001	4.8936172E+000	7.8450737E+001	-5.285556002093169E-006	1.2697928E-005	6.0752837E+003
6.8132047E+004	1.0306942E+000	2.2463168E-001	1.0548886E+000	-1.2294906E+001	2.302474509313470E+000	2.7773559E-001	4.7133058E-002	1.0399146E+001	4.7154865E-001	1.000000000000000E+000	9	5.4505705E-003	5.1669632E-003	0	7.570980579023146E-007	9.2622530E-001	2.0186351E-001	9.4796741E-001	1.2294906E+001	4.7154868E+002	2.1636416E+003	2.2144307E+003	-7.7705093E+001	0.0000000E+000	0.0000000E+000	0.0000000E+000	7.7705093E+001	0.0000000E+000	0.0000000E+000	0.0000000E+000	-7.7705093E+001	0.0000000E+000	0.0000000E+000	0.0000000E+000	-1.2294906E+001	0.0000000E+000	0.0000000E+000	0.0000000E+000	1.2294906E+001	4.5883741E+000	7.7705093E+001	6.042654059995483E-006	1.3090528E-005	5.8925859E+003
4.6420355E+004	1.0843427E+000	2.5138763E-001	1.1131015E+000	-1.3052531E+001	2.881474030175013E+000	2.7773479E-001	4.6425335E-002	1.3638536E+001	6.9564241E-001	1.000000000000000E+000	9	5.0493535E-003	4.5362921E-003	0	-2.405627879236514E-006	8.7517935E-001	2.0289643E-001	8.9839071E-001	1.3052531E+001	6.9564227E+002	3.0006042E+003	3.0801858E+003	-7.6947472E+001	0.0000000E+000	0.0000000E+000	0.0000000E+000	7.6947472E+001	0.0000000E+000	0.0000000E+000	0.0000000E+000	-7.6947472E+001	0.0000000E+000	0.0000000E+000	0.0000000E+000	-1.3052531E+001	0.0000000E+000	0.0000000E+000	0.0000000E+000	1.3052531E+001	4.3134294E+000	7.6947472E+001	-3.162725937138829E-006	1.2893931E-005	5.9823970E+003
3.1621139E+004	1.1434060E+000	2.8535780E-001	1.1784763E+000	-1.4012957E+001	3.459487497602822E+000	2.7771977E-001	4.4059958E-002	1.7638144E+001	1.0341669E+000	1.000000000000000E+000	9	5.0564031E-003	4.2906278E-003	0	1.608878557919525E-005	8.2330120E-001	2.0546980E-001	8.4855330E-001	1.4012957E+001	1.0341667E+003	4.1438247E+003	4.2709229E+003	-7.5987045E+001	0.0000000E+000	0.0000000E+000	0.0000000E+000	7.5987045E+001	0.0000000E+000	0.0000000E+000	0.0000000E+000	-7.5987045E+001	0.0000000E+000	0.0000000E+000	0.0000000E+000	-1.4012957E+001	0.0000000E+000	0.0000000E+000	0.0000000E+000	1.4012957E+001	4.0069203E+000	7.5987045E+001	1.849441345843176E-005	1.2236322E-005	6.3032236E+003
2.1544684E+004	1.2107056E+000	3.2615399E-001	1.2538679E+000	-1.5077083E+001	4.037491125083761E+000	2.7771640E-001	4.2253308E-002	2.2649433E+001	1.5324954E+000	1.000000000000000E+000	9	5.0677108E-003	4.0416624E-003	0	3.127041216182664E-005	7.7007854E-001	2.0745273E-001	7.9753220E-001	1.5077083E+001	1.5324951E+003	5.6887266E+003	5.8915322E+003	-7.4922920E+001	0.0000000E+000	0.0000000E+000	0.0000000E+000	7.4922920E+001	0.0000000E+000	0.0000000E+000	0.0000000E+000	-7.4922920E+001	0.0000000E+000	0.0000000E+000	0.0000000E+000	-1.5077083E+001	0.0000000E+000	0.0000000E+000	0.0000000E+000	1.5077083E+001	3.7120676E+000	7.4922920E+001	1.518162658263140E-005	1.1734436E-005	6.5726548E+003
1.4678594E+004	1.2849761E+000	3.6912879E-001	1.3369442E+000	-1.6027510E+001	4.333485192473745E+000	2.7771720E-001	4.1769031E-002	2.9373638E+001	2.2391696E+000	1.000000000000000E+000	9	5.0703180E-003	3.7924678E-003	0	3.378044940730453E-005	7.1890002E-001	2.0651487E-001	7.4797434E-001	1.6027510E+001	2.2391699E+003	7.7947856E+003	8.1100288E+003	-7.3972488E+001	0.0000000E+000	0.0000000E+000	0.0000000E+000	7.3972488E+001	0.0000000E+000	0.0000000E+000	0.0000000E+000	-7.3972488E+001	0.0000000E+000	0.0000000E+000	0.0000000E+000	-1.6027510E+001	0.0000000E+000	0.0000000E+000	0.0000000E+000	1.6027510E+001	3.4811051E+000	7.3972488E+001	2.510037245477889E-006	1.1599978E-005	6.6488784E+003
1.0002226E+004	1.3699324E+000	4.2255169E-001	1.4336195E+000	-1.7142225E+001	4.629476646514377E+000	2.7771947E-001	4.6797756E-002	3.7656818E+001	3.2714143E+000	1.000000000000000E+000	9	4.5740097E-003	3.1905326E-003	0	3.608229115931317E-005	6.6654789E-001	2.0559475E-001	6.9753516E-001	1.7142225E+001	3.2714143E+003	1.0606078E+004	1.1099146E+004	-7.2857773E+001	0.0000000E+000	0.0000000E+000	0.0000000E+000	7.2857773E+001	0.0000000E+000	0.0000000E+000	0.0000000E+000	-7.2857773E+001	0.0000000E+000	0.0000000E+000	0.0000000E+000	-1.7142225E+001	0.0000000E+000	0.0000000E+000	0.0000000E+000	1.7142225E+001	3.2420468E+000	7.2857773E+001	2.301841752008635E-006	1.2996648E-005	5.9344614E+003
6.8110674E+003	1.4672850E+000	4.8447406E-001	1.5451992E+000	-1.8272396E+001	5.184496432862943E+000	2.7752036E-001	-1.0989418E-001	4.8231903E+001	4.7413998E+000	1.000000000000000E+000	9	4.8352215E-003	3.1291898E-003	0	1.965966021173841E-005	6.1453348E-001	2.0290913E-001	6.4716578E-001	1.8272396E+001	4.7414004E+003	1.4359870E+004	1.5122393E+004	-7.1727600E+001	0.0000000E+000	0.0000000E+000	0.0000000E+000	7.1727600E+001	0.0000000E+000	0.0000000E+000	0.0000000E+000	-7.1727600E+001	0.0000000E+000	0.0000000E+000	0.0000000E+000	-1.8272396E+001	0.0000000E+000	0.0000000E+000	0.0000000E+000	1.8272396E+001	3.0286143E+000	7.1727600E+001	-1.642263094757476E-005	-3.0497871E-005	2.5253418E+003
4.6414854E+003	1.5816553E+000	5.5358791E-001	1.6757365E+000	-1.9290321E+001	5.655710161983734E+000	2.7765417E-001	3.6777508E-002	6.1940758E+001	6.7598686E+000	1.000000000000000E+000	9	4.6637258E-003	2.7830901E-003	0	2.138237018539156E-005	5.6324893E-001	1.9714016E-001	5.9675252E-001	1.9290321E+001	6.7598682E+003	1.9313611E+004	2.0462439E+004	-7.0709679E+001	0.0000000E+000	0.0000000E+000	0.0000000E+000	7.0709679E+001	0.0000000E+000	0.0000000E+000	0.0000000E+000	-7.0709679E+001	0.0000000E+000	0.0000000E+000	0.0000000E+000	-1.9290321E+001	0.0000000E+000	0.0000000E+000	0.0000000E+000	1.9290321E+001	2.8570986E+000	7.0709679E+001	1.722709973653156E-006	1.0211428E-005	7.5495645E+003
3.1610117E+003	1.7110634E+000	6.3681632E-001	1.8257253E+000	-2.0414047E+001	6.122694690835488E+000	2.7765441E-001	3.5063997E-002	7.9064186E+001	9.6191645E+000	1.000000000000000E+000	9	4.5716097E-003	2.5039965E-003	0	2.677312674567414E-005	5.1332831E-001	1.9104837E-001	5.4772753E-001	2.0414047E+001	9.6191641E+003	2.5845756E+004	2.7577734E+004	-6.9585953E+001	0.0000000E+000	0.0000000E+000	0.0000000E+000	6.9585953E+001	0.0000000E+000	0.0000000E+000	0.0000000E+000	-6.9585953E+001	0.0000000E+000	0.0000000E+000	0.0000000E+000	-2.0414047E+001	0.0000000E+000	0.0000000E+000	0.0000000E+000	2.0414047E+001	2.6869025E+000	6.9585953E+001	5.390756560282576E-006	9.7356733E-006	7.9185044E+003
2.1556899E+003	1.8561225E+000	7.2951728E-001	1.9943385E+000	-2.1456463E+001	6.588679246298852E+000	2.7765277E-001	2.8060995E-002	1.0120413E+002	1.3541653E+001	1.000000000000000E+000	9	4.5166872E-003	2.2647546E-003	0	2.991510988473116E-005	4.6666890E-001	1.8341626E-001	5.0141937E-001	2.1456463E+001	1.3541655E+004	3.4454242E+004	3.7019875E+004	-6.8543533E+001	0.0000000E+000	0.0000000E+000	0.0000000E+000	6.8543533E+001	0.0000000E+000	0.0000000E+000	0.0000000E+000	-6.8543533E+001	0.0000000E+000	0.0000000E+000	0.0000000E+000	-2.1456463E+001	0.0000000E+000	0.0000000E+000	0.0000000E+000	2.1456463E+001	2.5443161E+000	6.8543533E+001	3.141983139057021E-006	7.7912127E-006	9.8946162E+003
1.4685898E+003	2.0204165E+000	8.3901519E-001	2.1876996E+000	-2.2551569E+001	7.278965279081604E+000	2.7765831E-001	3.5622738E-002	1.2916647E+002	1.8998272E+001	1.000000000000000E+000	9	4.9839164E-003	2.2781540E-003	0	3.348207955154228E-005	4.2214879E-001	1.7530507E-001	4.5710117E-001	2.2551569E+001	1.8998268E+004	4.5749371E+004	4.9537250E+004	-6.7448433E+001	0.0000000E+000	0.0000000E+000	0.0000000E+000	6.7448433E+001	0.0000000E+000	0.0000000E+000	0.0000000E+000	-6.7448433E+001	0.0000000E+000	0.0000000E+000	0.0000000E+000	-2.2551569E+001	0.0000000E+000	0.0000000E+000	0.0000000E+000	2.2551569E+001	2.4080811E+000	6.7448433E+001	3.566969666811123E-006	9.8909495E-006	7.7944126E+003
1.0003202E+003	2.2110124E+000	9.6675354E-001	2.4131284E+000	-2.3617100E+001	7.747704928020539E+000	2.7765229E-001	3.5529606E-002	1.6457555E+002	2.6414112E+001	1.000000000000000E+000	9	4.9604345E-003	2.0556033E-003	0	3.634743807570905E-005	3.7969103E-001	1.6601789E-001	4.1439983E-001	2.3617100E+001	2.6414107E+004	6.0410363E+004	6.5932672E+004	-6.6382904E+001	0.0000000E+000	0.0000000E+000	0.0000000E+000	6.6382904E+001	0.0000000E+000	0.0000000E+000	0.0000000E+000	-6.6382904E+001	0.0000000E+000	0.0000000E+000	0.0000000E+000	-2.3617100E+001	0.0000000E+000	0.0000000E+000	0.0000000E+000	2.3617100E+001	2.2870486E+000	6.6382904E+001	2.865358524166769E-006	9.8648770E-006	7.8146743E+003
6.8108978E+002	2.4260962E+000	1.1226529E+000	2.6732550E+000	-2.4831890E+001	8.213438310107449E+000	2.7765197E-001	2.5509365E-002	2.0814706E+002	3.6709675E+001	1.000000000000000E+000	9	4.9529430E-003	1.8527762E-003	0	3.997972786517090E-005	3.3949021E-001	1.5709585E-001	3.7407580E-001	2.4831890E+001	3.6709680E+004	7.9331016E+004	8.7412875E+004	-6.5168106E+001	0.0000000E+000	0.0000000E+000	0.0000000E+000	6.5168106E+001	0.0000000E+000	0.0000000E+000	0.0000000E+000	-6.5168106E+001	0.0000000E+000	0.0000000E+000	0.0000000E+000	-2.4831890E+001	0.0000000E+000	0.0000000E+000	0.0000000E+000	2.4831890E+001	2.1610386E+000	6.5168106E+001	3.632289789461845E-006	7.0827255E-006	1.0884315E+004
4.6396069E+002	2.6914015E+000	1.3175435E+000	2.9965918E+000	-2.6083509E+001	8.936218877759529E+000	2.7767292E-001	-2.3118341E-002	2.6035983E+002	5.0332523E+001	1.000000000000000E+000	10	5.0057946E-003	1.6704960E-003	0	3.798456614861627E-005	2.9972523E-001	1.4672692E-001	3.3371246E-001	2.6083509E+001	5.0332531E+004	1.0281637E+005	1.1447519E+005	-6.3916489E+001	0.0000000E+000	0.0000000E+000	0.0000000E+000	6.3916489E+001	0.0000000E+000	0.0000000E+000	0.0000000E+000	-6.3916489E+001	0.0000000E+000	0.0000000E+000	0.0000000E+000	-2.6083509E+001	0.0000000E+000	0.0000000E+000	0.0000000E+000	2.6083509E+001	2.0427420E+000	6.3916489E+001	-1.995161716554627E-006	-6.4193373E-006	1.2010936E+004
3.1631589E+002	2.9909666E+000	1.5421126E+000	3.3651140E+000	-2.7275181E+001	9.402921699947910E+000	2.7766970E-001	-2.3302821E-002	3.2627444E+002	6.8519730E+001	1.000000000000000E+000	10	4.9749101E-003	1.4783778E-003	0	3.472128312240885E-005	2.6412651E-001	1.3618100E-001	2.9716676E-001	2.7275181E+001	6.8519734E+004	1.3289577E+005	1.4952003E+005	-6.2724819E+001	0.0000000E+000	0.0000000E+000	0.0000000E+000	6.2724819E+001	0.0000000E+000	0.0000000E+000	0.0000000E+000	-6.2724819E+001	0.0000000E+000	0.0000000E+000	0.0000000E+000	-2.7275181E+001	0.0000000E+000	0.0000000E+000	0.0000000E+000	2.7275181E+001	1.9395254E+000	6.2724823E+001	-3.263283026207416E-006	-6.4704873E-006	1.1915712E+004
2.1534457E+002	3.3651283E+000	1.8047789E+000	3.8185489E+000	-2.8205462E+001	9.870442895480664E+000	2.7767447E-001	-2.2641359E-002	4.0950784E+002	9.1477341E+001	1.000000000000000E+000	10	4.9592536E-003	1.2987272E-003	0	3.273166585842329E-005	2.3078360E-001	1.2377340E-001	2.6187959E-001	2.8205462E+001	9.1477328E+004	1.7056547E+005	1.9354763E+005	-6.1794540E+001	0.0000000E+000	0.0000000E+000	0.0000000E+000	6.1794540E+001	0.0000000E+000	0.0000000E+000	0.0000000E+000	-6.1794540E+001	0.0000000E+000	0.0000000E+000	0.0000000E+000	-2.8205462E+001	0.0000000E+000	0.0000000E+000	0.0000000E+000	2.8205462E+001	1.8645654E+000	6.1794540E+001	-1.989617263985569E-006	-6.2869271E-006	1.2264037E+004
1.4673740E+002	3.8255737E+000	2.1050920E+000	4.3665118E+000	-2.8822596E+001	1.033337102414225E+001	2.7767578E-001	-2.3043832E-002	5.1523840E+002	1.1975154E+002	1.000000000000000E+000	10	4.9476228E-003	1.1330836E-003	0	2.993875655094679E-005	2.0064451E-001	1.1040831E-001	2.2901575E-001	2.8822596E+001	1.1975153E+005	2.1762391E+005	2.4839605E+005	-6.1177406E+001	0.0000000E+000	0.0000000E+000	0.0000000E+000	6.1177406E+001	0.0000000E+000	0.0000000E+000	0.0000000E+000	-6.1177406E+001	0.0000000E+000	0.0000000E+000	0.0000000E+000	-2.8822596E+001	0.0000000E+000	0.0000000E+000	0.0000000E+000	2.8822596E+001	1.8172952E+000	6.1177406E+001	-2.792909307476493E-006	-6.3987140E-006	1.2049896E+004
1.0003201E+002	4.4142385E+000	2.4150012E+000	5.0316730E+000	-2.8682781E+001	1.080167280641035E+001	2.7768078E-001	-2.2477396E-002	6.5881549E+002	1.5176572E+002	1.000000000000000E+000	10	4.9432018E-003	9.8241714E-004	0	2.706774860333988E-005	1.7435363E-001	9.5387734E-002	1.9874106E-001	2.8682781E+001	1.5176572E+005	2.7740363E+005	3.1620500E+005	-6.1317219E+001	0.0000000E+000	0.0000000E+000	0.0000000E+000	6.1317219E+001	0.0000000E+000	0.0000000E+000	0.0000000E+000	-6.1317219E+001	0.0000000E+000	0.0000000E+000	0.0000000E+000	-2.8682781E+001	0.0000000E+000	0.0000000E+000	0.0000000E+000	2.8682781E+001	1.8278412E+000	6.1317215E+001	-2.871007947606915E-006	-6.2415411E-006	1.2353779E+004
6.8103981E+001	5.1256576E+000	2.6664739E+000	5.7777548E+000	-2.7484390E+001	1.128032296241145E+001	2.7768713E-001	-1.9902347E-002	8.7641602E+002	1.8666666E+002	1.000000000000000E+000	10	4.9333968E-003	8.5386052E-004	0	2.446894804290625E-005	1.5354349E-001	7.9876520E-002	1.7307761E-001	2.7484390E+001	1.8666666E+005	3.5882197E+005	4.0447206E+005	-6.2515610E+001	0.0000000E+000	0.0000000E+000	0.0000000E+000	6.2515610E+001	0.0000000E+000	0.0000000E+000	0.0000000E+000	-6.2515610E+001	0.0000000E+000	0.0000000E+000	0.0000000E+000	-2.7484390E+001	0.0000000E+000	0.0000000E+000	0.0000000E+000	2.7484390E+001	1.9222605E+000	6.2515610E+001	-2.598800560433627E-006	-5.5266255E-006	1.3952482E+004
4.6441547E+001	5.9379230E+000	2.8142791E+000	6.5710802E+000	-2.5358616E+001	1.173556021068362E+001	2.7767795E-001	-2.3459351E-002	1.2177168E+003	2.2336087E+002	1.000000000000000E+000	10	4.9339766E-003	7.5086235E-004	0	2.213338773365831E-005	1.3751847E-001	6.5176889E-002	1.5218198E-001	2.5358616E+001	2.2336081E+005	4.7127506E+005	5.2152684E+005	-6.4641388E+001	0.0000000E+000	0.0000000E+000	0.0000000E+000	6.4641388E+001	0.0000000E+000	0.0000000E+000	0.0000000E+000	-6.4641388E+001	0.0000000E+000	0.0000000E+000	0.0000000E+000	-2.5358616E+001	0.0000000E+000	0.0000000E+000	0.0000000E+000	2.5358616E+001	2.1099269E+000	6.4641388E+001	-2.335560309247940E-006	-6.5141444E-006	1.1836558E+004
3.1629555E+001	6.7744403E+000	2.8151259E+000	7.3360734E+000	-2.2565380E+001	1.218245265862788E+001	2.7767521E-001	-2.4687257E-002	1.7874308E+003	2.6320706E+002	1.000000000000000E+000	10	4.9288962E-003	6.7187118E-004	0	1.913298764259606E-005	1.2587692E-001	5.2308287E-002	1.3631271E-001	2.2565380E+001	2.6320709E+005	6.3339275E+005	6.8590406E+005	-6.7434616E+001	0.0000000E+000	0.0000000E+000	0.0000000E+000	6.7434616E+001	0.0000000E+000	0.0000000E+000	0.0000000E+000	-6.7434616E+001	0.0000000E+000	0.0000000E+000	0.0000000E+000	-2.2565380E+001	0.0000000E+000	0.0000000E+000	0.0000000E+000	2.2565380E+001	2.4064431E+000	6.7434616E+001	-3.000400091062248E-006	-6.8550394E-006	1.1247715E+004
2.1551722E+001	7.5710435E+000	2.7218854E+000	8.0454559E+000	-1.9774149E+001	1.262133577276836E+001	2.7767491E-001	-2.7368516E-002	2.7131155E+003	3.1053223E+002	1.000000000000000E+000	10	4.9287188E-003	6.1260903E-004	0	1.808067585330314E-005	1.1696460E-001	4.2050242E-002	1.2429377E-001	1.9774149E+001	3.1053222E+005	8.6375906E+005	9.1788344E+005	-7.0225853E+001	0.0000000E+000	0.0000000E+000	0.0000000E+000	7.0225853E+001	0.0000000E+000	0.0000000E+000	0.0000000E+000	-7.0225853E+001	0.0000000E+000	0.0000000E+000	0.0000000E+000	-1.9774149E+001	0.0000000E+000	0.0000000E+000	0.0000000E+000	1.9774149E+001	2.7815437E+000	7.0225853E+001	-1.052311789292920E-006	-7.5995504E-006	1.0145779E+004
1.4685154E+001	8.3020611E+000	2.5597143E+000	8.6877127E+000	-1.7135721E+001	1.309906379549648E+001	2.7769756E-001	-1.8493721E-002	4.2339927E+003	3.6755490E+002	1.000000000000000E+000	10	4.9351398E-003	5.6805974E-004	0	1.569772487289124E-005	1.0999552E-001	3.3914123E-002	1.1510509E-001	1.7135721E+001	3.6755488E+005	1.1921109E+006	1.2474875E+006	-7.2864281E+001	0.0000000E+000	0.0000000E+000	0.0000000E+000	7.2864281E+001	0.0000000E+000	0.0000000E+000	0.0000000E+000	-7.2864281E+001	0.0000000E+000	0.0000000E+000	0.0000000E+000	-1.7135721E+001	0.0000000E+000	0.0000000E+000	0.0000000E+000	1.7135721E+001	3.2433546E+000	7.2864281E+001	-2.382950980411906E-006	-5.1356615E-006	1.5015775E+004
