EC-Lab ASCII FILE

Nb header lines : 63                          

Potentio Electrochemical Impedance Spectroscopy

Run on channel : 4 (SN 66756)
User : 
CE vs. WE compliance from -10 V to 10 V
Electrode connection : standard
Potential control : Ewe
Ewe ctrl range : min = -10.00 V, max = 10.00 V
Safety Limits :
	Do not start on E overload
Acquisition started on : 09/22/2025 10:03:07.935
Loaded Setting File :  C:\Users\Celltest\OneDrive - store-dot.com\Documents\EC-Lab\Data\Gyutae\17739_R277_UA674_SOC00_C03.mpr
Saved on :
	File : 17705_R287_UA661_SOC00_C04.mpr
	Directory : C:\Users\Celltest\OneDrive - store-dot.com\Documents\EC-Lab\Data\Charmaine\
	Host : 169.254.61.224
Device : VMP-3e (SN .003165)
Address : USB
EC-LAB for windows v11.62 (software)
Internet server v27.00 (firmware)
Command interpretor v12.03 (firmware)
Electrode material : 
Initial state : 
Electrolyte : 
Comments : 
Electrode surface area : 0.001 cm²
Characteristic mass : 0.001 g
Equivalent Weight : 0.000 g/eq.
Density : 0.000 g/cm3
Volume (V) : 0.001 cm³
Cycle Definition : Charge/Discharge alternance
Mode                Single sine         
E (V)               0.0000              
vs.                 Eoc                 
tE (h:m:s)          0:00:0.0000         
record              0                   
dI                  0.000               
unit dI             mA                  
dt (s)              0.000               
fi                  100.000             
unit fi             kHz                 
ff                  10.000              
unit ff             mHz                 
Nd                  6                   
Points              per decade          
spacing             Logarithmic         
Va (mV)             5.0                 
pw                  0.10                
Na                  2                   
corr                0                   
E range min (V)     -10.000             
E range max (V)     10.000              
I Range             Auto                
Bandwidth           5                   
nc cycles           0                   
goto Ns'            0                   
nr cycles           0                   
inc. cycle          0                   

freq/Hz	Re(Z)/Ohm	-Im(Z)/Ohm	|Z|/Ohm	Phase(Z)/deg	time/s	<Ewe>/V	<I>/mA	Cs/µF	Cp/µF	cycle number	I Range	|Ewe|/V	|I|/A	Ns	(Q-Qo)/mA.h	Re(Y)/Ohm-1	Im(Y)/Ohm-1	|Y|/Ohm-1	Phase(Y)/deg	Re(C)/nF	Im(C)/nF	|C|/nF	Phase(C)/deg	Re(M)	Im(M)	|M|	Phase(M)/deg	Re(Permittivity)	Im(Permittivity)	|Permittivity|	Phase(Permittivity)/deg	Re(Resistivity)/Ohm.cm	Im(Resistivity)/Ohm.cm	|Resistivity|/Ohm.cm	Phase(Resistivity)/deg	Re(Conductivity)/mS/cm	Im(Conductivity)/mS/cm	|Conductivity|/mS/cm	Phase(Conductivity)/deg	Tan(Delta)	Loss Angle(Delta)/deg	dq/mA.h	Pwe/W	Rwe/Ohm	
1.0000371E+005	1.2851211E+000	2.8918570E-001	1.3172565E+000	-1.2681804E+001	2.066499351436505E+000	2.8109089E-001	-1.0428524E-002	5.5033507E+000	2.6524070E-001	1.000000000000000E+000	9	4.6951449E-003	3.5643363E-003	0	-1.135270454390492E-005	7.4063355E-001	1.6666183E-001	7.5915360E-001	1.2681804E+001	2.6524066E+002	1.1787112E+003	1.2081857E+003	-7.7318199E+001	0.0000000E+000	0.0000000E+000	0.0000000E+000	7.7318199E+001	0.0000000E+000	0.0000000E+000	0.0000000E+000	-7.7318199E+001	0.0000000E+000	0.0000000E+000	0.0000000E+000	-1.2681804E+001	0.0000000E+000	0.0000000E+000	0.0000000E+000	1.2681804E+001	4.4439301E+000	7.7318199E+001	-1.135270454390492E-005	-2.9313630E-006	2.6954045E+004
6.8132047E+004	1.3516511E+000	3.1708512E-001	1.3883456E+000	-1.3202339E+001	2.644491725572152E+000	2.8111458E-001	-1.5053388E-002	7.3670368E+000	3.8428140E-001	1.000000000000000E+000	9	5.0548865E-003	3.6409425E-003	0	-1.436845808724886E-005	7.0124441E-001	1.6450560E-001	7.2028178E-001	1.3202339E+001	3.8428140E+002	1.6380913E+003	1.6825621E+003	-7.6797661E+001	0.0000000E+000	0.0000000E+000	0.0000000E+000	7.6797661E+001	0.0000000E+000	0.0000000E+000	0.0000000E+000	-7.6797661E+001	0.0000000E+000	0.0000000E+000	0.0000000E+000	-1.3202339E+001	0.0000000E+000	0.0000000E+000	0.0000000E+000	1.3202339E+001	4.2627387E+000	7.6797661E+001	-3.015753543343938E-006	-4.2317270E-006	1.8674506E+004
4.6420355E+004	1.4247683E+000	3.4947187E-001	1.4670022E+000	-1.3781612E+001	3.223499993066071E+000	2.8109902E-001	-1.2908799E-002	9.8106880E+000	5.5675280E-001	1.000000000000000E+000	9	5.0623389E-003	3.4508053E-003	0	-1.517348200416503E-005	6.6203773E-001	1.6238680E-001	6.8166226E-001	1.3781612E+001	5.5675299E+002	2.2698357E+003	2.3371196E+003	-7.6218384E+001	0.0000000E+000	0.0000000E+000	0.0000000E+000	7.6218384E+001	0.0000000E+000	0.0000000E+000	0.0000000E+000	-7.6218384E+001	0.0000000E+000	0.0000000E+000	0.0000000E+000	-1.3781612E+001	0.0000000E+000	0.0000000E+000	0.0000000E+000	1.3781612E+001	4.0769186E+000	7.6218384E+001	-8.050239169161719E-007	-3.6286506E-006	2.1775770E+004
3.1621139E+004	1.5030710E+000	4.0074900E-001	1.5555778E+000	-1.4928929E+001	3.801480287191225E+000	2.8110561E-001	-1.3020692E-002	1.2559438E+001	8.3354998E-001	1.000000000000000E+000	9	5.1321797E-003	3.2992114E-003	0	-1.521968426309629E-005	6.2114936E-001	1.6561094E-001	6.4284796E-001	1.4928929E+001	8.3355017E+002	3.1263577E+003	3.2355708E+003	-7.5071068E+001	0.0000000E+000	0.0000000E+000	0.0000000E+000	7.5071068E+001	0.0000000E+000	0.0000000E+000	0.0000000E+000	-7.5071068E+001	0.0000000E+000	0.0000000E+000	0.0000000E+000	-1.4928929E+001	0.0000000E+000	0.0000000E+000	0.0000000E+000	1.4928929E+001	3.7506542E+000	7.5071068E+001	-4.620225893126531E-008	-3.6601896E-006	2.1589145E+004
2.1544684E+004	1.6000559E+000	4.4943956E-001	1.6619792E+000	-1.5689517E+001	4.239489747997141E+000	2.8111520E-001	-2.3090968E-002	1.6436476E+001	1.2019881E+000	1.000000000000000E+000	9	5.2068587E-003	3.1329265E-003	0	-1.230685680656138E-005	5.7927394E-001	1.6271222E-001	6.0169226E-001	1.5689517E+001	1.2019878E+003	4.2792139E+003	4.4448223E+003	-7.4310486E+001	0.0000000E+000	0.0000000E+000	0.0000000E+000	7.4310486E+001	0.0000000E+000	0.0000000E+000	0.0000000E+000	-7.4310486E+001	0.0000000E+000	0.0000000E+000	0.0000000E+000	-1.5689517E+001	0.0000000E+000	0.0000000E+000	0.0000000E+000	1.5689517E+001	3.5601137E+000	7.4310486E+001	2.912827456534918E-006	-6.4912219E-006	1.2174249E+004
1.4678594E+004	1.6996664E+000	5.1340342E-001	1.7755136E+000	-1.6807535E+001	4.676483715447830E+000	2.8110456E-001	-2.0965029E-002	2.1119173E+001	1.7658198E+000	1.000000000000000E+000	9	4.9119466E-003	2.7664932E-003	0	-1.249932662141509E-005	5.3915745E-001	1.6285861E-001	5.6321728E-001	1.6807535E+001	1.7658198E+003	5.8458994E+003	6.1067715E+003	-7.3192467E+001	0.0000000E+000	0.0000000E+000	0.0000000E+000	7.3192467E+001	0.0000000E+000	0.0000000E+000	0.0000000E+000	-7.3192467E+001	0.0000000E+000	0.0000000E+000	0.0000000E+000	-1.6807535E+001	0.0000000E+000	0.0000000E+000	0.0000000E+000	1.6807535E+001	3.3105865E+000	7.3192467E+001	-1.924698148537171E-007	-5.8933651E-006	1.3408261E+004
1.0002226E+004	1.8081787E+000	5.8454186E-001	1.9003155E+000	-1.7914808E+001	5.113476376194740E+000	2.8120825E-001	-1.7645579E-002	2.7221237E+001	2.5756550E+000	1.000000000000000E+000	9	4.9254536E-003	2.5919136E-003	0	-1.490551103068153E-005	5.0071418E-001	1.6186921E-001	5.2622843E-001	1.7914808E+001	2.5756553E+003	7.9673403E+003	8.3733213E+003	-7.2085190E+001	0.0000000E+000	0.0000000E+000	0.0000000E+000	7.2085190E+001	0.0000000E+000	0.0000000E+000	0.0000000E+000	-7.2085190E+001	0.0000000E+000	0.0000000E+000	0.0000000E+000	-1.7914808E+001	0.0000000E+000	0.0000000E+000	0.0000000E+000	1.7914808E+001	3.0933263E+000	7.2085190E+001	-2.406184409266441E-006	-4.9620821E-006	1.5936471E+004
6.8110674E+003	1.9431812E+000	6.7611092E-001	2.0574448E+000	-1.9184841E+001	5.491509940795368E+000	2.8086647E-001	-1.4352396E-001	3.4561054E+001	3.7322137E+000	1.000000000000000E+000	9	4.6513905E-003	2.2607609E-003	0	-2.872014106039165E-005	4.5904672E-001	1.5972082E-001	4.8603976E-001	1.9184841E+001	3.7322144E+003	1.0726595E+004	1.1357344E+004	-7.0815155E+001	0.0000000E+000	0.0000000E+000	0.0000000E+000	7.0815155E+001	0.0000000E+000	0.0000000E+000	0.0000000E+000	-7.0815155E+001	0.0000000E+000	0.0000000E+000	0.0000000E+000	-1.9184841E+001	0.0000000E+000	0.0000000E+000	0.0000000E+000	1.9184841E+001	2.8740568E+000	7.0815155E+001	-1.381463002971011E-005	-4.0311068E-005	1.9569309E+003
4.6414854E+003	2.0891545E+000	7.8439301E-001	2.2315552E+000	-2.0579126E+001	5.962706203237758E+000	2.8111556E-001	2.0061973E-002	4.3714893E+001	5.4010921E+000	1.000000000000000E+000	9	4.5226654E-003	2.0266876E-003	0	-2.792337930741228E-005	4.1952252E-001	1.5751374E-001	4.4811797E-001	2.0579126E+001	5.4010918E+003	1.4385283E+004	1.5365812E+004	-6.9420876E+001	0.0000000E+000	0.0000000E+000	0.0000000E+000	6.9420876E+001	0.0000000E+000	0.0000000E+000	0.0000000E+000	-6.9420876E+001	0.0000000E+000	0.0000000E+000	0.0000000E+000	-2.0579126E+001	0.0000000E+000	0.0000000E+000	0.0000000E+000	2.0579126E+001	2.6634028E+000	6.9420876E+001	7.967617529793665E-007	5.6397330E-006	1.4012358E+004
3.1610117E+003	2.2573791E+000	9.1709787E-001	2.4365609E+000	-2.2110268E+001	6.652696422672307E+000	2.8110591E-001	1.9744949E-002	5.4900753E+001	7.7777715E+000	1.000000000000000E+000	9	4.9608019E-003	2.0359852E-003	0	-2.284159919338223E-005	3.8023314E-001	1.5447605E-001	4.1041455E-001	2.2110268E+001	7.7777715E+003	1.9144500E+004	2.0664113E+004	-6.7889732E+001	0.0000000E+000	0.0000000E+000	0.0000000E+000	6.7889732E+001	0.0000000E+000	0.0000000E+000	0.0000000E+000	-6.7889732E+001	0.0000000E+000	0.0000000E+000	0.0000000E+000	-2.2110268E+001	0.0000000E+000	0.0000000E+000	0.0000000E+000	2.2110268E+001	2.4614375E+000	6.7889732E+001	5.081780114030050E-006	5.5504220E-006	1.4236852E+004
2.1556899E+003	2.4403231E+000	1.0636736E+000	2.6620629E+000	-2.3551138E+001	7.119693298191123E+000	2.8110683E-001	2.5843048E-002	6.9410545E+001	1.1081679E+001	1.000000000000000E+000	9	4.9223732E-003	1.8490822E-003	0	-2.029036058335462E-005	3.4435844E-001	1.5009691E-001	3.7564853E-001	2.3551138E+001	1.1081681E+004	2.5424041E+004	2.7734193E+004	-6.6448860E+001	0.0000000E+000	0.0000000E+000	0.0000000E+000	6.6448860E+001	0.0000000E+000	0.0000000E+000	0.0000000E+000	-6.6448860E+001	0.0000000E+000	0.0000000E+000	0.0000000E+000	-2.3551138E+001	0.0000000E+000	0.0000000E+000	0.0000000E+000	2.3551138E+001	2.2942405E+000	6.6448860E+001	2.551238610027617E-006	7.2646576E-006	1.0877464E+004
1.4685898E+003	2.6645114E+000	1.2625856E+000	2.9485154E+000	-2.5354055E+001	7.586945053684758E+000	2.8112239E-001	2.1255476E-002	8.5833885E+001	1.5738874E+001	1.000000000000000E+000	9	4.9034995E-003	1.6630401E-003	0	-1.952741246848180E-005	3.0648610E-001	1.4522924E-001	3.3915374E-001	2.5354055E+001	1.5738874E+004	3.3214703E+004	3.6754980E+004	-6.4645943E+001	0.0000000E+000	0.0000000E+000	0.0000000E+000	6.4645943E+001	0.0000000E+000	0.0000000E+000	0.0000000E+000	-6.4645943E+001	0.0000000E+000	0.0000000E+000	0.0000000E+000	-2.5354055E+001	0.0000000E+000	0.0000000E+000	0.0000000E+000	2.5354055E+001	2.1103609E+000	6.4645943E+001	7.629481148728198E-007	5.9753902E-006	1.3225880E+004
1.0003202E+003	2.9274690E+000	1.5248069E+000	3.3007743E+000	-2.7513287E+001	8.309676581375243E+000	2.8110057E-001	-1.5905846E-002	1.0434370E+002	2.2267130E+001	1.000000000000000E+000	10	5.0062458E-003	1.5166883E-003	0	-1.770019935768667E-005	2.6869565E-001	1.3995330E-001	3.0295920E-001	2.7513287E+001	2.2267131E+004	4.2750555E+004	4.8202023E+004	-6.2486713E+001	0.0000000E+000	0.0000000E+000	0.0000000E+000	6.2486713E+001	0.0000000E+000	0.0000000E+000	0.0000000E+000	-6.2486713E+001	0.0000000E+000	0.0000000E+000	0.0000000E+000	-2.7513287E+001	0.0000000E+000	0.0000000E+000	0.0000000E+000	2.7513287E+001	1.9198949E+000	6.2486710E+001	1.827213110795129E-006	-4.4711423E-006	1.7672783E+004
6.8108978E+002	3.2393401E+000	1.8514494E+000	3.7311108E+000	-2.9750187E+001	8.775413270137506E+000	2.8107625E-001	-1.5236265E-002	1.2621295E+002	3.1077877E+001	1.000000000000000E+000	10	4.9666893E-003	1.3311557E-003	0	-1.901935755345039E-005	2.3269135E-001	1.3299507E-001	2.6801670E-001	2.9750187E+001	3.1077875E+004	5.4374594E+004	6.2629313E+004	-6.0249813E+001	0.0000000E+000	0.0000000E+000	0.0000000E+000	6.0249813E+001	0.0000000E+000	0.0000000E+000	0.0000000E+000	-6.0249813E+001	0.0000000E+000	0.0000000E+000	0.0000000E+000	-2.9750187E+001	0.0000000E+000	0.0000000E+000	0.0000000E+000	2.9750187E+001	1.7496239E+000	6.0249817E+001	-1.319158195763725E-006	-4.2825523E-006	1.8447846E+004
4.6396069E+002	3.6144087E+000	2.2575502E+000	4.2615118E+000	-3.1988791E+001	9.244185479037697E+000	2.8110057E-001	-1.5549604E-002	1.5195027E+002	4.2643120E+001	1.000000000000000E+000	10	4.9305400E-003	1.1569932E-003	0	-2.082039118095741E-005	1.9902603E-001	1.2431113E-001	2.3465851E-001	3.1988791E+001	4.2643117E+004	6.8272969E+004	8.0496172E+004	-5.8011208E+001	0.0000000E+000	0.0000000E+000	0.0000000E+000	5.8011208E+001	0.0000000E+000	0.0000000E+000	0.0000000E+000	-5.8011208E+001	0.0000000E+000	0.0000000E+000	0.0000000E+000	-3.1988791E+001	0.0000000E+000	0.0000000E+000	0.0000000E+000	3.1988791E+001	1.6010313E+000	5.8011208E+001	-1.801033627507017E-006	-4.3710024E-006	1.8077668E+004
3.1631589E+002	4.0985403E+000	2.7407868E+000	4.9305115E+000	-3.3771545E+001	9.710939047916327E+000	2.8106245E-001	-1.6178140E-002	1.8357938E+002	5.6727081E+001	1.000000000000000E+000	10	4.9170842E-003	9.9727674E-004	0	-2.213487798223893E-005	1.6859522E-001	1.1274345E-001	2.0281872E-001	3.3771545E+001	5.6727082E+004	8.4829008E+004	1.0204863E+005	-5.6228455E+001	0.0000000E+000	0.0000000E+000	0.0000000E+000	5.6228455E+001	0.0000000E+000	0.0000000E+000	0.0000000E+000	-5.6228455E+001	0.0000000E+000	0.0000000E+000	0.0000000E+000	-3.3771545E+001	0.0000000E+000	0.0000000E+000	0.0000000E+000	3.3771545E+001	1.4953883E+000	5.6228455E+001	-1.314486801281520E-006	-4.5470679E-006	1.7372977E+004
2.1534457E+002	4.6776767E+000	3.3689153E+000	5.7645683E+000	-3.5761860E+001	1.017841235009837E+001	2.8106707E-001	-1.5972989E-002	2.1937953E+002	7.4927757E+001	1.000000000000000E+000	10	4.8787561E-003	8.4633502E-004	0	-2.330135196728224E-005	1.4076562E-001	1.0138099E-001	1.7347352E-001	3.5761860E+001	7.4927750E+004	1.0403579E+005	1.2820926E+005	-5.4238140E+001	0.0000000E+000	0.0000000E+000	0.0000000E+000	5.4238140E+001	0.0000000E+000	0.0000000E+000	0.0000000E+000	-5.4238140E+001	0.0000000E+000	0.0000000E+000	0.0000000E+000	-3.5761860E+001	0.0000000E+000	0.0000000E+000	0.0000000E+000	3.5761860E+001	1.3884815E+000	5.4238144E+001	-1.166473985043314E-006	-4.4894814E-006	1.7596398E+004
1.4673740E+002	5.4677286E+000	4.1382275E+000	6.8571849E+000	-3.7120106E+001	1.064138815875049E+001	2.8106269E-001	-1.6566098E-002	2.6209875E+002	9.5455719E+001	1.000000000000000E+000	10	4.8821075E-003	7.1196962E-004	0	-2.564208167249388E-005	1.1628273E-001	8.8008098E-002	1.4583243E-001	3.7120106E+001	9.5455727E+004	1.2612308E+005	1.5817341E+005	-5.2879894E+001	0.0000000E+000	0.0000000E+000	0.0000000E+000	5.2879894E+001	0.0000000E+000	0.0000000E+000	0.0000000E+000	-5.2879894E+001	0.0000000E+000	0.0000000E+000	0.0000000E+000	-3.7120106E+001	0.0000000E+000	0.0000000E+000	0.0000000E+000	3.7120106E+001	1.3212731E+000	5.2879898E+001	-2.340729705211641E-006	-4.6561122E-006	1.6966137E+004
1.0003201E+002	6.5186958E+000	5.0119510E+000	8.2227154E+000	-3.7555168E+001	1.110869559432467E+001	2.8105727E-001	-1.5855502E-002	3.1744928E+002	1.1793900E+002	1.000000000000000E+000	10	4.8816884E-003	5.9368322E-004	0	-2.797857833660479E-005	9.6411802E-002	7.4126981E-002	1.2161433E-001	3.7555168E+001	1.1793900E+005	1.5339505E+005	1.9349328E+005	-5.2444832E+001	0.0000000E+000	0.0000000E+000	0.0000000E+000	5.2444832E+001	0.0000000E+000	0.0000000E+000	0.0000000E+000	-5.2444832E+001	0.0000000E+000	0.0000000E+000	0.0000000E+000	-3.7555168E+001	0.0000000E+000	0.0000000E+000	0.0000000E+000	3.7555168E+001	1.3006305E+000	5.2444832E+001	-2.336496664110910E-006	-4.4563044E-006	1.7726166E+004
6.8103981E+001	7.8992510E+000	5.8841681E+000	9.8499546E+000	-3.6682499E+001	1.158733017698978E+001	2.8108960E-001	-1.3014973E-002	3.9715729E+002	1.4173080E+002	1.000000000000000E+000	10	4.8724813E-003	4.9467041E-004	0	-2.988966498526214E-005	8.1417449E-002	6.0648017E-002	1.0152331E-001	3.6682499E+001	1.4173080E+005	1.9026772E+005	2.3725392E+005	-5.3317501E+001	0.0000000E+000	0.0000000E+000	0.0000000E+000	5.3317501E+001	0.0000000E+000	0.0000000E+000	0.0000000E+000	-5.3317501E+001	0.0000000E+000	0.0000000E+000	0.0000000E+000	-3.6682499E+001	0.0000000E+000	0.0000000E+000	0.0000000E+000	3.6682499E+001	1.3424584E+000	5.3317505E+001	-1.911086648657348E-006	-3.6583735E-006	2.1597402E+004
4.6441547E+001	9.6403828E+000	6.6926308E+000	1.1735769E+001	-3.4769493E+001	1.204256123860250E+001	2.8104573E-001	-1.7940676E-002	5.1205499E+002	1.6652797E+002	1.000000000000000E+000	10	4.8795403E-003	4.1578361E-004	0	-3.224499035323000E-005	6.9995664E-002	4.8593003E-002	8.5209586E-002	3.4769493E+001	1.6652798E+005	2.3987480E+005	2.9201281E+005	-5.5230507E+001	0.0000000E+000	0.0000000E+000	0.0000000E+000	5.5230507E+001	0.0000000E+000	0.0000000E+000	0.0000000E+000	-5.5230507E+001	0.0000000E+000	0.0000000E+000	0.0000000E+000	-3.4769493E+001	0.0000000E+000	0.0000000E+000	0.0000000E+000	3.4769493E+001	1.4404474E+000	5.5230507E+001	-2.355325367967856E-006	-5.0421504E-006	1.5665281E+004
3.1629555E+001	1.1654979E+001	7.2479362E+000	1.3724835E+001	-3.1876434E+001	1.248946029986837E+001	2.8103229E-001	-2.0686086E-002	6.9424487E+002	1.9360970E+002	1.000000000000000E+000	10	4.8772800E-003	3.5536164E-004	0	-3.440690436769404E-005	6.1872434E-002	3.8476899E-002	7.2860621E-002	3.1876434E+001	1.9360972E+005	3.1133238E+005	3.6662319E+005	-5.8123566E+001	0.0000000E+000	0.0000000E+000	0.0000000E+000	5.8123566E+001	0.0000000E+000	0.0000000E+000	0.0000000E+000	-5.8123566E+001	0.0000000E+000	0.0000000E+000	0.0000000E+000	-3.1876434E+001	0.0000000E+000	0.0000000E+000	0.0000000E+000	3.1876434E+001	1.6080410E+000	5.8123566E+001	-2.161914014464045E-006	-5.8134583E-006	1.3585571E+004
2.1551722E+001	1.3881314E+001	7.4993567E+000	1.5777555E+001	-2.8380060E+001	1.316932801212533E+001	2.8107122E-001	-4.8082634E-003	9.8472308E+002	2.2247580E+002	1.000000000000000E+000	11	4.8635807E-003	3.0825948E-004	0	-3.599732818447231E-005	5.5763651E-002	3.0126220E-002	6.3381180E-002	2.8380060E+001	2.2247581E+005	4.1180291E+005	4.6805675E+005	-6.1619942E+001	0.0000000E+000	0.0000000E+000	0.0000000E+000	6.1619942E+001	0.0000000E+000	0.0000000E+000	0.0000000E+000	-6.1619942E+001	0.0000000E+000	0.0000000E+000	0.0000000E+000	-2.8380060E+001	0.0000000E+000	0.0000000E+000	0.0000000E+000	2.8380060E+001	1.8510007E+000	6.1619942E+001	-1.590423816778266E-006	-1.3514644E-006	5.8455871E+004
1.4685154E+001	1.5912477E+001	7.3474841E+000	1.7526907E+001	-2.4784826E+001	1.364705859485548E+001	2.8108814E-001	-3.6860460E-003	1.4750371E+003	2.5922070E+002	1.000000000000000E+000	11	4.8258584E-003	2.7533999E-004	0	-3.678260745946965E-005	5.1799703E-002	2.3918178E-002	5.7055134E-002	2.4784826E+001	2.5922075E+005	5.6139550E+005	6.1835288E+005	-6.5215172E+001	0.0000000E+000	0.0000000E+000	0.0000000E+000	6.5215172E+001	0.0000000E+000	0.0000000E+000	0.0000000E+000	-6.5215172E+001	0.0000000E+000	0.0000000E+000	0.0000000E+000	-2.4784826E+001	0.0000000E+000	0.0000000E+000	0.0000000E+000	2.4784826E+001	2.1657043E+000	6.5215172E+001	-7.852792749973405E-007	-1.0361039E-006	7.6257359E+004
