EC-Lab ASCII FILE
Nb header lines : 63                          

Potentio Electrochemical Impedance Spectroscopy

Run on channel : 7 (SN 66126)
User : 
CE vs. WE compliance from -10 V to 10 V
Electrode connection : standard
Potential control : Ewe
Ewe ctrl range : min = -10.00 V, max = 10.00 V
Safety Limits :
	Do not start on E overload
Acquisition started on : 09/22/2025 10:03:44.761
Loaded Setting File :  C:\Users\Celltest\OneDrive - store-dot.com\Documents\EC-Lab\Data\Charmaine\17689_R288_UA670_SOC00_C04.mpr
Saved on :
	File : 17708_R287_UA662_SOC00_C07.mpr
	Directory : C:\Users\Celltest\OneDrive - store-dot.com\Documents\EC-Lab\Data\Charmaine\
	Host : 169.254.61.224
Device : VMP-3e (SN .003165)
Address : USB
EC-LAB for windows v11.62 (software)
Internet server v27.00 (firmware)
Command interpretor v12.03 (firmware)
Electrode material : 
Initial state : 
Electrolyte : 
Comments : 
Electrode surface area : 0.001 cm²
Characteristic mass : 0.001 g
Equivalent Weight : 0.000 g/eq.
Density : 0.000 g/cm3
Volume (V) : 0.001 cm³
Cycle Definition : Charge/Discharge alternance
Mode                Single sine         
E (V)               0.0000              
vs.                 Eoc                 
tE (h:m:s)          0:00:0.0000         
record              0                   
dI                  0.000               
unit dI             mA                  
dt (s)              0.000               
fi                  100.000             
unit fi             kHz                 
ff                  10.000              
unit ff             mHz                 
Nd                  6                   
Points              per decade          
spacing             Logarithmic         
Va (mV)             5.0                 
pw                  0.10                
Na                  2                   
corr                0                   
E range min (V)     -10.000             
E range max (V)     10.000              
I Range             Auto                
Bandwidth           5                   
nc cycles           0                   
goto Ns'            0                   
nr cycles           0                   
inc. cycle          0                   

freq/Hz	Re(Z)/Ohm	-Im(Z)/Ohm	|Z|/Ohm	Phase(Z)/deg	time/s	<Ewe>/V	<I>/mA	Cs/µF	Cp/µF	cycle number	I Range	|Ewe|/V	|I|/A	Ns	(Q-Qo)/mA.h	Re(Y)/Ohm-1	Im(Y)/Ohm-1	|Y|/Ohm-1	Phase(Y)/deg	Re(C)/nF	Im(C)/nF	|C|/nF	Phase(C)/deg	Re(M)	Im(M)	|M|	Phase(M)/deg	Re(Permittivity)	Im(Permittivity)	|Permittivity|	Phase(Permittivity)/deg	Re(Resistivity)/Ohm.cm	Im(Resistivity)/Ohm.cm	|Resistivity|/Ohm.cm	Phase(Resistivity)/deg	Re(Conductivity)/mS/cm	Im(Conductivity)/mS/cm	|Conductivity|/mS/cm	Phase(Conductivity)/deg	Tan(Delta)	Loss Angle(Delta)/deg	dq/mA.h	Pwe/W	Rwe/Ohm	
1.0000371E+005	1.1362652E+000	2.1758032E-001	1.1569096E+000	-1.0840190E+001	2.227498159132665E+000	2.7735138E-001	7.2338454E-002	7.3144956E+000	2.5871688E-001	1.000000000000000E+000	9	4.8865485E-003	4.2237947E-003	0	5.846250095766866E-006	8.4894758E-001	1.6256265E-001	8.6437178E-001	1.0840190E+001	2.5871683E+002	1.3510919E+003	1.3756394E+003	-7.9159813E+001	0.0000000E+000	0.0000000E+000	0.0000000E+000	7.9159813E+001	0.0000000E+000	0.0000000E+000	0.0000000E+000	-7.9159813E+001	0.0000000E+000	0.0000000E+000	0.0000000E+000	-1.0840190E+001	0.0000000E+000	0.0000000E+000	0.0000000E+000	1.0840190E+001	5.2222791E+000	7.9159813E+001	5.846250095766866E-006	2.0063169E-005	3.8340793E+003
6.8132047E+004	1.1859412E+000	2.5335845E-001	1.2127024E+000	-1.2059101E+001	2.664489166549174E+000	2.7735946E-001	7.2375692E-002	9.2200499E+000	4.0243489E-001	1.000000000000000E+000	9	5.3859027E-003	4.4412403E-003	0	6.406286029429692E-006	8.0640775E-001	1.7227685E-001	8.2460463E-001	1.2059101E+001	4.0243472E+002	1.8837505E+003	1.9262579E+003	-7.7940903E+001	0.0000000E+000	0.0000000E+000	0.0000000E+000	7.7940903E+001	0.0000000E+000	0.0000000E+000	0.0000000E+000	-7.7940903E+001	0.0000000E+000	0.0000000E+000	0.0000000E+000	-1.2059101E+001	0.0000000E+000	0.0000000E+000	0.0000000E+000	1.2059101E+001	4.6808829E+000	7.7940903E+001	5.600359336628265E-007	2.0074083E-005	3.8322183E+003
4.6420355E+004	1.2450309E+000	2.8893682E-001	1.2781183E+000	-1.3065467E+001	3.101498307281872E+000	2.7737814E-001	7.0960715E-002	1.1866122E+001	6.0641861E-001	1.000000000000000E+000	9	5.3636492E-003	4.1965204E-003	0	1.939529538190820E-005	7.6214570E-001	1.7687270E-001	7.8240019E-001	1.3065467E+001	6.0641864E+002	2.6130620E+003	2.6825056E+003	-7.6934532E+001	0.0000000E+000	0.0000000E+000	0.0000000E+000	7.6934532E+001	0.0000000E+000	0.0000000E+000	0.0000000E+000	-7.6934532E+001	0.0000000E+000	0.0000000E+000	0.0000000E+000	-1.3065467E+001	0.0000000E+000	0.0000000E+000	0.0000000E+000	1.3065467E+001	4.3090072E+000	7.6934532E+001	1.298900935247851E-005	1.9682951E-005	3.9088972E+003
3.1621139E+004	1.3114806E+000	3.2688531E-001	1.3516048E+000	-1.3995741E+001	3.539492434734711E+000	2.7738097E-001	6.4909823E-002	1.5397394E+001	9.0061378E-001	1.000000000000000E+000	9	5.3555504E-003	3.9623640E-003	0	3.126142669929605E-005	7.1789753E-001	1.7893527E-001	7.3986125E-001	1.3995741E+001	9.0061383E+002	3.6133083E+003	3.7238560E+003	-7.6004257E+001	0.0000000E+000	0.0000000E+000	0.0000000E+000	7.6004257E+001	0.0000000E+000	0.0000000E+000	0.0000000E+000	-7.6004257E+001	0.0000000E+000	0.0000000E+000	0.0000000E+000	-1.3995741E+001	0.0000000E+000	0.0000000E+000	0.0000000E+000	1.3995741E+001	4.0120511E+000	7.6004257E+001	1.186613131738785E-005	1.8004750E-005	4.2733281E+003
2.1544684E+004	1.3853233E+000	3.7159759E-001	1.4342961E+000	-1.5015486E+001	3.977482455578865E+000	2.7738279E-001	6.0329773E-002	1.9879578E+001	1.3343669E+000	1.000000000000000E+000	9	5.3586219E-003	3.7360638E-003	0	3.589427873910042E-005	6.7340058E-001	1.8063222E-001	6.9720608E-001	1.5015486E+001	1.3343669E+003	4.9745459E+003	5.1504023E+003	-7.4984512E+001	0.0000000E+000	0.0000000E+000	0.0000000E+000	7.4984512E+001	0.0000000E+000	0.0000000E+000	0.0000000E+000	-7.4984512E+001	0.0000000E+000	0.0000000E+000	0.0000000E+000	-1.5015486E+001	0.0000000E+000	0.0000000E+000	0.0000000E+000	1.5015486E+001	3.7280202E+000	7.4984512E+001	4.632852039804372E-006	1.6734441E-005	4.5977764E+003
1.4678594E+004	1.4689085E+000	4.2357948E-001	1.5287615E+000	-1.6085627E+001	4.415500316390535E+000	2.7739251E-001	6.5598674E-002	2.5597689E+001	1.9651291E+000	1.000000000000000E+000	9	5.4099089E-003	3.5387527E-003	0	4.078977901113426E-005	6.2851447E-001	1.8124057E-001	6.5412426E-001	1.6085627E+001	1.9651292E+003	6.8147666E+003	7.0924448E+003	-7.3914375E+001	0.0000000E+000	0.0000000E+000	0.0000000E+000	7.3914375E+001	0.0000000E+000	0.0000000E+000	0.0000000E+000	-7.3914375E+001	0.0000000E+000	0.0000000E+000	0.0000000E+000	-1.6085627E+001	0.0000000E+000	0.0000000E+000	0.0000000E+000	1.6085627E+001	3.4678464E+000	7.3914375E+001	4.895500272033841E-006	1.8196581E-005	4.2286299E+003
1.0002226E+004	1.5625135E+000	4.8252144E-001	1.6353211E+000	-1.7161266E+001	4.852498843771173E+000	2.7739525E-001	6.7367390E-002	3.2976677E+001	2.8710053E+000	1.000000000000000E+000	9	5.3585088E-003	3.2767318E-003	0	5.039899355889631E-005	5.8427548E-001	1.8043073E-001	6.1150068E-001	1.7161266E+001	2.8710059E+003	9.2969639E+003	9.7301699E+003	-7.2838730E+001	0.0000000E+000	0.0000000E+000	0.0000000E+000	7.2838730E+001	0.0000000E+000	0.0000000E+000	0.0000000E+000	-7.2838730E+001	0.0000000E+000	0.0000000E+000	0.0000000E+000	-1.7161266E+001	0.0000000E+000	0.0000000E+000	0.0000000E+000	1.7161266E+001	3.2382259E+000	7.2838730E+001	9.609214547762046E-006	1.8687393E-005	4.1176489E+003
6.8110674E+003	1.6648909E+000	5.5574304E-001	1.7551957E+000	-1.8459087E+001	5.407517776795430E+000	2.7739495E-001	5.7499830E-002	4.2046604E+001	4.2152939E+000	1.000000000000000E+000	9	5.3565493E-003	3.0518244E-003	0	5.435995152571963E-005	5.4042405E-001	1.8039437E-001	5.6973702E-001	1.8459087E+001	4.2152954E+003	1.2628146E+004	1.3313106E+004	-7.1540909E+001	0.0000000E+000	0.0000000E+000	0.0000000E+000	7.1540909E+001	0.0000000E+000	0.0000000E+000	0.0000000E+000	-7.1540909E+001	0.0000000E+000	0.0000000E+000	0.0000000E+000	-1.8459087E+001	0.0000000E+000	0.0000000E+000	0.0000000E+000	1.8459087E+001	2.9957926E+000	7.1540909E+001	3.960957966823322E-006	1.5950163E-005	4.8242744E+003
4.6414854E+003	1.7758650E+000	6.5282059E-001	1.8920547E+000	-2.0183788E+001	6.101670343166916E+000	2.7739835E-001	6.1446849E-002	5.2525391E+001	6.2530174E+000	1.000000000000000E+000	9	5.2765282E-003	2.7887821E-003	0	6.822649853654568E-005	4.9606952E-001	1.8235870E-001	5.2852595E-001	2.0183788E+001	6.2530181E+003	1.7010053E+004	1.8122973E+004	-6.9816208E+001	0.0000000E+000	0.0000000E+000	0.0000000E+000	6.9816208E+001	0.0000000E+000	0.0000000E+000	0.0000000E+000	-6.9816208E+001	0.0000000E+000	0.0000000E+000	0.0000000E+000	-2.0183788E+001	0.0000000E+000	0.0000000E+000	0.0000000E+000	2.0183788E+001	2.7202957E+000	6.9816208E+001	1.386654701082605E-005	1.7045255E-005	4.5144438E+003
3.1610117E+003	1.8970034E+000	7.6557696E-001	2.0456612E+000	-2.1977612E+001	6.791709655946761E+000	2.7740848E-001	5.8337636E-002	6.5766563E+001	9.2111835E+000	1.000000000000000E+000	9	5.1708622E-003	2.5277217E-003	0	7.892522255911414E-005	4.5331562E-001	1.8294539E-001	4.8883951E-001	2.1977612E+001	9.2111855E+003	2.2824154E+004	2.4612760E+004	-6.8022385E+001	0.0000000E+000	0.0000000E+000	0.0000000E+000	6.8022385E+001	0.0000000E+000	0.0000000E+000	0.0000000E+000	-6.8022385E+001	0.0000000E+000	0.0000000E+000	0.0000000E+000	-2.1977612E+001	0.0000000E+000	0.0000000E+000	0.0000000E+000	2.1977612E+001	2.4778743E+000	6.8022385E+001	1.069872402256846E-005	1.6183356E-005	4.7552231E+003
2.1556899E+003	2.0295391E+000	9.3188477E-001	2.2332573E+000	-2.4662733E+001	7.481683822050400E+000	2.7740040E-001	5.6606144E-002	7.9226707E+001	1.3794899E+001	1.000000000000000E+000	9	5.0840680E-003	2.2765258E-003	0	8.646476932009036E-005	4.0693018E-001	1.8684639E-001	4.4777644E-001	2.4662733E+001	1.3794901E+004	3.0043723E+004	3.3059410E+004	-6.5337265E+001	0.0000000E+000	0.0000000E+000	0.0000000E+000	6.5337265E+001	0.0000000E+000	0.0000000E+000	0.0000000E+000	-6.5337265E+001	0.0000000E+000	0.0000000E+000	0.0000000E+000	-2.4662733E+001	0.0000000E+000	0.0000000E+000	0.0000000E+000	2.4662733E+001	2.1778862E+000	6.5337265E+001	7.539546760976213E-006	1.5702568E-005	4.9005352E+003
1.4685898E+003	2.2030969E+000	1.1462234E+000	2.4834380E+000	-2.7486980E+001	7.948926350887632E+000	2.7740559E-001	5.8896154E-002	9.4547569E+001	2.0141056E+001	1.000000000000000E+000	9	5.2321893E-003	2.1068330E-003	0	9.350250928256557E-005	3.5721275E-001	1.8585002E-001	4.0266758E-001	2.7486980E+001	2.0141057E+004	3.8712086E+004	4.3638145E+004	-6.2513020E+001	0.0000000E+000	0.0000000E+000	0.0000000E+000	6.2513020E+001	0.0000000E+000	0.0000000E+000	0.0000000E+000	-6.2513020E+001	0.0000000E+000	0.0000000E+000	0.0000000E+000	-2.7486980E+001	0.0000000E+000	0.0000000E+000	0.0000000E+000	2.7486980E+001	1.9220483E+000	6.2513016E+001	7.037739962475212E-006	1.6338123E-005	4.7100801E+003
1.0003202E+003	2.3930089E+000	1.4217505E+000	2.7834990E+000	-3.0715679E+001	8.417692373172031E+000	2.7739692E-001	5.4148544E-002	1.1190711E+002	2.9195932E+001	1.000000000000000E+000	9	5.1465537E-003	1.8489511E-003	0	1.012533484876686E-004	3.0886036E-001	1.8350220E-001	3.5926005E-001	3.0715679E+001	2.9195934E+004	4.9140918E+004	5.7159711E+004	-5.9284321E+001	0.0000000E+000	0.0000000E+000	0.0000000E+000	5.9284321E+001	0.0000000E+000	0.0000000E+000	0.0000000E+000	-5.9284321E+001	0.0000000E+000	0.0000000E+000	0.0000000E+000	-3.0715679E+001	0.0000000E+000	0.0000000E+000	0.0000000E+000	3.0715679E+001	1.6831427E+000	5.9284317E+001	7.750839205103045E-006	1.5020639E-005	5.1228877E+003
6.8108978E+002	2.6610482E+000	1.8198663E+000	3.2238317E+000	-3.4367867E+001	9.137436433957191E+000	2.7739614E-001	-2.4283382E-003	1.2840334E+002	4.0917637E+001	1.000000000000000E+000	10	5.1131747E-003	1.5860552E-003	0	1.047249483795086E-004	2.5604013E-001	1.7510349E-001	3.1018990E-001	3.4367867E+001	4.0917641E+004	5.9830660E+004	7.2484211E+004	-5.5632133E+001	0.0000000E+000	0.0000000E+000	0.0000000E+000	5.5632133E+001	0.0000000E+000	0.0000000E+000	0.0000000E+000	-5.5632133E+001	0.0000000E+000	0.0000000E+000	0.0000000E+000	-3.4367867E+001	0.0000000E+000	0.0000000E+000	0.0000000E+000	3.4367867E+001	1.4622217E+000	5.5632133E+001	3.471599891840014E-006	-6.7361162E-007	1.1423291E+005
4.6396069E+002	3.0056653E+000	2.3189027E+000	3.7962263E+000	-3.7650566E+001	9.606190562917618E+000	2.7741328E-001	-1.9629935E-003	1.4793005E+002	5.5197231E+001	1.000000000000000E+000	10	4.9832147E-003	1.3126759E-003	0	1.038384766473254E-004	2.0856260E-001	1.6090825E-001	2.6341948E-001	3.7650566E+001	5.5197223E+004	7.1544352E+004	9.0362203E+004	-5.2349434E+001	0.0000000E+000	0.0000000E+000	0.0000000E+000	5.2349434E+001	0.0000000E+000	0.0000000E+000	0.0000000E+000	-5.2349434E+001	0.0000000E+000	0.0000000E+000	0.0000000E+000	-3.7650566E+001	0.0000000E+000	0.0000000E+000	0.0000000E+000	3.7650566E+001	1.2961584E+000	5.2349434E+001	-8.864717321832550E-007	-5.4456046E-007	1.4132155E+005
3.1631589E+002	3.4747949E+000	2.9406970E+000	4.5521312E+000	-4.0241028E+001	1.007294346511480E+001	2.7739781E-001	-2.3315535E-003	1.7109955E+002	7.1403557E+001	1.000000000000000E+000	10	4.8777401E-003	1.0715289E-003	0	1.033328367910168E-004	1.6768709E-001	1.4191253E-001	2.1967733E-001	4.0241028E+001	7.1403563E+004	8.4372078E+004	1.1053106E+005	-4.9758972E+001	0.0000000E+000	0.0000000E+000	0.0000000E+000	4.9758972E+001	0.0000000E+000	0.0000000E+000	0.0000000E+000	-4.9758972E+001	0.0000000E+000	0.0000000E+000	0.0000000E+000	-4.0241028E+001	0.0000000E+000	0.0000000E+000	0.0000000E+000	4.0241028E+001	1.1816229E+000	4.9758972E+001	-5.056398563085314E-007	-6.4676783E-007	1.1897553E+005
2.1534457E+002	4.1201787E+000	3.7114220E+000	5.5453157E+000	-4.2012257E+001	1.054041447394411E+001	2.7739933E-001	-2.3594778E-003	1.9913422E+002	8.9201874E+001	1.000000000000000E+000	10	4.8101484E-003	8.6742552E-004	0	1.035775356613902E-004	1.3398726E-001	1.2069458E-001	1.8033238E-001	4.2012257E+001	8.9201867E+004	9.9026102E+004	1.3327844E+005	-4.7987743E+001	0.0000000E+000	0.0000000E+000	0.0000000E+000	4.7987743E+001	0.0000000E+000	0.0000000E+000	0.0000000E+000	-4.7987743E+001	0.0000000E+000	0.0000000E+000	0.0000000E+000	-4.2012257E+001	0.0000000E+000	0.0000000E+000	0.0000000E+000	4.2012257E+001	1.1101348E+000	4.7987747E+001	2.446988703733085E-007	-6.5451758E-007	1.1756810E+005
1.4673740E+002	5.0049138E+000	4.6440759E+000	6.8276353E+000	-4.2858337E+001	1.100339940263075E+001	2.7740818E-001	-2.1193679E-003	2.3355008E+002	1.0805329E+002	1.000000000000000E+000	10	4.7781193E-003	6.9982052E-004	0	1.033528064698298E-004	1.0736333E-001	9.9622779E-002	1.4646359E-001	4.2858337E+001	1.0805329E+005	1.1644888E+005	1.5885797E+005	-4.7141663E+001	0.0000000E+000	0.0000000E+000	0.0000000E+000	4.7141663E+001	0.0000000E+000	0.0000000E+000	0.0000000E+000	-4.7141663E+001	0.0000000E+000	0.0000000E+000	0.0000000E+000	-4.2858337E+001	0.0000000E+000	0.0000000E+000	0.0000000E+000	4.2858337E+001	1.0776986E+000	4.7141663E+001	-2.247291915603676E-007	-5.8793000E-007	1.3089194E+005
1.0003201E+002	6.2170339E+000	5.6421928E+000	8.3955851E+000	-4.2224930E+001	1.147167761156743E+001	2.7740663E-001	-2.2850328E-003	2.8198969E+002	1.2735826E+002	1.000000000000000E+000	10	4.7515216E-003	5.6595478E-004	0	1.031130339931115E-004	8.8202573E-002	8.0047175E-002	1.1911022E-001	4.2224930E+001	1.2735825E+005	1.4033383E+005	1.8950913E+005	-4.7775070E+001	0.0000000E+000	0.0000000E+000	0.0000000E+000	4.7775070E+001	0.0000000E+000	0.0000000E+000	0.0000000E+000	-4.7775070E+001	0.0000000E+000	0.0000000E+000	0.0000000E+000	-4.2224930E+001	0.0000000E+000	0.0000000E+000	0.0000000E+000	4.2224930E+001	1.1018826E+000	4.7775070E+001	-2.397724767183292E-007	-6.3388325E-007	1.2140160E+005
6.8103981E+001	7.8381524E+000	6.6858187E+000	1.0302272E+001	-4.0463650E+001	1.195031267424929E+001	2.7740932E-001	-1.0881681E-003	3.4953690E+002	1.4720963E+002	1.000000000000000E+000	10	4.7419788E-003	4.6028479E-004	0	1.029807251146445E-004	7.3849522E-002	6.2992468E-002	9.7065970E-002	4.0463650E+001	1.4720964E+005	1.7258194E+005	2.2683739E+005	-4.9536350E+001	0.0000000E+000	0.0000000E+000	0.0000000E+000	4.9536350E+001	0.0000000E+000	0.0000000E+000	0.0000000E+000	-4.9536350E+001	0.0000000E+000	0.0000000E+000	0.0000000E+000	-4.0463650E+001	0.0000000E+000	0.0000000E+000	0.0000000E+000	4.0463650E+001	1.1723549E+000	4.9536346E+001	-1.323088784669708E-007	-3.0186797E-007	2.5493241E+005
4.6441547E+001	9.8885202E+000	7.5479107E+000	1.2440007E+001	-3.7354507E+001	1.240555832252721E+001	2.7739677E-001	-3.1077689E-003	4.5403226E+002	1.6714714E+002	1.000000000000000E+000	10	4.7332346E-003	3.8048488E-004	0	1.028127760000896E-004	6.3898407E-002	4.8773676E-002	8.0385804E-002	3.7354507E+001	1.6714714E+005	2.1897952E+005	2.7548175E+005	-5.2645493E+001	0.0000000E+000	0.0000000E+000	0.0000000E+000	5.2645493E+001	0.0000000E+000	0.0000000E+000	0.0000000E+000	-5.2645493E+001	0.0000000E+000	0.0000000E+000	0.0000000E+000	-3.7354507E+001	0.0000000E+000	0.0000000E+000	0.0000000E+000	3.7354507E+001	1.3101003E+000	5.2645493E+001	-1.679491145548936E-007	-8.6208507E-007	8.9259133E+004
3.1629555E+001	1.2268284E+001	8.0770044E+000	1.4688390E+001	-3.3359493E+001	1.285244658376905E+001	2.7739951E-001	-3.9007175E-003	6.2298376E+002	1.8837749E+002	1.000000000000000E+000	10	4.7277068E-003	3.2186692E-004	0	1.023154958115144E-004	5.6863744E-002	3.7437078E-002	6.8080984E-002	3.3359493E+001	1.8837748E+005	2.8612941E+005	3.4257278E+005	-5.6640507E+001	0.0000000E+000	0.0000000E+000	0.0000000E+000	5.6640507E+001	0.0000000E+000	0.0000000E+000	0.0000000E+000	-5.6640507E+001	0.0000000E+000	0.0000000E+000	0.0000000E+000	-3.3359493E+001	0.0000000E+000	0.0000000E+000	0.0000000E+000	3.3359493E+001	1.5189151E+000	5.6640503E+001	-4.972801885752277E-007	-1.0820571E-006	7.1115000E+004
2.1551722E+001	1.4838215E+001	8.1621695E+000	1.6934982E+001	-2.8814209E+001	1.353234736275044E+001	2.7740580E-001	-5.2696737E-003	9.0475824E+002	2.1017171E+002	1.000000000000000E+000	11	4.7370414E-003	2.7971930E-004	0	1.015366675806775E-004	5.1738299E-002	2.8460082E-002	5.9049368E-002	2.8814209E+001	2.1017173E+005	3.8207647E+005	4.3606719E+005	-6.1185791E+001	0.0000000E+000	0.0000000E+000	0.0000000E+000	6.1185791E+001	0.0000000E+000	0.0000000E+000	0.0000000E+000	-6.1185791E+001	0.0000000E+000	0.0000000E+000	0.0000000E+000	-2.8814209E+001	0.0000000E+000	0.0000000E+000	0.0000000E+000	2.8814209E+001	1.8179253E+000	6.1185791E+001	-7.788282308368577E-007	-1.4618380E-006	5.2641930E+004
1.4685154E+001	1.7190453E+001	7.8299365E+000	1.8889668E+001	-2.4488398E+001	1.401003855877207E+001	2.7740654E-001	-4.4541266E-003	1.3841506E+003	2.3782156E+002	1.000000000000000E+000	11	4.7367881E-003	2.5076079E-004	0	1.012993365326579E-004	4.8176877E-002	2.1943688E-002	5.2938994E-002	2.4488398E+001	2.3782155E+005	5.2213197E+005	5.7374288E+005	-6.5511604E+001	0.0000000E+000	0.0000000E+000	0.0000000E+000	6.5511604E+001	0.0000000E+000	0.0000000E+000	0.0000000E+000	-6.5511604E+001	0.0000000E+000	0.0000000E+000	0.0000000E+000	-2.4488398E+001	0.0000000E+000	0.0000000E+000	0.0000000E+000	2.4488398E+001	2.1954780E+000	6.5511604E+001	-2.373310480195684E-007	-1.2356038E-006	6.2280793E+004
