EC-Lab ASCII FILE

Nb header lines : 63                          

Potentio Electrochemical Impedance Spectroscopy

Run on channel : 2 (SN 66139)
User : 
CE vs. WE compliance from -10 V to 10 V
Electrode connection : standard
Potential control : Ewe
Ewe ctrl range : min = -10.00 V, max = 10.00 V
Safety Limits :
	Do not start on E overload
Acquisition started on : 09/22/2025 10:02:49.569
Loaded Setting File :  C:\Users\Celltest\OneDrive - store-dot.com\Documents\EC-Lab\Data\Gyutae\17737_R277_UA674_SOC00_C01.mpr
Saved on :
	File : 17703_R287_UA661_SOC00_C02.mpr
	Directory : C:\Users\Celltest\OneDrive - store-dot.com\Documents\EC-Lab\Data\Charmaine\
	Host : 169.254.61.224
Device : VMP-3e (SN .003165)
Address : USB
EC-LAB for windows v11.62 (software)
Internet server v27.00 (firmware)
Command interpretor v12.03 (firmware)
Electrode material : 
Initial state : 
Electrolyte : 
Comments : 
Electrode surface area : 0.001 cm²
Characteristic mass : 0.001 g
Equivalent Weight : 0.000 g/eq.
Density : 0.000 g/cm3
Volume (V) : 0.001 cm³
Cycle Definition : Charge/Discharge alternance
Mode                Single sine         
E (V)               0.0000              
vs.                 Eoc                 
tE (h:m:s)          0:00:0.0000         
record              0                   
dI                  0.000               
unit dI             mA                  
dt (s)              0.000               
fi                  100.000             
unit fi             kHz                 
ff                  10.000              
unit ff             mHz                 
Nd                  6                   
Points              per decade          
spacing             Logarithmic         
Va (mV)             5.0                 
pw                  0.10                
Na                  2                   
corr                0                   
E range min (V)     -10.000             
E range max (V)     10.000              
I Range             Auto                
Bandwidth           5                   
nc cycles           0                   
goto Ns'            0                   
nr cycles           0                   
inc. cycle          0                   

freq/Hz	Re(Z)/Ohm	-Im(Z)/Ohm	|Z|/Ohm	Phase(Z)/deg	time/s	<Ewe>/V	<I>/mA	Cs/µF	Cp/µF	cycle number	I Range	|Ewe|/V	|I|/A	Ns	(Q-Qo)/mA.h	Re(Y)/Ohm-1	Im(Y)/Ohm-1	|Y|/Ohm-1	Phase(Y)/deg	Re(C)/nF	Im(C)/nF	|C|/nF	Phase(C)/deg	Re(M)	Im(M)	|M|	Phase(M)/deg	Re(Permittivity)	Im(Permittivity)	|Permittivity|	Phase(Permittivity)/deg	Re(Resistivity)/Ohm.cm	Im(Resistivity)/Ohm.cm	|Resistivity|/Ohm.cm	Phase(Resistivity)/deg	Re(Conductivity)/mS/cm	Im(Conductivity)/mS/cm	|Conductivity|/mS/cm	Phase(Conductivity)/deg	Tan(Delta)	Loss Angle(Delta)/deg	dq/mA.h	Pwe/W	Rwe/Ohm	
1.0000371E+005	1.3174144E+000	2.9780978E-001	1.3506559E+000	-1.2737973E+001	2.067477644857718E+000	2.8271610E-001	1.9146703E-002	5.3439827E+000	2.5980860E-001	1.000000000000000E+000	9	4.5563141E-003	3.3734085E-003	0	-2.190251652125476E-006	7.2215921E-001	1.6324860E-001	7.4038100E-001	1.2737973E+001	2.5980865E+002	1.1493094E+003	1.1783093E+003	-7.7262024E+001	0.0000000E+000	0.0000000E+000	0.0000000E+000	7.7262024E+001	0.0000000E+000	0.0000000E+000	0.0000000E+000	-7.7262024E+001	0.0000000E+000	0.0000000E+000	0.0000000E+000	-1.2737973E+001	0.0000000E+000	0.0000000E+000	0.0000000E+000	1.2737973E+001	4.4236774E+000	7.7262024E+001	-2.190251652125476E-006	5.4130810E-006	1.4765784E+004
6.8132047E+004	1.3879319E+000	3.3351937E-001	1.4274418E+000	-1.3511958E+001	2.645497912279097E+000	2.8271025E-001	1.4807557E-002	7.0040236E+000	3.8236040E-001	1.000000000000000E+000	9	5.0417236E-003	3.5319992E-003	0	-3.470096668978739E-007	6.8116343E-001	1.6368324E-001	7.0055395E-001	1.3511958E+001	3.8236032E+002	1.5911826E+003	1.6364784E+003	-7.6488045E+001	0.0000000E+000	0.0000000E+000	0.0000000E+000	7.6488045E+001	0.0000000E+000	0.0000000E+000	0.0000000E+000	-7.6488045E+001	0.0000000E+000	0.0000000E+000	0.0000000E+000	-1.3511958E+001	0.0000000E+000	0.0000000E+000	0.0000000E+000	1.3511958E+001	4.1614733E+000	7.6488045E+001	1.843241985227602E-006	4.1862481E-006	1.9092295E+004
4.6420355E+004	1.4661310E+000	3.7451825E-001	1.5132098E+000	-1.4329578E+001	3.224475406488637E+000	2.8271326E-001	1.9314306E-002	9.1545858E+000	5.6077206E-001	1.000000000000000E+000	9	5.0830212E-003	3.3590987E-003	0	-5.764078075583611E-006	6.4028668E-001	1.6355909E-001	6.6084689E-001	1.4329578E+001	5.6077191E+002	2.1952607E+003	2.2657527E+003	-7.5670425E+001	0.0000000E+000	0.0000000E+000	0.0000000E+000	7.5670425E+001	0.0000000E+000	0.0000000E+000	0.0000000E+000	-7.5670425E+001	0.0000000E+000	0.0000000E+000	0.0000000E+000	-1.4329578E+001	0.0000000E+000	0.0000000E+000	0.0000000E+000	1.4329578E+001	3.9147117E+000	7.5670425E+001	-5.417068408685737E-006	5.4604106E-006	1.4637506E+004
3.1621139E+004	1.5510718E+000	4.2882508E-001	1.6092590E+000	-1.5454535E+001	3.802498767239740E+000	2.8271365E-001	1.7172663E-002	1.1737145E+001	8.3343345E-001	1.000000000000000E+000	9	5.1279385E-003	3.1865216E-003	0	-8.542676311820590E-006	5.9893543E-001	1.6558778E-001	6.2140399E-001	1.5454535E+001	8.3343353E+002	3.0145508E+003	3.1276394E+003	-7.4545464E+001	0.0000000E+000	0.0000000E+000	0.0000000E+000	7.4545464E+001	0.0000000E+000	0.0000000E+000	0.0000000E+000	-7.4545464E+001	0.0000000E+000	0.0000000E+000	0.0000000E+000	-1.5454535E+001	0.0000000E+000	0.0000000E+000	0.0000000E+000	1.5454535E+001	3.6170268E+000	7.4545464E+001	-2.778598236236979E-006	4.8549459E-006	1.6463006E+004
2.1544684E+004	1.6527240E+000	4.9210376E-001	1.7244312E+000	-1.6581064E+001	4.239494388020830E+000	2.8271317E-001	1.5366237E-002	1.5011475E+001	1.2224891E+000	1.000000000000000E+000	9	5.1790024E-003	3.0033106E-003	0	-1.844385134392521E-006	5.5578732E-001	1.6548741E-001	5.7990140E-001	1.6581064E+001	1.2224888E+003	4.1057134E+003	4.2838486E+003	-7.3418938E+001	0.0000000E+000	0.0000000E+000	0.0000000E+000	7.3418938E+001	0.0000000E+000	0.0000000E+000	0.0000000E+000	-7.3418938E+001	0.0000000E+000	0.0000000E+000	0.0000000E+000	-1.6581064E+001	0.0000000E+000	0.0000000E+000	0.0000000E+000	1.6581064E+001	3.3584869E+000	7.3418938E+001	6.698291177428069E-006	4.3442374E-006	1.8398336E+004
1.4678594E+004	1.7615484E+000	5.5745894E-001	1.8476508E+000	-1.7560476E+001	4.676482728769770E+000	2.8271794E-001	1.1045707E-002	1.9450142E+001	1.7705524E+000	1.000000000000000E+000	9	4.9804337E-003	2.6955493E-003	0	3.140538390894006E-006	5.1600605E-001	1.6329509E-001	5.4122782E-001	1.7560476E+001	1.7705526E+003	5.5948765E+003	5.8683472E+003	-7.2439522E+001	0.0000000E+000	0.0000000E+000	0.0000000E+000	7.2439522E+001	0.0000000E+000	0.0000000E+000	0.0000000E+000	-7.2439522E+001	0.0000000E+000	0.0000000E+000	0.0000000E+000	-1.7560476E+001	0.0000000E+000	0.0000000E+000	0.0000000E+000	1.7560476E+001	3.1599607E+000	7.2439522E+001	4.984923525286528E-006	3.1228196E-006	2.5595277E+004
1.0002226E+004	1.8858161E+000	6.3138032E-001	1.9887040E+000	-1.8510794E+001	5.113500376202865E+000	2.8271201E-001	1.4975142E-002	2.5201851E+001	2.5402372E+000	1.000000000000000E+000	9	4.8379749E-003	2.4327275E-003	0	4.707461116602645E-006	4.7682503E-001	1.5964332E-001	5.0284004E-001	1.8510794E+001	2.5402371E+003	7.5872173E+003	8.0011670E+003	-7.1489204E+001	0.0000000E+000	0.0000000E+000	0.0000000E+000	7.1489204E+001	0.0000000E+000	0.0000000E+000	0.0000000E+000	-7.1489204E+001	0.0000000E+000	0.0000000E+000	0.0000000E+000	-1.8510794E+001	0.0000000E+000	0.0000000E+000	0.0000000E+000	1.8510794E+001	2.9868147E+000	7.1489204E+001	1.566922725708638E-006	4.2336524E-006	1.8878754E+004
6.8110674E+003	2.0374799E+000	7.3589194E-001	2.1663013E+000	-1.9858580E+001	5.491519540810259E+000	2.8248018E-001	-9.9071853E-002	3.1753448E+001	3.6642179E+000	1.000000000000000E+000	9	4.5766965E-003	2.1126778E-003	0	-4.601403376423857E-006	4.3416581E-001	1.5681092E-001	4.6161631E-001	1.9858580E+001	3.6642180E+003	1.0145199E+004	1.0786638E+004	-7.0141418E+001	0.0000000E+000	0.0000000E+000	0.0000000E+000	7.0141418E+001	0.0000000E+000	0.0000000E+000	0.0000000E+000	-7.0141418E+001	0.0000000E+000	0.0000000E+000	0.0000000E+000	-1.9858580E+001	0.0000000E+000	0.0000000E+000	0.0000000E+000	1.9858580E+001	2.7687216E+000	7.0141418E+001	-9.308864493026501E-006	-2.7985834E-005	2.8512656E+003
4.6414854E+003	2.1911769E+000	8.4761679E-001	2.3494065E+000	-2.1148052E+001	6.185668747159070E+000	2.8272849E-001	6.6858679E-002	4.0454201E+001	5.2655821E+000	1.000000000000000E+000	9	4.9513024E-003	2.1074694E-003	0	4.973437310131784E-006	3.9697316E-001	1.5356182E-001	4.2563942E-001	2.1148052E+001	5.2655830E+003	1.3612073E+004	1.4595030E+004	-6.8851944E+001	0.0000000E+000	0.0000000E+000	0.0000000E+000	6.8851944E+001	0.0000000E+000	0.0000000E+000	0.0000000E+000	-6.8851944E+001	0.0000000E+000	0.0000000E+000	0.0000000E+000	-2.1148052E+001	0.0000000E+000	0.0000000E+000	0.0000000E+000	2.1148052E+001	2.5851033E+000	6.8851944E+001	9.574840686555642E-006	1.8902854E-005	4.2287480E+003
3.1610117E+003	2.3774436E+000	9.7587329E-001	2.5699351E+000	-2.2316763E+001	6.652704796011676E+000	2.8272346E-001	6.6020630E-002	5.1594162E+001	7.4394898E+000	1.000000000000000E+000	9	4.8777615E-003	1.8980097E-003	0	1.396341280601013E-005	3.5996968E-001	1.4775737E-001	3.8911489E-001	2.2316763E+001	7.4394907E+003	1.8124246E+004	1.9591689E+004	-6.7683235E+001	0.0000000E+000	0.0000000E+000	0.0000000E+000	6.7683235E+001	0.0000000E+000	0.0000000E+000	0.0000000E+000	-6.7683235E+001	0.0000000E+000	0.0000000E+000	0.0000000E+000	-2.2316763E+001	0.0000000E+000	0.0000000E+000	0.0000000E+000	2.2316763E+001	2.4362216E+000	6.7683235E+001	8.989975495878348E-006	1.8665582E-005	4.2823501E+003
2.1556899E+003	2.5786841E+000	1.1381521E+000	2.8186879E+000	-2.3815195E+001	7.119700498187740E+000	2.8272590E-001	5.8645945E-002	6.4868446E+001	1.0576456E+001	1.000000000000000E+000	9	4.8393188E-003	1.7168693E-003	0	1.914812487557194E-005	3.2456684E-001	1.4325386E-001	3.5477501E-001	2.3815195E+001	1.0576455E+004	2.3962822E+004	2.6193096E+004	-6.6184807E+001	0.0000000E+000	0.0000000E+000	0.0000000E+000	6.6184807E+001	0.0000000E+000	0.0000000E+000	0.0000000E+000	-6.6184807E+001	0.0000000E+000	0.0000000E+000	0.0000000E+000	-2.3815195E+001	0.0000000E+000	0.0000000E+000	0.0000000E+000	2.3815195E+001	2.2656760E+000	6.6184807E+001	5.184712069561807E-006	1.6580727E-005	4.8208940E+003
1.4685898E+003	2.8087184E+000	1.3425351E+000	3.1130853E+000	-2.5547264E+001	7.586952387035126E+000	2.8273112E-001	5.9893683E-002	8.0722382E+001	1.5012854E+001	1.000000000000000E+000	9	4.8238849E-003	1.5495511E-003	0	2.660183589818836E-005	2.8981856E-001	1.3852994E-001	3.2122475E-001	2.5547264E+001	1.5012854E+004	3.1408396E+004	3.4811969E+004	-6.4452736E+001	0.0000000E+000	0.0000000E+000	0.0000000E+000	6.4452736E+001	0.0000000E+000	0.0000000E+000	0.0000000E+000	-6.4452736E+001	0.0000000E+000	0.0000000E+000	0.0000000E+000	-2.5547264E+001	0.0000000E+000	0.0000000E+000	0.0000000E+000	2.5547264E+001	2.0921006E+000	6.4452736E+001	7.453711022616416E-006	1.6933807E-005	4.7205498E+003
1.0003202E+003	3.0762656E+000	1.6011254E+000	3.4679983E+000	-2.7495939E+001	8.310709008095728E+000	2.8268325E-001	-1.3824027E-002	9.9370110E+001	2.1181108E+001	1.000000000000000E+000	10	4.9169715E-003	1.4178125E-003	0	2.726862807090705E-005	2.5577971E-001	1.3312745E-001	2.8835079E-001	2.7495939E+001	2.1181109E+004	4.0695570E+004	4.5877762E+004	-6.2504059E+001	0.0000000E+000	0.0000000E+000	0.0000000E+000	6.2504059E+001	0.0000000E+000	0.0000000E+000	0.0000000E+000	-6.2504059E+001	0.0000000E+000	0.0000000E+000	0.0000000E+000	-2.7495939E+001	0.0000000E+000	0.0000000E+000	0.0000000E+000	2.7495939E+001	1.9213146E+000	6.2504059E+001	6.667921727186915E-007	-3.9078209E-006	2.0448691E+004
6.8108978E+002	3.3944488E+000	1.9403757E+000	3.9099028E+000	-2.9753670E+001	8.776415856817039E+000	2.8267708E-001	-1.4922968E-002	1.2042869E+002	2.9659901E+001	1.000000000000000E+000	10	4.8742844E-003	1.2466511E-003	0	2.585152811012490E-005	2.2204311E-001	1.2692696E-001	2.5576082E-001	2.9753670E+001	2.9659898E+004	5.1886344E+004	5.9765395E+004	-6.0246330E+001	0.0000000E+000	0.0000000E+000	0.0000000E+000	6.0246330E+001	0.0000000E+000	0.0000000E+000	0.0000000E+000	-6.0246330E+001	0.0000000E+000	0.0000000E+000	0.0000000E+000	-2.9753670E+001	0.0000000E+000	0.0000000E+000	0.0000000E+000	2.9753670E+001	1.7493771E+000	6.0246330E+001	-1.417099960782151E-006	-4.2183810E-006	1.8942416E+004
4.6396069E+002	3.7908311E+000	2.3758006E+000	4.4737935E+000	-3.2076313E+001	9.245221132441657E+000	2.8267780E-001	-1.3622870E-002	1.4438728E+002	4.0718994E+001	1.000000000000000E+000	10	4.8528239E-003	1.0847223E-003	0	2.379010026208966E-005	1.8940112E-001	1.1870202E-001	2.2352394E-001	3.2076313E+001	4.0718996E+004	6.4971297E+004	7.6676633E+004	-5.7923687E+001	0.0000000E+000	0.0000000E+000	0.0000000E+000	5.7923687E+001	0.0000000E+000	0.0000000E+000	0.0000000E+000	-5.7923687E+001	0.0000000E+000	0.0000000E+000	0.0000000E+000	-3.2076313E+001	0.0000000E+000	0.0000000E+000	0.0000000E+000	3.2076313E+001	1.5956016E+000	5.7923691E+001	-2.061427848035239E-006	-3.8508829E-006	2.0750238E+004
3.1631589E+002	4.2617726E+000	2.9058943E+000	5.1581903E+000	-3.4288166E+001	9.711918621294899E+000	2.8267837E-001	-1.4351154E-002	1.7314874E+002	5.4952091E+001	1.000000000000000E+000	10	4.8111137E-003	9.3271350E-004	0	2.148419968027479E-005	1.6017531E-001	1.0921571E-001	1.9386645E-001	3.4288166E+001	5.4952094E+004	8.0592508E+004	9.7544273E+004	-5.5711834E+001	0.0000000E+000	0.0000000E+000	0.0000000E+000	5.5711834E+001	0.0000000E+000	0.0000000E+000	0.0000000E+000	-5.5711834E+001	0.0000000E+000	0.0000000E+000	0.0000000E+000	-3.4288166E+001	0.0000000E+000	0.0000000E+000	0.0000000E+000	3.4288166E+001	1.4665959E+000	5.5711838E+001	-2.305900581814864E-006	-4.0567606E-006	1.9697258E+004
2.1534457E+002	4.8958402E+000	3.5880783E+000	6.0698895E+000	-3.6237057E+001	1.017941352349590E+001	2.8267583E-001	-1.4634279E-002	2.0597964E+002	7.1975807E+001	1.000000000000000E+000	10	4.8078625E-003	7.9208403E-004	0	1.962139934862757E-005	1.3288185E-001	9.7386852E-002	1.6474764E-001	3.6237057E+001	7.1975805E+004	9.8209133E+004	1.2176022E+005	-5.3762943E+001	0.0000000E+000	0.0000000E+000	0.0000000E+000	5.3762943E+001	0.0000000E+000	0.0000000E+000	0.0000000E+000	-5.3762943E+001	0.0000000E+000	0.0000000E+000	0.0000000E+000	-3.6237057E+001	0.0000000E+000	0.0000000E+000	0.0000000E+000	3.6237057E+001	1.3644742E+000	5.3762939E+001	-1.862800331647224E-006	-4.1367571E-006	1.9316008E+004
1.4673740E+002	5.7261610E+000	4.4326344E+000	7.2413511E+000	-3.7743538E+001	1.064236530548078E+001	2.8267032E-001	-1.6005162E-002	2.4469067E+002	9.1685783E+001	1.000000000000000E+000	10	4.8173657E-003	6.6525786E-004	0	1.797844643871617E-005	1.0920043E-001	8.4532306E-002	1.3809578E-001	3.7743538E+001	9.1685789E+004	1.1844143E+005	1.4978203E+005	-5.2256462E+001	0.0000000E+000	0.0000000E+000	0.0000000E+000	5.2256462E+001	0.0000000E+000	0.0000000E+000	0.0000000E+000	-5.2256462E+001	0.0000000E+000	0.0000000E+000	0.0000000E+000	-3.7743538E+001	0.0000000E+000	0.0000000E+000	0.0000000E+000	3.7743538E+001	1.2918190E+000	5.2256462E+001	-1.642952909911401E-006	-4.5241841E-006	1.7661197E+004
1.0003201E+002	6.8056655E+000	5.3862677E+000	8.6792259E+000	-3.8359459E+001	1.111067103441746E+001	2.8267965E-001	-1.4719961E-002	2.9538824E+002	1.1376459E+002	1.000000000000000E+000	10	4.7951569E-003	5.5248669E-004	0	1.660770740200274E-005	9.0345934E-002	7.1503282E-002	1.1521765E-001	3.8359459E+001	1.1376458E+005	1.4374400E+005	1.8331589E+005	-5.1640541E+001	0.0000000E+000	0.0000000E+000	0.0000000E+000	5.1640541E+001	0.0000000E+000	0.0000000E+000	0.0000000E+000	-5.1640541E+001	0.0000000E+000	0.0000000E+000	0.0000000E+000	-3.8359459E+001	0.0000000E+000	0.0000000E+000	0.0000000E+000	3.8359459E+001	1.2635216E+000	5.1640533E+001	-1.370739036713430E-006	-4.1610333E-006	1.9203830E+004
6.8103981E+001	8.2647285E+000	6.4096694E+000	1.0458948E+001	-3.7795189E+001	1.158931023042533E+001	2.8268313E-001	-1.1987518E-002	3.6459607E+002	1.3693272E+002	1.000000000000000E+000	10	4.7934018E-003	4.5830628E-004	0	1.536698989149429E-005	7.5553149E-002	5.8594868E-002	9.5611908E-002	3.7795189E+001	1.3693272E+005	1.7656320E+005	2.2343933E+005	-5.2204811E+001	0.0000000E+000	0.0000000E+000	0.0000000E+000	5.2204811E+001	0.0000000E+000	0.0000000E+000	0.0000000E+000	-5.2204811E+001	0.0000000E+000	0.0000000E+000	0.0000000E+000	-3.7795189E+001	0.0000000E+000	0.0000000E+000	0.0000000E+000	3.7795189E+001	1.2894157E+000	5.2204811E+001	-1.240717510508451E-006	-3.3886690E-006	2.3581457E+004
4.6441547E+001	1.0142010E+001	7.3603458E+000	1.2531363E+001	-3.5969463E+001	1.204452491874690E+001	2.8266415E-001	-1.7901305E-002	4.6560242E+002	1.6062572E+002	1.000000000000000E+000	10	4.7937701E-003	3.8254182E-004	0	1.364960555513648E-005	6.4584367E-002	4.6870720E-002	7.9799779E-002	3.5969463E+001	1.6062572E+005	2.2133030E+005	2.7347344E+005	-5.4030537E+001	0.0000000E+000	0.0000000E+000	0.0000000E+000	5.4030537E+001	0.0000000E+000	0.0000000E+000	0.0000000E+000	-5.4030537E+001	0.0000000E+000	0.0000000E+000	0.0000000E+000	-3.5969463E+001	0.0000000E+000	0.0000000E+000	0.0000000E+000	3.5969463E+001	1.3779258E+000	5.4030533E+001	-1.717384336357806E-006	-5.0600570E-006	1.5790142E+004
3.1629555E+001	1.2372021E+001	8.0685577E+000	1.4770529E+001	-3.3110847E+001	1.249042256656685E+001	2.8266191E-001	-1.9648433E-002	6.2363593E+002	1.8609335E+002	1.000000000000000E+000	10	4.7896761E-003	3.2427249E-004	0	1.120909056763372E-005	5.6708552E-002	3.6983140E-002	6.7702383E-002	3.3110847E+001	1.8609336E+005	2.8534853E+005	3.4066775E+005	-5.6889153E+001	0.0000000E+000	0.0000000E+000	0.0000000E+000	5.6889153E+001	0.0000000E+000	0.0000000E+000	0.0000000E+000	-5.6889153E+001	0.0000000E+000	0.0000000E+000	0.0000000E+000	-3.3110847E+001	0.0000000E+000	0.0000000E+000	0.0000000E+000	3.3110847E+001	1.5333622E+000	5.6889153E+001	-2.440514987502763E-006	-5.5538635E-006	1.4385978E+004
2.1551722E+001	1.4873275E+001	8.4966221E+000	1.7129124E+001	-2.9737934E+001	1.317033302554046E+001	2.8269252E-001	-6.8363934E-003	8.6914417E+002	2.1385242E+002	1.000000000000000E+000	11	4.7985241E-003	2.8013834E-004	0	9.082486442969336E-006	5.0691634E-002	2.8958496E-002	5.8380101E-002	2.9737934E+001	2.1385242E+005	3.7434709E+005	4.3112481E+005	-6.0262066E+001	0.0000000E+000	0.0000000E+000	0.0000000E+000	6.0262066E+001	0.0000000E+000	0.0000000E+000	0.0000000E+000	-6.0262066E+001	0.0000000E+000	0.0000000E+000	0.0000000E+000	-2.9737934E+001	0.0000000E+000	0.0000000E+000	0.0000000E+000	2.9737934E+001	1.7504927E+000	6.0262070E+001	-2.126604124664382E-006	-1.9325973E-006	4.1351121E+004
1.4685154E+001	1.7315638E+001	8.5047140E+000	1.9291487E+001	-2.6158333E+001	1.364806387491990E+001	2.8270352E-001	-5.9027737E-003	1.2743300E+003	2.4766801E+002	1.000000000000000E+000	11	4.7883228E-003	2.4820911E-004	0	8.699112890060253E-006	4.6527218E-002	2.2852216E-002	5.1836338E-002	2.6158333E+001	2.4766800E+005	5.0425322E+005	5.6179244E+005	-6.3841667E+001	0.0000000E+000	0.0000000E+000	0.0000000E+000	6.3841667E+001	0.0000000E+000	0.0000000E+000	0.0000000E+000	-6.3841667E+001	0.0000000E+000	0.0000000E+000	0.0000000E+000	-2.6158333E+001	0.0000000E+000	0.0000000E+000	0.0000000E+000	2.6158333E+001	2.0360048E+000	6.3841667E+001	-3.833735529090825E-007	-1.6687349E-006	4.7893336E+004
