EC-Lab ASCII FILE

Nb header lines : 63                          

Potentio Electrochemical Impedance Spectroscopy

Run on channel : 8 (SN 65398)
User : 
CE vs. WE compliance from -10 V to 10 V
Electrode connection : standard
Potential control : Ewe
Ewe ctrl range : min = -10.00 V, max = 10.00 V
Safety Limits :
	Do not start on E overload
Acquisition started on : 09/22/2025 09:04:51.253
Loaded Setting File :  C:\Users\Celltest\OneDrive - store-dot.com\Documents\EC-Lab\Data\Charmaine\17688_R288_UA670_SOC00_C03.mpr
Saved on :
	File : 17701_R287_UA661_SOC00_C08.mpr
	Directory : C:\Users\Celltest\OneDrive - store-dot.com\Documents\EC-Lab\Data\Charmaine\
	Host : 169.254.61.224
Device : VMP-3e (SN .003165)
Address : USB
EC-LAB for windows v11.62 (software)
Internet server v27.00 (firmware)
Command interpretor v12.03 (firmware)
Electrode material : 
Initial state : 
Electrolyte : 
Comments : 
Electrode surface area : 0.001 cm²
Characteristic mass : 0.001 g
Equivalent Weight : 0.000 g/eq.
Density : 0.000 g/cm3
Volume (V) : 0.001 cm³
Cycle Definition : Charge/Discharge alternance
Mode                Single sine         
E (V)               0.0000              
vs.                 Eoc                 
tE (h:m:s)          0:00:0.0000         
record              0                   
dI                  0.000               
unit dI             mA                  
dt (s)              0.000               
fi                  100.000             
unit fi             kHz                 
ff                  10.000              
unit ff             mHz                 
Nd                  6                   
Points              per decade          
spacing             Logarithmic         
Va (mV)             5.0                 
pw                  0.10                
Na                  2                   
corr                0                   
E range min (V)     -10.000             
E range max (V)     10.000              
I Range             Auto                
Bandwidth           5                   
nc cycles           0                   
goto Ns'            0                   
nr cycles           0                   
inc. cycle          0                   

freq/Hz	Re(Z)/Ohm	-Im(Z)/Ohm	|Z|/Ohm	Phase(Z)/deg	time/s	<Ewe>/V	<I>/mA	Cs/µF	Cp/µF	cycle number	I Range	|Ewe|/V	|I|/A	Ns	(Q-Qo)/mA.h	Re(Y)/Ohm-1	Im(Y)/Ohm-1	|Y|/Ohm-1	Phase(Y)/deg	Re(C)/nF	Im(C)/nF	|C|/nF	Phase(C)/deg	Re(M)	Im(M)	|M|	Phase(M)/deg	Re(Permittivity)	Im(Permittivity)	|Permittivity|	Phase(Permittivity)/deg	Re(Resistivity)/Ohm.cm	Im(Resistivity)/Ohm.cm	|Resistivity|/Ohm.cm	Phase(Resistivity)/deg	Re(Conductivity)/mS/cm	Im(Conductivity)/mS/cm	|Conductivity|/mS/cm	Phase(Conductivity)/deg	Tan(Delta)	Loss Angle(Delta)/deg	dq/mA.h	Pwe/W	Rwe/Ohm	
1.0000371E+005	1.1497738E+000	2.1703196E-001	1.1700780E+000	-1.0689412E+001	2.066487351461547E+000	2.7664205E-001	5.1527526E-002	7.3329763E+000	2.5228882E-001	1.000000000000000E+000	9	4.7237636E-003	4.0371353E-003	0	1.090017086586967E-005	8.3981329E-001	1.5852363E-001	8.5464382E-001	1.0689412E+001	2.5228889E+002	1.3365547E+003	1.3601573E+003	-7.9310585E+001	0.0000000E+000	0.0000000E+000	0.0000000E+000	7.9310585E+001	0.0000000E+000	0.0000000E+000	0.0000000E+000	-7.9310585E+001	0.0000000E+000	0.0000000E+000	0.0000000E+000	-1.0689412E+001	0.0000000E+000	0.0000000E+000	0.0000000E+000	1.0689412E+001	5.2977166E+000	7.9310585E+001	1.090017086586967E-005	1.4254681E-005	5.3688208E+003
6.8132047E+004	1.1998138E+000	2.3827235E-001	1.2232444E+000	-1.1232292E+001	2.503498358855722E+000	2.7664059E-001	4.3491870E-002	9.8038139E+000	3.7197679E-001	1.000000000000000E+000	9	5.4783234E-003	4.4785189E-003	0	2.479069833873978E-005	8.0183935E-001	1.5923816E-001	8.1749809E-001	1.1232292E+001	3.7197681E+002	1.8730789E+003	1.9096573E+003	-7.8767708E+001	0.0000000E+000	0.0000000E+000	0.0000000E+000	7.8767708E+001	0.0000000E+000	0.0000000E+000	0.0000000E+000	-7.8767708E+001	0.0000000E+000	0.0000000E+000	0.0000000E+000	-1.1232292E+001	0.0000000E+000	0.0000000E+000	0.0000000E+000	1.1232292E+001	5.0354724E+000	7.8767708E+001	1.389052747287011E-005	1.2031617E-005	6.3607427E+003
4.6420355E+004	1.2559381E+000	2.6027948E-001	1.2826246E+000	-1.1708189E+001	3.081488386349520E+000	2.7664179E-001	4.6728432E-002	1.3172607E+001	5.4244095E-001	1.000000000000000E+000	9	5.0375480E-003	3.9275312E-003	0	2.566486004284687E-005	7.6342976E-001	1.5821250E-001	7.7965134E-001	1.1708189E+001	5.4244104E+002	2.6174641E+003	2.6730808E+003	-7.8291809E+001	0.0000000E+000	0.0000000E+000	0.0000000E+000	7.8291809E+001	0.0000000E+000	0.0000000E+000	0.0000000E+000	-7.8291809E+001	0.0000000E+000	0.0000000E+000	0.0000000E+000	-1.1708189E+001	0.0000000E+000	0.0000000E+000	0.0000000E+000	1.1708189E+001	4.8253441E+000	7.8291809E+001	8.741617041070870E-007	1.2927037E-005	5.9202026E+003
3.1621139E+004	1.3154844E+000	2.9841200E-001	1.3489065E+000	-1.2781000E+001	3.659475827094866E+000	2.7663887E-001	4.5184530E-002	1.6866554E+001	8.2545841E-001	1.000000000000000E+000	9	5.1124203E-003	3.7900480E-003	0	3.849714763981238E-005	7.2297287E-001	1.6400330E-001	7.4134123E-001	1.2781000E+001	8.2545825E+002	3.6388535E+003	3.7313049E+003	-7.7219002E+001	0.0000000E+000	0.0000000E+000	0.0000000E+000	7.7219002E+001	0.0000000E+000	0.0000000E+000	0.0000000E+000	-7.7219002E+001	0.0000000E+000	0.0000000E+000	0.0000000E+000	-1.2781000E+001	0.0000000E+000	0.0000000E+000	0.0000000E+000	1.2781000E+001	4.4082828E+000	7.7219002E+001	1.283228759696552E-005	1.2499797E-005	6.1224243E+003
2.1544684E+004	1.3833336E+000	3.3861893E-001	1.4241750E+000	-1.3754664E+001	4.096498967875959E+000	2.7663881E-001	4.8421126E-002	2.1815681E+001	1.2332880E+000	1.000000000000000E+000	9	5.3409133E-003	3.7501804E-003	0	3.683827581761095E-005	6.8202484E-001	1.6694926E-001	7.0216089E-001	1.3754664E+001	1.2332878E+003	5.0382559E+003	5.1870049E+003	-7.6245338E+001	0.0000000E+000	0.0000000E+000	0.0000000E+000	7.6245338E+001	0.0000000E+000	0.0000000E+000	0.0000000E+000	-7.6245338E+001	0.0000000E+000	0.0000000E+000	0.0000000E+000	-1.3754664E+001	0.0000000E+000	0.0000000E+000	0.0000000E+000	1.3754664E+001	4.0852222E+000	7.6245338E+001	-1.658871822201437E-006	1.3395163E-005	5.7131841E+003
1.4678594E+004	1.4554522E+000	3.8261920E-001	1.5049049E+000	-1.4729036E+001	4.392494448606158E+000	2.7664208E-001	5.1211286E-002	2.8337980E+001	1.8318264E+000	1.000000000000000E+000	9	4.6133110E-003	3.0655167E-003	0	3.854084533711365E-005	6.4265794E-001	1.6894630E-001	6.6449386E-001	1.4729036E+001	1.8318263E+003	6.9681187E+003	7.2048779E+003	-7.5270966E+001	0.0000000E+000	0.0000000E+000	0.0000000E+000	7.5270966E+001	0.0000000E+000	0.0000000E+000	0.0000000E+000	-7.5270966E+001	0.0000000E+000	0.0000000E+000	0.0000000E+000	-1.4729036E+001	0.0000000E+000	0.0000000E+000	0.0000000E+000	1.4729036E+001	3.8039184E+000	7.5270966E+001	1.702569519502703E-006	1.4167197E-005	5.4019751E+003
1.0002226E+004	1.5297097E+000	4.4420111E-001	1.5928987E+000	-1.6192379E+001	4.829480789339868E+000	2.7664235E-001	5.1099680E-002	3.5821507E+001	2.7856517E+000	1.000000000000000E+000	9	4.8223645E-003	3.0274144E-003	0	4.454311539468148E-005	6.0288250E-001	1.7506661E-001	6.2778628E-001	1.6192379E+001	2.7856521E+003	9.5930371E+003	9.9893057E+003	-7.3807617E+001	0.0000000E+000	0.0000000E+000	0.0000000E+000	7.3807617E+001	0.0000000E+000	0.0000000E+000	0.0000000E+000	-7.3807617E+001	0.0000000E+000	0.0000000E+000	0.0000000E+000	-1.6192379E+001	0.0000000E+000	0.0000000E+000	0.0000000E+000	1.6192379E+001	3.4437323E+000	7.3807617E+001	6.002270057567835E-006	1.4136336E-005	5.4137783E+003
6.8110674E+003	1.6211398E+000	5.2078015E-001	1.7027349E+000	-1.7809263E+001	5.207525420672027E+000	2.7635381E-001	-1.3671580E-001	4.4869427E+001	4.1972542E+000	1.000000000000000E+000	9	4.5355055E-003	2.6636592E-003	0	3.059679156998755E-005	5.5914748E-001	1.7962234E-001	5.8729047E-001	1.7809263E+001	4.1972549E+003	1.3065659E+004	1.3723279E+004	-7.2190735E+001	0.0000000E+000	0.0000000E+000	0.0000000E+000	7.2190735E+001	0.0000000E+000	0.0000000E+000	0.0000000E+000	-7.2190735E+001	0.0000000E+000	0.0000000E+000	0.0000000E+000	-1.7809263E+001	0.0000000E+000	0.0000000E+000	0.0000000E+000	1.7809263E+001	3.1129062E+000	7.2190735E+001	-1.394632382469394E-005	-3.7781931E-005	2.0213743E+003
4.6414854E+003	1.7195548E+000	6.2310535E-001	1.8289694E+000	-1.9918711E+001	5.901673587002733E+000	2.7660948E-001	7.4518487E-002	5.5030277E+001	6.3872185E+000	1.000000000000000E+000	9	4.9244296E-003	2.6924615E-003	0	4.061142573182264E-005	5.1404738E-001	1.8627246E-001	5.4675603E-001	1.9918711E+001	6.3872178E+003	1.7626508E+004	1.8748076E+004	-7.0081291E+001	0.0000000E+000	0.0000000E+000	0.0000000E+000	7.0081291E+001	0.0000000E+000	0.0000000E+000	0.0000000E+000	-7.0081291E+001	0.0000000E+000	0.0000000E+000	0.0000000E+000	-1.9918711E+001	0.0000000E+000	0.0000000E+000	0.0000000E+000	1.9918711E+001	2.7596533E+000	7.0081291E+001	1.001463416183509E-005	2.0612521E-005	3.7119578E+003
3.1610117E+003	1.8374093E+000	7.5399023E-001	1.9860952E+000	-2.2311043E+001	6.368681395855674E+000	2.7662292E-001	7.7066831E-002	6.6777214E+001	9.6240892E+000	1.000000000000000E+000	9	4.8513603E-003	2.4426626E-003	0	5.105879828152764E-005	4.6580675E-001	1.9114615E-001	5.0350052E-001	2.2311043E+001	9.6240889E+003	2.3453078E+004	2.5350936E+004	-6.7688957E+001	0.0000000E+000	0.0000000E+000	0.0000000E+000	6.7688957E+001	0.0000000E+000	0.0000000E+000	0.0000000E+000	-6.7688957E+001	0.0000000E+000	0.0000000E+000	0.0000000E+000	-2.2311043E+001	0.0000000E+000	0.0000000E+000	0.0000000E+000	2.2311043E+001	2.4369140E+000	6.7688957E+001	1.044737254970500E-005	2.1318452E-005	3.5893901E+003
2.1556899E+003	1.9701364E+000	9.2806613E-001	2.1777842E+000	-2.5223574E+001	6.835674644702522E+000	2.7661380E-001	7.3476799E-002	7.9552696E+001	1.4447180E+001	1.000000000000000E+000	9	4.8016077E-003	2.2048133E-003	0	5.838243483226850E-005	4.1540012E-001	1.9568126E-001	4.5918232E-001	2.5223574E+001	1.4447179E+004	3.0669061E+004	3.3901508E+004	-6.4776428E+001	0.0000000E+000	0.0000000E+000	0.0000000E+000	6.4776428E+001	0.0000000E+000	0.0000000E+000	0.0000000E+000	-6.4776428E+001	0.0000000E+000	0.0000000E+000	0.0000000E+000	-2.5223574E+001	0.0000000E+000	0.0000000E+000	0.0000000E+000	2.5223574E+001	2.1228406E+000	6.4776428E+001	7.323636550740853E-006	2.0324696E-005	3.7646414E+003
1.4685898E+003	2.1369636E+000	1.1515800E+000	2.4274986E+000	-2.8319611E+001	7.302922266884707E+000	2.7661237E-001	7.4723072E-002	9.4107780E+001	2.1178528E+001	1.000000000000000E+000	9	4.7777351E-003	1.9681721E-003	0	6.588298172680920E-005	3.6264285E-001	1.9542320E-001	4.1194668E-001	2.8319611E+001	2.1178525E+004	3.9300563E+004	4.4643746E+004	-6.1680389E+001	0.0000000E+000	0.0000000E+000	0.0000000E+000	6.1680389E+001	0.0000000E+000	0.0000000E+000	0.0000000E+000	-6.1680389E+001	0.0000000E+000	0.0000000E+000	0.0000000E+000	-2.8319611E+001	0.0000000E+000	0.0000000E+000	0.0000000E+000	2.8319611E+001	1.8556798E+000	6.1680389E+001	7.500546894540701E-006	2.0669326E-005	3.7018335E+003
1.0003202E+003	2.3557842E+000	1.4569895E+000	2.7699347E+000	-3.1735682E+001	7.771713489157264E+000	2.7660730E-001	7.5969338E-002	1.0920051E+002	3.0213322E+001	1.000000000000000E+000	9	4.7644824E-003	1.7200704E-003	0	7.579014848876331E-005	3.0704108E-001	1.8989667E-001	3.6101934E-001	3.1735682E+001	3.0213320E+004	4.8851461E+004	5.7439621E+004	-5.8264320E+001	0.0000000E+000	0.0000000E+000	0.0000000E+000	5.8264320E+001	0.0000000E+000	0.0000000E+000	0.0000000E+000	-5.8264320E+001	0.0000000E+000	0.0000000E+000	0.0000000E+000	-3.1735682E+001	0.0000000E+000	0.0000000E+000	0.0000000E+000	3.1735682E+001	1.6168848E+000	5.8264320E+001	9.907166761954111E-006	2.1013673E-005	3.6410388E+003
6.8108978E+002	2.6262710E+000	1.8240184E+000	3.1975527E+000	-3.4781055E+001	8.491453629947500E+000	2.7657536E-001	-1.2865230E-002	1.2811105E+002	4.1687859E+001	1.000000000000000E+000	10	4.8504346E-003	1.5169210E-003	0	7.820128438536751E-005	2.5686455E-001	1.7839958E-001	3.1273919E-001	3.4781055E+001	4.1687859E+004	6.0023309E+004	7.3079922E+004	-5.5218945E+001	0.0000000E+000	0.0000000E+000	0.0000000E+000	5.5218945E+001	0.0000000E+000	0.0000000E+000	0.0000000E+000	-5.5218945E+001	0.0000000E+000	0.0000000E+000	0.0000000E+000	-3.4781055E+001	0.0000000E+000	0.0000000E+000	0.0000000E+000	3.4781055E+001	1.4398271E+000	5.5218948E+001	2.411135896604206E-006	-3.5582057E-006	2.1497895E+004
4.6396069E+002	2.9877608E+000	2.3040154E+000	3.7729566E+000	-3.7637657E+001	8.960181598929921E+000	2.7658156E-001	-1.2573214E-002	1.4888589E+002	5.5521435E+001	1.000000000000000E+000	10	4.8084571E-003	1.2744534E-003	0	7.637436988546850E-005	2.0988539E-001	1.6185337E-001	2.6504412E-001	3.7637657E+001	5.5521441E+004	7.1998125E+004	9.0919523E+004	-5.2362343E+001	0.0000000E+000	0.0000000E+000	0.0000000E+000	5.2362343E+001	0.0000000E+000	0.0000000E+000	0.0000000E+000	-5.2362343E+001	0.0000000E+000	0.0000000E+000	0.0000000E+000	-3.7637657E+001	0.0000000E+000	0.0000000E+000	0.0000000E+000	3.7637657E+001	1.2967625E+000	5.2362343E+001	-1.826914499899017E-006	-3.4775192E-006	2.1997682E+004
3.1631589E+002	3.4831040E+000	2.8942311E+000	4.5286407E+000	-3.9724361E+001	9.426931114430772E+000	2.7658358E-001	-1.3121912E-002	1.7384650E+002	7.1006256E+001	1.000000000000000E+000	10	4.7923257E-003	1.0582261E-003	0	7.520409007683500E-005	1.6983636E-001	1.4112289E-001	2.2081681E-001	3.9724361E+001	7.1006258E+004	8.5453492E+004	1.1110440E+005	-5.0275639E+001	0.0000000E+000	0.0000000E+000	0.0000000E+000	5.0275639E+001	0.0000000E+000	0.0000000E+000	0.0000000E+000	-5.0275639E+001	0.0000000E+000	0.0000000E+000	0.0000000E+000	-3.9724361E+001	0.0000000E+000	0.0000000E+000	0.0000000E+000	3.9724361E+001	1.2034644E+000	5.0275635E+001	-1.170279808633502E-006	-3.6293054E-006	2.1077994E+004
2.1534457E+002	4.1009941E+000	3.6076384E+000	5.4619784E+000	-4.1338039E+001	9.894450016581686E+000	2.7658293E-001	-1.2759218E-002	2.0486285E+002	8.9373596E+001	1.000000000000000E+000	10	4.7613718E-003	8.7173027E-004	0	7.453132693911579E-005	1.3746408E-001	1.2092694E-001	1.8308385E-001	4.1338039E+001	8.9373594E+004	1.0159572E+005	1.3531197E+005	-4.8661961E+001	0.0000000E+000	0.0000000E+000	0.0000000E+000	4.8661961E+001	0.0000000E+000	0.0000000E+000	0.0000000E+000	-4.8661961E+001	0.0000000E+000	0.0000000E+000	0.0000000E+000	-4.1338039E+001	0.0000000E+000	0.0000000E+000	0.0000000E+000	4.1338039E+001	1.1367531E+000	4.8661957E+001	-6.727631377192057E-007	-3.5289818E-006	2.1677105E+004
1.4673740E+002	4.9338942E+000	4.4629421E+000	6.6529064E+000	-4.2130840E+001	1.035737902528490E+001	2.7658057E-001	-1.3737579E-002	2.4302896E+002	1.0936485E+002	1.000000000000000E+000	10	4.7463235E-003	7.1342103E-004	0	7.268765297869040E-005	1.1147232E-001	1.0083201E-001	1.5031025E-001	4.2130840E+001	1.0936484E+005	1.2090558E+005	1.6303014E+005	-4.7869160E+001	0.0000000E+000	0.0000000E+000	0.0000000E+000	4.7869160E+001	0.0000000E+000	0.0000000E+000	0.0000000E+000	-4.7869160E+001	0.0000000E+000	0.0000000E+000	0.0000000E+000	-4.2130840E+001	0.0000000E+000	0.0000000E+000	0.0000000E+000	4.2130840E+001	1.1055250E+000	4.7869156E+001	-1.843673960425394E-006	-3.7995474E-006	2.0133139E+004
1.0003201E+002	6.0535412E+000	5.4337254E+000	8.1345396E+000	-4.1911499E+001	1.082569960755063E+001	2.7658650E-001	-1.2616010E-002	2.9280835E+002	1.3065103E+002	1.000000000000000E+000	10	4.7411979E-003	5.8284774E-004	0	7.079124465235994E-005	9.1483667E-002	8.2116745E-002	1.2293259E-001	4.1911499E+001	1.3065103E+005	1.4555417E+005	1.9559067E+005	-4.8088501E+001	0.0000000E+000	0.0000000E+000	0.0000000E+000	4.8088501E+001	0.0000000E+000	0.0000000E+000	0.0000000E+000	-4.8088501E+001	0.0000000E+000	0.0000000E+000	0.0000000E+000	-4.1911499E+001	0.0000000E+000	0.0000000E+000	0.0000000E+000	4.1911499E+001	1.1140683E+000	4.8088501E+001	-1.896408326330454E-006	-3.4894183E-006	2.1923453E+004
6.8103981E+001	7.5286512E+000	6.4812155E+000	9.9341202E+000	-4.0724285E+001	1.130430123020778E+001	2.7659160E-001	-1.0856470E-002	3.6057129E+002	1.5347769E+002	1.000000000000000E+000	10	4.7393404E-003	4.7707703E-004	0	6.921875050933239E-005	7.6288380E-002	6.5674633E-002	1.0066317E-001	4.0724285E+001	1.5347769E+005	1.7828138E+005	2.3524381E+005	-4.9275715E+001	0.0000000E+000	0.0000000E+000	0.0000000E+000	4.9275715E+001	0.0000000E+000	0.0000000E+000	0.0000000E+000	-4.9275715E+001	0.0000000E+000	0.0000000E+000	0.0000000E+000	-4.0724285E+001	0.0000000E+000	0.0000000E+000	0.0000000E+000	4.0724285E+001	1.1616110E+000	4.9275711E+001	-1.572494143027553E-006	-3.0028084E-006	2.5477121E+004
4.6441547E+001	9.4338427E+000	7.4682813E+000	1.2032149E+001	-3.8366821E+001	1.175952743852395E+001	2.7657118E-001	-1.6010486E-002	4.5887329E+002	1.7678593E+002	1.000000000000000E+000	10	4.7357315E-003	3.9358981E-004	0	6.734396028288120E-005	6.5163173E-002	5.1586282E-002	8.3110668E-002	3.8366821E+001	1.7678592E+005	2.2331386E+005	2.8481984E+005	-5.1633179E+001	0.0000000E+000	0.0000000E+000	0.0000000E+000	5.1633179E+001	0.0000000E+000	0.0000000E+000	0.0000000E+000	-5.1633179E+001	0.0000000E+000	0.0000000E+000	0.0000000E+000	-3.8366821E+001	0.0000000E+000	0.0000000E+000	0.0000000E+000	3.8366821E+001	1.2631879E+000	5.1633179E+001	-1.874790226451186E-006	-4.4280391E-006	1.7274379E+004
3.1629555E+001	1.1690750E+001	8.1914129E+000	1.4274904E+001	-3.5017956E+001	1.220544433969189E+001	2.7656630E-001	-1.8660961E-002	6.1428259E+002	2.0227371E+002	1.000000000000000E+000	10	4.7355364E-003	3.3173859E-004	0	6.535366000849515E-005	5.7371471E-002	4.0198740E-002	7.0053011E-002	3.5017956E+001	2.0227372E+005	2.8868422E+005	3.5249572E+005	-5.4982044E+001	0.0000000E+000	0.0000000E+000	0.0000000E+000	5.4982044E+001	0.0000000E+000	0.0000000E+000	0.0000000E+000	-5.4982044E+001	0.0000000E+000	0.0000000E+000	0.0000000E+000	-3.5017956E+001	0.0000000E+000	0.0000000E+000	0.0000000E+000	3.5017956E+001	1.4271958E+000	5.4982040E+001	-1.990300274386057E-006	-5.1609927E-006	1.4820582E+004
2.1551722E+001	1.4247753E+001	8.6473331E+000	1.6666578E+001	-3.1254656E+001	1.288534055868513E+001	2.7658698E-001	-7.8921281E-003	8.5399622E+002	2.2989389E+002	1.000000000000000E+000	11	4.7370195E-003	2.8422268E-004	0	6.347650615670662E-005	5.1292457E-002	3.1130729E-002	6.0000319E-002	3.1254656E+001	2.2989388E+005	3.7878400E+005	4.4308975E+005	-5.8745346E+001	0.0000000E+000	0.0000000E+000	0.0000000E+000	5.8745346E+001	0.0000000E+000	0.0000000E+000	0.0000000E+000	-5.8745346E+001	0.0000000E+000	0.0000000E+000	0.0000000E+000	-3.1254656E+001	0.0000000E+000	0.0000000E+000	0.0000000E+000	3.1254656E+001	1.6476470E+000	5.8745346E+001	-1.877153851788523E-006	-2.1828598E-006	3.5045930E+004
1.4685154E+001	1.6757298E+001	8.6616898E+000	1.8863506E+001	-2.7334019E+001	1.336302804804291E+001	2.7659842E-001	-6.5801810E-003	1.2512354E+003	2.6381494E+002	1.000000000000000E+000	11	4.7337878E-003	2.5094952E-004	0	6.273385911524696E-005	4.7093298E-002	2.4342084E-002	5.3012412E-002	2.7334019E+001	2.6381497E+005	5.1038838E+005	5.7453863E+005	-6.2665981E+001	0.0000000E+000	0.0000000E+000	0.0000000E+000	6.2665981E+001	0.0000000E+000	0.0000000E+000	0.0000000E+000	-6.2665981E+001	0.0000000E+000	0.0000000E+000	0.0000000E+000	-2.7334019E+001	0.0000000E+000	0.0000000E+000	0.0000000E+000	2.7334019E+001	1.9346453E+000	6.2665985E+001	-7.426470414596646E-007	-1.8200677E-006	4.2035078E+004
