EC-Lab ASCII FILE

Nb header lines : 63                          

Potentio Electrochemical Impedance Spectroscopy

Run on channel : 3 (SN 65921)
User : 
CE vs. WE compliance from -10 V to 10 V
Electrode connection : standard
Potential control : Ewe
Ewe ctrl range : min = -10.00 V, max = 10.00 V
Safety Limits :
	Do not start on E overload
Acquisition started on : 09/22/2025 10:02:59.869
Loaded Setting File :  C:\Users\Celltest\OneDrive - store-dot.com\Documents\EC-Lab\Data\Gyutae\17738_R277_UA674_SOC00_C02.mpr
Saved on :
	File : 17704_R287_UA661_SOC00_C03.mpr
	Directory : C:\Users\Celltest\OneDrive - store-dot.com\Documents\EC-Lab\Data\Charmaine\
	Host : 169.254.61.224
Device : VMP-3e (SN .003165)
Address : USB
EC-LAB for windows v11.62 (software)
Internet server v27.00 (firmware)
Command interpretor v12.03 (firmware)
Electrode material : 
Initial state : 
Electrolyte : 
Comments : 
Electrode surface area : 0.001 cm²
Characteristic mass : 0.001 g
Equivalent Weight : 0.000 g/eq.
Density : 0.000 g/cm3
Volume (V) : 0.001 cm³
Cycle Definition : Charge/Discharge alternance
Mode                Single sine         
E (V)               0.0000              
vs.                 Eoc                 
tE (h:m:s)          0:00:0.0000         
record              0                   
dI                  0.000               
unit dI             mA                  
dt (s)              0.000               
fi                  100.000             
unit fi             kHz                 
ff                  10.000              
unit ff             mHz                 
Nd                  6                   
Points              per decade          
spacing             Logarithmic         
Va (mV)             5.0                 
pw                  0.10                
Na                  2                   
corr                0                   
E range min (V)     -10.000             
E range max (V)     10.000              
I Range             Auto                
Bandwidth           5                   
nc cycles           0                   
goto Ns'            0                   
nr cycles           0                   
inc. cycle          0                   

freq/Hz	Re(Z)/Ohm	-Im(Z)/Ohm	|Z|/Ohm	Phase(Z)/deg	time/s	<Ewe>/V	<I>/mA	Cs/µF	Cp/µF	cycle number	I Range	|Ewe|/V	|I|/A	Ns	(Q-Qo)/mA.h	Re(Y)/Ohm-1	Im(Y)/Ohm-1	|Y|/Ohm-1	Phase(Y)/deg	Re(C)/nF	Im(C)/nF	|C|/nF	Phase(C)/deg	Re(M)	Im(M)	|M|	Phase(M)/deg	Re(Permittivity)	Im(Permittivity)	|Permittivity|	Phase(Permittivity)/deg	Re(Resistivity)/Ohm.cm	Im(Resistivity)/Ohm.cm	|Resistivity|/Ohm.cm	Phase(Resistivity)/deg	Re(Conductivity)/mS/cm	Im(Conductivity)/mS/cm	|Conductivity|/mS/cm	Phase(Conductivity)/deg	Tan(Delta)	Loss Angle(Delta)/deg	dq/mA.h	Pwe/W	Rwe/Ohm	
1.0000371E+005	9.7899860E-001	1.9230199E-001	9.9770653E-001	-1.1112967E+001	1.715476081444649E+000	2.7060357E-001	5.1029895E-002	8.2759953E+000	3.0745542E-001	1.000000000000000E+000	9	4.6922225E-003	4.7030086E-003	0	1.100662146674262E-005	9.8350465E-001	1.9318712E-001	1.0022987E+000	1.1112967E+001	3.0745551E+002	1.5652384E+003	1.5951489E+003	-7.8887032E+001	0.0000000E+000	0.0000000E+000	0.0000000E+000	7.8887032E+001	0.0000000E+000	0.0000000E+000	0.0000000E+000	-7.8887032E+001	0.0000000E+000	0.0000000E+000	0.0000000E+000	-1.1112967E+001	0.0000000E+000	0.0000000E+000	0.0000000E+000	1.1112967E+001	5.0909438E+000	7.8887032E+001	1.100662146674262E-005	1.3808872E-005	5.3028438E+003
6.8132047E+004	1.0251012E+000	2.1482368E-001	1.0473689E+000	-1.1835818E+001	2.293492722237716E+000	2.7062231E-001	4.8643120E-002	1.0873930E+001	4.5745829E-001	1.000000000000000E+000	9	5.0091399E-003	4.7825938E-003	0	1.342872697932439E-005	9.3447435E-001	1.9583161E-001	9.5477343E-001	1.1835818E+001	4.5745822E+002	2.1829114E+003	2.2303296E+003	-7.8164185E+001	0.0000000E+000	0.0000000E+000	0.0000000E+000	7.8164185E+001	0.0000000E+000	0.0000000E+000	0.0000000E+000	-7.8164185E+001	0.0000000E+000	0.0000000E+000	0.0000000E+000	-1.1835818E+001	0.0000000E+000	0.0000000E+000	0.0000000E+000	1.1835818E+001	4.7718258E+000	7.8164185E+001	2.422105512581767E-006	1.3163914E-005	5.5634243E+003
4.6420355E+004	1.0729386E+000	2.4137138E-001	1.0997533E+000	-1.2678361E+001	2.871489523007767E+000	2.7062148E-001	5.0601024E-002	1.4204499E+001	6.8423760E-001	1.000000000000000E+000	9	5.1406152E-003	4.6743350E-003	0	1.849584675903639E-005	8.8712394E-001	1.9956999E-001	9.0929484E-001	1.2678361E+001	6.8423749E+002	3.0415571E+003	3.1175713E+003	-7.7321640E+001	0.0000000E+000	0.0000000E+000	0.0000000E+000	7.7321640E+001	0.0000000E+000	0.0000000E+000	0.0000000E+000	-7.7321640E+001	0.0000000E+000	0.0000000E+000	0.0000000E+000	-1.2678361E+001	0.0000000E+000	0.0000000E+000	0.0000000E+000	1.2678361E+001	4.4451771E+000	7.7321640E+001	5.067119779712003E-006	1.3693724E-005	5.3481421E+003
3.1621139E+004	1.1301155E+000	2.7062887E-001	1.1620675E+000	-1.3467023E+001	3.308475917117903E+000	2.7062130E-001	6.0297336E-002	1.8598097E+001	1.0086814E+000	1.000000000000000E+000	9	5.3070919E-003	4.5669391E-003	0	2.139158606117902E-005	8.3687401E-001	2.0040631E-001	8.6053520E-001	1.3467023E+001	1.0086817E+003	4.2121396E+003	4.3312305E+003	-7.6532974E+001	0.0000000E+000	0.0000000E+000	0.0000000E+000	7.6532974E+001	0.0000000E+000	0.0000000E+000	0.0000000E+000	-7.6532974E+001	0.0000000E+000	0.0000000E+000	0.0000000E+000	-1.3467023E+001	0.0000000E+000	0.0000000E+000	0.0000000E+000	1.3467023E+001	4.1758866E+000	7.6532974E+001	2.895739302142626E-006	1.6317743E-005	4.4881138E+003
2.1544684E+004	1.1836143E+000	3.0779502E-001	1.2229801E+000	-1.4576725E+001	3.886492371239001E+000	2.7059975E-001	5.8507238E-002	2.4000399E+001	1.5202073E+000	1.000000000000000E+000	9	5.3224657E-003	4.3520457E-003	0	2.525321635455152E-005	7.9135501E-001	2.0578930E-001	8.1767476E-001	1.4576725E+001	1.5202069E+003	5.8458999E+003	6.0403291E+003	-7.5423279E+001	0.0000000E+000	0.0000000E+000	0.0000000E+000	7.5423279E+001	0.0000000E+000	0.0000000E+000	0.0000000E+000	-7.5423279E+001	0.0000000E+000	0.0000000E+000	0.0000000E+000	-1.4576725E+001	0.0000000E+000	0.0000000E+000	0.0000000E+000	1.4576725E+001	3.8454626E+000	7.5423279E+001	3.861630293372503E-006	1.5832044E-005	4.6250645E+003
1.4678594E+004	1.2512968E+000	3.5375947E-001	1.3003420E+000	-1.5786357E+001	4.324476552050328E+000	2.7059969E-001	5.6400120E-002	3.0649797E+001	2.2684467E+000	1.000000000000000E+000	9	5.1974026E-003	3.9969506E-003	0	2.569283888111305E-005	7.4002290E-001	2.0921506E-001	7.6902848E-001	1.5786357E+001	2.2684465E+003	8.0238140E+003	8.3383115E+003	-7.4213646E+001	0.0000000E+000	0.0000000E+000	0.0000000E+000	7.4213646E+001	0.0000000E+000	0.0000000E+000	0.0000000E+000	-7.4213646E+001	0.0000000E+000	0.0000000E+000	0.0000000E+000	-1.5786357E+001	0.0000000E+000	0.0000000E+000	0.0000000E+000	1.5786357E+001	3.5371399E+000	7.4213646E+001	4.396225265615301E-007	1.5261856E-005	4.7978564E+003
1.0002226E+004	1.3236992E+000	4.0740442E-001	1.3849758E+000	-1.7107172E+001	4.902487352810567E+000	2.7060291E-001	5.8973391E-002	3.9056900E+001	3.3795967E+000	1.000000000000000E+000	9	4.1700811E-003	3.0109414E-003	0	3.572362115510946E-005	6.9008875E-001	2.1239358E-001	7.2203428E-001	1.7107172E+001	3.3795962E+003	1.0980660E+004	1.1488976E+004	-7.2892830E+001	0.0000000E+000	0.0000000E+000	0.0000000E+000	7.2892830E+001	0.0000000E+000	0.0000000E+000	0.0000000E+000	-7.2892830E+001	0.0000000E+000	0.0000000E+000	0.0000000E+000	-1.7107172E+001	0.0000000E+000	0.0000000E+000	0.0000000E+000	1.7107172E+001	3.2491038E+000	7.2892830E+001	1.003078227399641E-005	1.5958371E-005	4.5885596E+003
6.8110674E+003	1.4023073E+000	4.8239371E-001	1.4829596E+000	-1.8983217E+001	5.280519984109560E+000	2.7061123E-001	3.8294133E-002	4.8439907E+001	5.1256380E+000	1.000000000000000E+000	9	5.9688175E-003	4.0249359E-003	0	3.660117609350063E-005	6.3765317E-001	2.1935269E-001	6.7432719E-001	1.8983217E+001	5.1256377E+003	1.4900110E+004	1.5757076E+004	-7.1016785E+001	0.0000000E+000	0.0000000E+000	0.0000000E+000	7.1016785E+001	0.0000000E+000	0.0000000E+000	0.0000000E+000	-7.1016785E+001	0.0000000E+000	0.0000000E+000	0.0000000E+000	-1.8983217E+001	0.0000000E+000	0.0000000E+000	0.0000000E+000	1.8983217E+001	2.9069767E+000	7.1016785E+001	8.775549383911637E-007	1.0362823E-005	7.0666499E+003
4.6414854E+003	1.4936608E+000	5.8378214E-001	1.6036907E+000	-2.1347538E+001	6.197676241063164E+000	2.7062470E-001	5.3565826E-002	5.8737083E+001	7.7834601E+000	1.000000000000000E+000	9	4.8177643E-003	3.0041728E-003	0	4.389851819007243E-005	5.8077878E-001	2.2699147E-001	6.2356162E-001	2.1347538E+001	7.7834585E+003	1.9914705E+004	2.1381715E+004	-6.8652466E+001	0.0000000E+000	0.0000000E+000	0.0000000E+000	6.8652466E+001	0.0000000E+000	0.0000000E+000	0.0000000E+000	-6.8652466E+001	0.0000000E+000	0.0000000E+000	0.0000000E+000	-2.1347538E+001	0.0000000E+000	0.0000000E+000	0.0000000E+000	2.1347538E+001	2.5585928E+000	6.8652466E+001	7.297342096571809E-006	1.4496236E-005	5.0521895E+003
3.1610117E+003	1.5993583E+000	7.1558642E-001	1.7521447E+000	-2.4104742E+001	6.886695847126248E+000	2.7060291E-001	5.3006407E-002	7.0360985E+001	1.1735894E+001	1.000000000000000E+000	9	4.7148555E-003	2.6909052E-003	0	5.642995994241856E-005	5.2096176E-001	2.3308921E-001	5.7072914E-001	2.4104742E+001	1.1735896E+004	2.6230096E+004	2.8735852E+004	-6.5895256E+001	0.0000000E+000	0.0000000E+000	0.0000000E+000	6.5895256E+001	0.0000000E+000	0.0000000E+000	0.0000000E+000	-6.5895256E+001	0.0000000E+000	0.0000000E+000	0.0000000E+000	-2.4104742E+001	0.0000000E+000	0.0000000E+000	0.0000000E+000	2.4104742E+001	2.2350316E+000	6.5895256E+001	1.253144175234613E-005	1.4343688E-005	5.1050981E+003
2.1556899E+003	1.7270180E+000	8.7968779E-001	1.9381542E+000	-2.6992840E+001	7.353700562634913E+000	2.7061290E-001	5.4591365E-002	8.3927689E+001	1.7289631E+001	1.000000000000000E+000	9	4.5205872E-003	2.3324187E-003	0	6.157274675780597E-005	4.5974836E-001	2.3418112E-001	5.1595479E-001	2.6992840E+001	1.7289631E+004	3.3943297E+004	3.8093027E+004	-6.3007160E+001	0.0000000E+000	0.0000000E+000	0.0000000E+000	6.3007160E+001	0.0000000E+000	0.0000000E+000	0.0000000E+000	-6.3007160E+001	0.0000000E+000	0.0000000E+000	0.0000000E+000	-2.6992840E+001	0.0000000E+000	0.0000000E+000	0.0000000E+000	2.6992840E+001	1.9632170E+000	6.3007156E+001	5.142786815387406E-006	1.4773127E-005	4.9570640E+003
1.4685898E+003	1.8805323E+000	1.1066909E+000	2.1820097E+000	-3.0476759E+001	8.043938062066445E+000	2.7063343E-001	6.1322875E-002	9.7924934E+001	2.5190258E+001	1.000000000000000E+000	9	5.2218810E-003	2.3931521E-003	0	6.927111954931429E-005	3.9497304E-001	2.3244114E-001	4.5829311E-001	3.0476759E+001	2.5190260E+004	4.2804266E+004	4.9666430E+004	-5.9523239E+001	0.0000000E+000	0.0000000E+000	0.0000000E+000	5.9523239E+001	0.0000000E+000	0.0000000E+000	0.0000000E+000	-5.9523239E+001	0.0000000E+000	0.0000000E+000	0.0000000E+000	-3.0476759E+001	0.0000000E+000	0.0000000E+000	0.0000000E+000	3.0476759E+001	1.6992390E+000	5.9523239E+001	7.698372791508322E-006	1.6596021E-005	4.4132539E+003
1.0003202E+003	2.0870297E+000	1.4059796E+000	2.5164402E+000	-3.3967163E+001	8.735665988278924E+000	2.7061772E-001	5.5225354E-002	1.1316238E+002	3.5325386E+001	1.000000000000000E+000	9	5.0793500E-003	2.0184664E-003	0	7.674768817529224E-005	3.2957587E-001	2.2202700E-001	3.9738676E-001	3.3967163E+001	3.5325387E+004	5.2436836E+004	6.3225824E+004	-5.6032837E+001	0.0000000E+000	0.0000000E+000	0.0000000E+000	5.6032837E+001	0.0000000E+000	0.0000000E+000	0.0000000E+000	-5.6032837E+001	0.0000000E+000	0.0000000E+000	0.0000000E+000	-3.3967163E+001	0.0000000E+000	0.0000000E+000	0.0000000E+000	3.3967163E+001	1.4843954E+000	5.6032837E+001	7.476568625977949E-006	1.4944960E-005	4.9002441E+003
6.8108978E+002	2.3532219E+000	1.7754230E+000	2.9478433E+000	-3.7033268E+001	9.201434517017333E+000	2.7059898E-001	4.9053248E-002	1.3161758E+002	4.7742905E+001	1.000000000000000E+000	9	4.7940193E-003	1.6262803E-003	0	8.235677187557384E-005	2.7080336E-001	2.0431161E-001	3.3923104E-001	3.7033268E+001	4.7742906E+004	6.3280496E+004	7.9270461E+004	-5.2966732E+001	0.0000000E+000	0.0000000E+000	0.0000000E+000	5.2966732E+001	0.0000000E+000	0.0000000E+000	0.0000000E+000	-5.2966732E+001	0.0000000E+000	0.0000000E+000	0.0000000E+000	-3.7033268E+001	0.0000000E+000	0.0000000E+000	0.0000000E+000	3.7033268E+001	1.3254429E+000	5.2966736E+001	5.609083700281603E-006	1.3273759E-005	5.5164336E+003
4.6396069E+002	2.6909091E+000	2.2500489E+000	3.5076647E+000	-3.9901249E+001	9.924214658007259E+000	2.7061000E-001	-4.1806926E-003	1.5245686E+002	6.2732811E+001	1.000000000000000E+000	10	4.8415950E-003	1.3802901E-003	0	8.646365551907931E-005	2.1870710E-001	1.8287562E-001	2.8508997E-001	3.9901249E+001	6.2732813E+004	7.5024281E+004	9.7795953E+004	-5.0098751E+001	0.0000000E+000	0.0000000E+000	0.0000000E+000	5.0098751E+001	0.0000000E+000	0.0000000E+000	0.0000000E+000	-5.0098751E+001	0.0000000E+000	0.0000000E+000	0.0000000E+000	-3.9901249E+001	0.0000000E+000	0.0000000E+000	0.0000000E+000	3.9901249E+001	1.1959337E+000	5.0098755E+001	4.106883643505472E-006	-1.1313373E-006	6.4728512E+004
3.1631589E+002	3.1716776E+000	2.8390183E+000	4.2567081E+000	-4.1832222E+001	1.039092897356022E+001	2.7062848E-001	-3.6381388E-003	1.7722742E+002	7.8835091E+001	1.000000000000000E+000	10	4.7210865E-003	1.1090933E-003	0	8.616917647919682E-005	1.7504160E-001	1.5668249E-001	2.3492332E-001	4.1832222E+001	7.8835094E+004	8.8072523E+004	1.1820213E+005	-4.8167778E+001	0.0000000E+000	0.0000000E+000	0.0000000E+000	4.8167778E+001	0.0000000E+000	0.0000000E+000	0.0000000E+000	-4.8167778E+001	0.0000000E+000	0.0000000E+000	0.0000000E+000	-4.1832222E+001	0.0000000E+000	0.0000000E+000	0.0000000E+000	4.1832222E+001	1.1171740E+000	4.8167786E+001	-2.944790398824899E-007	-9.8458395E-007	7.4386523E+004
2.1534457E+002	3.8122559E+000	3.5578842E+000	5.2145791E+000	-4.3023289E+001	1.085845072907978E+001	2.7062613E-001	-3.6884837E-003	2.0772769E+002	9.6702904E+001	1.000000000000000E+000	10	4.5968303E-003	8.8153430E-004	0	8.513622458833399E-005	1.4019854E-001	1.3084385E-001	1.9177003E-001	4.3023289E+001	9.6702906E+004	1.0361670E+005	1.4173169E+005	-4.6976711E+001	0.0000000E+000	0.0000000E+000	0.0000000E+000	4.6976711E+001	0.0000000E+000	0.0000000E+000	0.0000000E+000	-4.6976711E+001	0.0000000E+000	0.0000000E+000	0.0000000E+000	-4.3023289E+001	0.0000000E+000	0.0000000E+000	0.0000000E+000	4.3023289E+001	1.0714952E+000	4.6976715E+001	-1.032951890862831E-006	-9.9820011E-007	7.3370563E+004
1.4673740E+002	4.6520848E+000	4.3841805E+000	6.3924122E+000	-4.3301811E+001	1.132140171105857E+001	2.7061003E-001	-4.3261335E-003	2.4739497E+002	1.1636924E+002	1.000000000000000E+000	10	4.5180619E-003	7.0678513E-004	0	8.463104604295869E-005	1.1384609E-001	1.0728992E-001	1.5643547E-001	4.3301811E+001	1.1636924E+005	1.2348022E+005	1.6967370E+005	-4.6698189E+001	0.0000000E+000	0.0000000E+000	0.0000000E+000	4.6698189E+001	0.0000000E+000	0.0000000E+000	0.0000000E+000	-4.6698189E+001	0.0000000E+000	0.0000000E+000	0.0000000E+000	-4.3301811E+001	0.0000000E+000	0.0000000E+000	0.0000000E+000	4.3301811E+001	1.0611070E+000	4.6698181E+001	-5.051785453752985E-007	-1.1706951E-006	6.2552398E+004
1.0003201E+002	5.7850714E+000	5.3057604E+000	7.8497224E+000	-4.2525398E+001	1.201266846392537E+001	2.7060899E-001	-2.8662786E-003	2.9987033E+002	1.3699988E+002	1.000000000000000E+000	10	5.0090784E-003	6.3812174E-004	0	8.350817762112517E-005	9.3885839E-002	8.6107112E-002	1.2739304E-001	4.2525398E+001	1.3699986E+005	1.4937613E+005	2.0268742E+005	-4.7474602E+001	0.0000000E+000	0.0000000E+000	0.0000000E+000	4.7474602E+001	0.0000000E+000	0.0000000E+000	0.0000000E+000	-4.7474602E+001	0.0000000E+000	0.0000000E+000	0.0000000E+000	-4.2525398E+001	0.0000000E+000	0.0000000E+000	0.0000000E+000	4.2525398E+001	1.0903379E+000	4.7474609E+001	-1.122868421833529E-006	-7.7564079E-007	9.4411266E+004
6.8103981E+001	7.2542610E+000	6.2617784E+000	9.5830145E+000	-4.0800308E+001	1.249131520660012E+001	2.7061307E-001	-3.2839177E-003	3.7320712E+002	1.5934595E+002	1.000000000000000E+000	10	4.9840328E-003	5.2009028E-004	0	8.275954804505454E-005	7.8993052E-002	6.8185709E-002	1.0435130E-001	4.0800308E+001	1.5934595E+005	1.8460205E+005	2.4386277E+005	-4.9199692E+001	0.0000000E+000	0.0000000E+000	0.0000000E+000	4.9199692E+001	0.0000000E+000	0.0000000E+000	0.0000000E+000	-4.9199692E+001	0.0000000E+000	0.0000000E+000	0.0000000E+000	-4.0800308E+001	0.0000000E+000	0.0000000E+000	0.0000000E+000	4.0800308E+001	1.1584985E+000	4.9199692E+001	-7.486295760706252E-007	-8.8867108E-007	8.2405563E+004
4.6441547E+001	9.0679064E+000	7.1641045E+000	1.1556440E+001	-3.8310520E+001	1.294653552156524E+001	2.7061436E-001	-3.6773158E-003	4.7835632E+002	1.8383458E+002	1.000000000000000E+000	10	4.9697119E-003	4.3003829E-004	0	8.212035803169581E-005	6.7898288E-002	5.3643085E-002	8.6531833E-002	3.8310520E+001	1.8383456E+005	2.3268708E+005	2.9654413E+005	-5.1689480E+001	0.0000000E+000	0.0000000E+000	0.0000000E+000	5.1689480E+001	0.0000000E+000	0.0000000E+000	0.0000000E+000	-5.1689480E+001	0.0000000E+000	0.0000000E+000	0.0000000E+000	-3.8310520E+001	0.0000000E+000	0.0000000E+000	0.0000000E+000	3.8310520E+001	1.2657418E+000	5.1689484E+001	-6.391900133587310E-007	-9.9513443E-007	7.3590188E+004
3.1629555E+001	1.1244683E+001	7.8310599E+000	1.3702861E+001	-3.4854256E+001	1.339342575610499E+001	2.7061787E-001	-4.2795315E-003	6.4254938E+002	2.0985779E+002	1.000000000000000E+000	10	4.9590888E-003	3.6190171E-004	0	8.173624120067366E-005	5.9885919E-002	4.1705955E-002	7.2977461E-002	3.4854256E+001	2.0985780E+005	3.0133650E+005	3.6721109E+005	-5.5145744E+001	0.0000000E+000	0.0000000E+000	0.0000000E+000	5.5145744E+001	0.0000000E+000	0.0000000E+000	0.0000000E+000	-5.5145744E+001	0.0000000E+000	0.0000000E+000	0.0000000E+000	-3.4854256E+001	0.0000000E+000	0.0000000E+000	0.0000000E+000	3.4854256E+001	1.4359082E+000	5.5145744E+001	-3.841168310221533E-007	-1.1581177E-006	6.3235395E+004
2.1551722E+001	1.3618484E+001	8.1727304E+000	1.5882589E+001	-3.0968828E+001	1.407333018843201E+001	2.7062026E-001	-8.3944546E-003	9.0358911E+002	2.3925592E+002	1.000000000000000E+000	11	4.9601123E-003	3.1229871E-004	0	8.078293096178095E-005	5.3986624E-002	3.2398473E-002	6.2962025E-002	3.0968828E+001	2.3925594E+005	3.9867991E+005	4.6496138E+005	-5.9031174E+001	0.0000000E+000	0.0000000E+000	0.0000000E+000	5.9031174E+001	0.0000000E+000	0.0000000E+000	0.0000000E+000	-5.9031174E+001	0.0000000E+000	0.0000000E+000	0.0000000E+000	-3.0968828E+001	0.0000000E+000	0.0000000E+000	0.0000000E+000	3.0968828E+001	1.6663322E+000	5.9031174E+001	-9.533102388927108E-007	-2.2717095E-006	3.2237980E+004
1.4685154E+001	1.5998254E+001	8.1040020E+000	1.7933739E+001	-2.6864740E+001	1.455106047779555E+001	2.7061164E-001	-8.3295703E-003	1.3373407E+003	2.7308603E+002	1.000000000000000E+000	11	4.9569239E-003	2.7640213E-004	0	7.959524664588469E-005	4.9742881E-002	2.5197525E-002	5.5760823E-002	2.6864740E+001	2.7308603E+005	5.3910400E+005	6.0432531E+005	-6.3135262E+001	0.0000000E+000	0.0000000E+000	0.0000000E+000	6.3135262E+001	0.0000000E+000	0.0000000E+000	0.0000000E+000	-6.3135262E+001	0.0000000E+000	0.0000000E+000	0.0000000E+000	-2.6864740E+001	0.0000000E+000	0.0000000E+000	0.0000000E+000	2.6864740E+001	1.9741178E+000	6.3135262E+001	-1.187684315896254E-006	-2.2540787E-006	3.2488068E+004
