EC-Lab ASCII FILE

Nb header lines : 63                          

Potentio Electrochemical Impedance Spectroscopy

Run on channel : 7 (SN 66126)
User : 
CE vs. WE compliance from -10 V to 10 V
Electrode connection : standard
Potential control : Ewe
Ewe ctrl range : min = -10.00 V, max = 10.00 V
Safety Limits :
	Do not start on E overload
Acquisition started on : 09/22/2025 09:04:33.635
Loaded Setting File :  C:\Users\Celltest\OneDrive - store-dot.com\Documents\EC-Lab\Data\Charmaine\17689_R288_UA670_SOC00_C04.mpr
Saved on :
	File : 17700_R287_UA660_SOC00_C07.mpr
	Directory : C:\Users\Celltest\OneDrive - store-dot.com\Documents\EC-Lab\Data\Charmaine\
	Host : 169.254.61.224
Device : VMP-3e (SN .003165)
Address : USB
EC-LAB for windows v11.62 (software)
Internet server v27.00 (firmware)
Command interpretor v12.03 (firmware)
Electrode material : 
Initial state : 
Electrolyte : 
Comments : 
Electrode surface area : 0.001 cm²
Characteristic mass : 0.001 g
Equivalent Weight : 0.000 g/eq.
Density : 0.000 g/cm3
Volume (V) : 0.001 cm³
Cycle Definition : Charge/Discharge alternance
Mode                Single sine         
E (V)               0.0000              
vs.                 Eoc                 
tE (h:m:s)          0:00:0.0000         
record              0                   
dI                  0.000               
unit dI             mA                  
dt (s)              0.000               
fi                  100.000             
unit fi             kHz                 
ff                  10.000              
unit ff             mHz                 
Nd                  6                   
Points              per decade          
spacing             Logarithmic         
Va (mV)             5.0                 
pw                  0.10                
Na                  2                   
corr                0                   
E range min (V)     -10.000             
E range max (V)     10.000              
I Range             Auto                
Bandwidth           5                   
nc cycles           0                   
goto Ns'            0                   
nr cycles           0                   
inc. cycle          0                   

freq/Hz	Re(Z)/Ohm	-Im(Z)/Ohm	|Z|/Ohm	Phase(Z)/deg	time/s	<Ewe>/V	<I>/mA	Cs/µF	Cp/µF	cycle number	I Range	|Ewe|/V	|I|/A	Ns	(Q-Qo)/mA.h	Re(Y)/Ohm-1	Im(Y)/Ohm-1	|Y|/Ohm-1	Phase(Y)/deg	Re(C)/nF	Im(C)/nF	|C|/nF	Phase(C)/deg	Re(M)	Im(M)	|M|	Phase(M)/deg	Re(Permittivity)	Im(Permittivity)	|Permittivity|	Phase(Permittivity)/deg	Re(Resistivity)/Ohm.cm	Im(Resistivity)/Ohm.cm	|Resistivity|/Ohm.cm	Phase(Resistivity)/deg	Re(Conductivity)/mS/cm	Im(Conductivity)/mS/cm	|Conductivity|/mS/cm	Phase(Conductivity)/deg	Tan(Delta)	Loss Angle(Delta)/deg	dq/mA.h	Pwe/W	Rwe/Ohm	
1.0000371E+005	1.1183177E+000	2.2731735E-001	1.1411870E+000	-1.1489818E+001	2.067480551515473E+000	2.7184451E-001	7.8054182E-002	7.0011826E+000	2.7779406E-001	1.000000000000000E+000	9	4.7288379E-003	4.1437889E-003	0	1.342904832628038E-006	8.5872006E-001	1.7454965E-001	8.7628061E-001	1.1489818E+001	2.7779404E+002	1.3666449E+003	1.3945923E+003	-7.8510185E+001	0.0000000E+000	0.0000000E+000	0.0000000E+000	7.8510185E+001	0.0000000E+000	0.0000000E+000	0.0000000E+000	-7.8510185E+001	0.0000000E+000	0.0000000E+000	0.0000000E+000	-1.1489818E+001	0.0000000E+000	0.0000000E+000	0.0000000E+000	1.1489818E+001	4.9196320E+000	7.8510185E+001	1.342904832628038E-006	2.1218601E-005	3.4827666E+003
6.8132047E+004	1.1736062E+000	2.4733639E-001	1.1993860E+000	-1.1900877E+001	2.645477032318013E+000	2.7185625E-001	7.9711199E-002	9.4445372E+000	4.0164167E-001	1.000000000000000E+000	9	5.0333687E-003	4.1966210E-003	0	1.740962127999713E-005	8.1583899E-001	1.7193729E-001	8.3375996E-001	1.1900877E+001	4.0164172E+002	1.9057816E+003	1.9476447E+003	-7.8099121E+001	0.0000000E+000	0.0000000E+000	0.0000000E+000	7.8099121E+001	0.0000000E+000	0.0000000E+000	0.0000000E+000	-7.8099121E+001	0.0000000E+000	0.0000000E+000	0.0000000E+000	-1.1900877E+001	0.0000000E+000	0.0000000E+000	0.0000000E+000	1.1900877E+001	4.7449799E+000	7.8099121E+001	1.606671644736909E-005	2.1669988E-005	3.4105151E+003
4.6420355E+004	1.2323380E+000	2.6440951E-001	1.2603846E+000	-1.2109741E+001	3.223494659730932E+000	2.7186662E-001	8.4123641E-002	1.2966854E+001	5.7066679E-001	1.000000000000000E+000	9	5.0312127E-003	3.9918078E-003	0	2.013642857257380E-005	7.7575338E-001	1.6644508E-001	7.9340863E-001	1.2109741E+001	5.7066681E+002	2.6597166E+003	2.7202485E+003	-7.7890259E+001	0.0000000E+000	0.0000000E+000	0.0000000E+000	7.7890259E+001	0.0000000E+000	0.0000000E+000	0.0000000E+000	-7.7890259E+001	0.0000000E+000	0.0000000E+000	0.0000000E+000	-1.2109741E+001	0.0000000E+000	0.0000000E+000	0.0000000E+000	1.2109741E+001	4.6607170E+000	7.7890259E+001	2.726807292576674E-006	2.2870410E-005	3.2317505E+003
3.1621139E+004	1.2946894E+000	2.9265830E-001	1.3273543E+000	-1.2737370E+001	3.801485780539224E+000	2.7187696E-001	8.3285816E-002	1.7198153E+001	8.3604521E-001	1.000000000000000E+000	9	5.0489851E-003	3.8037961E-003	0	3.989071593658688E-005	7.3483843E-001	1.6610669E-001	7.5337833E-001	1.2737370E+001	8.3604486E+002	3.6985754E+003	3.7918901E+003	-7.7262634E+001	0.0000000E+000	0.0000000E+000	0.0000000E+000	7.7262634E+001	0.0000000E+000	0.0000000E+000	0.0000000E+000	-7.7262634E+001	0.0000000E+000	0.0000000E+000	0.0000000E+000	-1.2737370E+001	0.0000000E+000	0.0000000E+000	0.0000000E+000	1.2737370E+001	4.4238944E+000	7.7262634E+001	1.975428736401308E-005	2.2643495E-005	3.2643850E+003
2.1544684E+004	1.3598046E+000	3.2693017E-001	1.3985535E+000	-1.3518722E+001	4.239478067989694E+000	2.7187353E-001	8.0846868E-002	2.2595661E+001	1.2347438E+000	1.000000000000000E+000	9	5.4126019E-003	3.8701429E-003	0	4.809894561883347E-005	6.9521374E-001	1.6714633E-001	7.1502447E-001	1.3518722E+001	1.2347439E+003	5.1356846E+003	5.2820308E+003	-7.6481277E+001	0.0000000E+000	0.0000000E+000	0.0000000E+000	7.6481277E+001	0.0000000E+000	0.0000000E+000	0.0000000E+000	-7.6481277E+001	0.0000000E+000	0.0000000E+000	0.0000000E+000	-1.3518722E+001	0.0000000E+000	0.0000000E+000	0.0000000E+000	1.3518722E+001	4.1593122E+000	7.6481277E+001	8.208229682246583E-006	2.1980124E-005	3.3628208E+003
1.4678594E+004	1.4283055E+000	3.6802199E-001	1.4749565E+000	-1.4448743E+001	4.535488642082782E+000	2.7186984E-001	8.4607691E-002	2.9461975E+001	1.8342183E+000	1.000000000000000E+000	9	4.7757267E-003	3.2378763E-003	0	5.603646024718021E-005	6.5654224E-001	1.6916688E-001	6.7798609E-001	1.4448743E+001	1.8342186E+003	7.1186616E+003	7.3511699E+003	-7.5551254E+001	0.0000000E+000	0.0000000E+000	0.0000000E+000	7.5551254E+001	0.0000000E+000	0.0000000E+000	0.0000000E+000	-7.5551254E+001	0.0000000E+000	0.0000000E+000	0.0000000E+000	-1.4448743E+001	0.0000000E+000	0.0000000E+000	0.0000000E+000	1.4448743E+001	3.8810329E+000	7.5551254E+001	7.937514628346741E-006	2.3002280E-005	3.2132993E+003
1.0002226E+004	1.4998001E+000	4.1782349E-001	1.5569125E+000	-1.5567099E+001	4.972500396164833E+000	2.7187160E-001	7.4609801E-002	3.8082954E+001	2.7427607E+000	1.000000000000000E+000	9	5.0437138E-003	3.2395613E-003	0	6.588364895293489E-005	6.1873537E-001	1.7237107E-001	6.4229685E-001	1.5567099E+001	2.7427607E+003	9.8452881E+003	1.0220197E+004	-7.4432899E+001	0.0000000E+000	0.0000000E+000	0.0000000E+000	7.4432899E+001	0.0000000E+000	0.0000000E+000	0.0000000E+000	-7.4432899E+001	0.0000000E+000	0.0000000E+000	0.0000000E+000	-1.5567099E+001	0.0000000E+000	0.0000000E+000	0.0000000E+000	1.5567099E+001	3.5895543E+000	7.4432899E+001	9.847188705754686E-006	2.0284286E-005	3.6439126E+003
6.8110674E+003	1.5876123E+000	4.8498312E-001	1.6600366E+000	-1.6986841E+001	5.351506334176520E+000	2.7168652E-001	-5.6870785E-002	4.8181282E+001	4.1124086E+000	1.000000000000000E+000	9	4.7229216E-003	2.8450708E-003	0	6.282762625230114E-005	5.7611495E-001	1.7599134E-001	6.0239637E-001	1.6986841E+001	4.1124082E+003	1.3462140E+004	1.4076261E+004	-7.3013161E+001	0.0000000E+000	0.0000000E+000	0.0000000E+000	7.3013161E+001	0.0000000E+000	0.0000000E+000	0.0000000E+000	-7.3013161E+001	0.0000000E+000	0.0000000E+000	0.0000000E+000	-1.6986841E+001	0.0000000E+000	0.0000000E+000	0.0000000E+000	1.6986841E+001	3.2735412E+000	7.3013161E+001	-3.056022700633751E-006	-1.5451025E-005	4.7772598E+003
4.6414854E+003	1.6782868E+000	5.7363468E-001	1.7736131E+000	-1.8870314E+001	5.822701663251792E+000	2.7183297E-001	7.0197321E-002	5.9776127E+001	6.2528896E+000	1.000000000000000E+000	9	4.5540337E-003	2.5676591E-003	0	6.960062403308176E-005	5.3351718E-001	1.8235499E-001	5.6382084E-001	1.8870314E+001	6.2528906E+003	1.8294121E+004	1.9333223E+004	-7.1129684E+001	0.0000000E+000	0.0000000E+000	0.0000000E+000	7.1129684E+001	0.0000000E+000	0.0000000E+000	0.0000000E+000	-7.1129684E+001	0.0000000E+000	0.0000000E+000	0.0000000E+000	-1.8870314E+001	0.0000000E+000	0.0000000E+000	0.0000000E+000	1.8870314E+001	2.9257066E+000	7.1129684E+001	6.772997780780615E-006	1.9081946E-005	3.8724124E+003
3.1610117E+003	1.7867303E+000	6.9077837E-001	1.9156147E+000	-2.1137297E+001	6.512688842689386E+000	2.7183795E-001	6.9694631E-002	7.2887878E+001	9.4779940E+000	1.000000000000000E+000	9	4.8547755E-003	2.5343173E-003	0	8.051961182003530E-005	4.8690325E-001	1.8824455E-001	5.2202564E-001	2.1137297E+001	9.4779951E+003	2.4515271E+004	2.6283662E+004	-6.8862701E+001	0.0000000E+000	0.0000000E+000	0.0000000E+000	6.8862701E+001	0.0000000E+000	0.0000000E+000	0.0000000E+000	-6.8862701E+001	0.0000000E+000	0.0000000E+000	0.0000000E+000	-2.1137297E+001	0.0000000E+000	0.0000000E+000	0.0000000E+000	2.1137297E+001	2.5865464E+000	6.8862701E+001	1.091898778695354E-005	1.8945646E-005	3.9004146E+003
2.1556899E+003	1.9172378E+000	8.4326267E-001	2.0944910E+000	-2.3741434E+001	6.979698411538266E+000	2.7183717E-001	7.0160076E-002	8.7552986E+001	1.4191873E+001	1.000000000000000E+000	9	4.8146509E-003	2.2987211E-003	0	9.085261913180795E-005	4.3703780E-001	1.9222324E-001	4.7744298E-001	2.3741434E+001	1.4191873E+004	3.2266574E+004	3.5249695E+004	-6.6258568E+001	0.0000000E+000	0.0000000E+000	0.0000000E+000	6.6258568E+001	0.0000000E+000	0.0000000E+000	0.0000000E+000	-6.6258568E+001	0.0000000E+000	0.0000000E+000	0.0000000E+000	-2.3741434E+001	0.0000000E+000	0.0000000E+000	0.0000000E+000	2.3741434E+001	2.2735949E+000	6.6258568E+001	1.033300731177264E-005	1.9072117E-005	3.8745278E+003
1.4685898E+003	2.0809200E+000	1.0366220E+000	2.3248255E+000	-2.6480450E+001	7.446949660370592E+000	2.7183264E-001	7.4181557E-002	1.0454402E+002	2.0785446E+001	1.000000000000000E+000	9	4.7798301E-003	2.0559952E-003	0	9.984974247883332E-005	3.8501236E-001	1.9179608E-001	4.3013981E-001	2.6480450E+001	2.0785445E+004	4.1724801E+004	4.6615383E+004	-6.3519550E+001	0.0000000E+000	0.0000000E+000	0.0000000E+000	6.3519550E+001	0.0000000E+000	0.0000000E+000	0.0000000E+000	-6.3519550E+001	0.0000000E+000	0.0000000E+000	0.0000000E+000	-2.6480450E+001	0.0000000E+000	0.0000000E+000	0.0000000E+000	2.6480450E+001	2.0074048E+000	6.3519547E+001	8.997123347025379E-006	2.0164969E-005	3.6644236E+003
1.0003202E+003	2.2838726E+000	1.2812630E+000	2.6187227E+000	-2.9292625E+001	7.915693655995710E+000	2.7183142E-001	6.9694601E-002	1.2417747E+002	2.9726265E+001	1.000000000000000E+000	9	4.7634379E-003	1.8189929E-003	0	1.075701262433366E-004	3.3303729E-001	1.8683544E-001	3.8186556E-001	2.9292625E+001	2.9726268E+004	5.2987563E+004	6.0756340E+004	-6.0707375E+001	0.0000000E+000	0.0000000E+000	0.0000000E+000	6.0707375E+001	0.0000000E+000	0.0000000E+000	0.0000000E+000	-6.0707375E+001	0.0000000E+000	0.0000000E+000	0.0000000E+000	-2.9292625E+001	0.0000000E+000	0.0000000E+000	0.0000000E+000	2.9292625E+001	1.7825166E+000	6.0707375E+001	7.720383764503317E-006	1.8945182E-005	3.9003225E+003
6.8108978E+002	2.5177598E+000	1.5949630E+000	2.9804399E+000	-3.2353642E+001	8.381425944709918E+000	2.7182701E-001	6.5319359E-002	1.4650929E+002	4.1957119E+001	1.000000000000000E+000	9	4.7475141E-003	1.5928904E-003	0	1.142737228567971E-004	2.8343508E-001	1.7955184E-001	3.3552095E-001	3.2353642E+001	4.1957117E+004	6.6232227E+004	7.8403492E+004	-5.7646358E+001	0.0000000E+000	0.0000000E+000	0.0000000E+000	5.7646358E+001	0.0000000E+000	0.0000000E+000	0.0000000E+000	-5.7646358E+001	0.0000000E+000	0.0000000E+000	0.0000000E+000	-3.2353642E+001	0.0000000E+000	0.0000000E+000	0.0000000E+000	3.2353642E+001	1.5785694E+000	5.7646362E+001	6.703596613460424E-006	1.7755567E-005	4.1615078E+003
4.6396069E+002	2.8847022E+000	2.0028811E+000	3.5118427E+000	-3.4772682E+001	9.104184672381962E+000	2.7183750E-001	-9.0920767E-003	1.7127097E+002	5.5708820E+001	1.000000000000000E+000	10	4.8170402E-003	1.3716560E-003	0	1.196577542391929E-004	2.3390034E-001	1.6239963E-001	2.8475079E-001	3.4772682E+001	5.5708828E+004	8.0236102E+004	9.7679609E+004	-5.5227318E+001	0.0000000E+000	0.0000000E+000	0.0000000E+000	5.5227318E+001	0.0000000E+000	0.0000000E+000	0.0000000E+000	-5.5227318E+001	0.0000000E+000	0.0000000E+000	0.0000000E+000	-3.4772682E+001	0.0000000E+000	0.0000000E+000	0.0000000E+000	3.4772682E+001	1.4402764E+000	5.5227318E+001	5.384031382395842E-006	-2.4715673E-006	2.9898285E+004
3.1631589E+002	3.3232393E+000	2.4706120E+000	4.1409955E+000	-3.6628399E+001	9.570916721277172E+000	2.7184063E-001	-9.3824537E-003	2.0365475E+002	7.2492683E+001	1.000000000000000E+000	10	4.7826893E-003	1.1549612E-003	0	1.180378311158986E-004	1.9379926E-001	1.4407712E-001	2.4148783E-001	3.6628399E+001	7.2492672E+004	9.7510453E+004	1.2150505E+005	-5.3371601E+001	0.0000000E+000	0.0000000E+000	0.0000000E+000	5.3371601E+001	0.0000000E+000	0.0000000E+000	0.0000000E+000	-5.3371601E+001	0.0000000E+000	0.0000000E+000	0.0000000E+000	-3.6628399E+001	0.0000000E+000	0.0000000E+000	0.0000000E+000	3.6628399E+001	1.3451077E+000	5.3371597E+001	-1.619923123294330E-006	-2.5505321E-006	2.8973299E+004
2.1534457E+002	3.8907888E+000	3.0325005E+000	4.9329805E+000	-3.7933029E+001	1.003845711678150E+001	2.7183992E-001	-9.6132681E-003	2.4371674E+002	9.2101837E+001	1.000000000000000E+000	10	4.7625820E-003	9.6545729E-004	0	1.161117391223743E-004	1.5988910E-001	1.2461837E-001	2.0271720E-001	3.7933029E+001	9.2101836E+004	1.1816941E+005	1.4982242E+005	-5.2066971E+001	0.0000000E+000	0.0000000E+000	0.0000000E+000	5.2066971E+001	0.0000000E+000	0.0000000E+000	0.0000000E+000	-5.2066971E+001	0.0000000E+000	0.0000000E+000	0.0000000E+000	-3.7933029E+001	0.0000000E+000	0.0000000E+000	0.0000000E+000	3.7933029E+001	1.2830299E+000	5.2066971E+001	-1.926091993524297E-006	-2.6132700E-006	2.8277576E+004
1.4673740E+002	4.6318564E+000	3.6825469E+000	5.9173679E+000	-3.8486374E+001	1.050139244543971E+001	2.7184406E-001	-1.0199608E-002	2.9453101E+002	1.1406974E+002	1.000000000000000E+000	10	4.7543538E-003	8.0345751E-004	0	1.153994200631734E-004	1.3228114E-001	1.0516982E-001	1.6899405E-001	3.8486374E+001	1.1406973E+005	1.4347533E+005	1.8329505E+005	-5.1513626E+001	0.0000000E+000	0.0000000E+000	0.0000000E+000	5.1513626E+001	0.0000000E+000	0.0000000E+000	0.0000000E+000	-5.1513626E+001	0.0000000E+000	0.0000000E+000	0.0000000E+000	-3.8486374E+001	0.0000000E+000	0.0000000E+000	0.0000000E+000	3.8486374E+001	1.2577862E+000	5.1513626E+001	-7.123190592008422E-007	-2.7727028E-006	2.6652402E+004
1.0003201E+002	5.5900402E+000	4.3788762E+000	7.1009231E+000	-3.8072853E+001	1.096968086771813E+001	2.7185762E-001	-9.5257973E-003	3.6334439E+002	1.3817014E+002	1.000000000000000E+000	10	4.7399336E-003	6.6750951E-004	0	1.150432157209737E-004	1.1086267E-001	8.6842649E-002	1.4082676E-001	3.8072853E+001	1.3817013E+005	1.7638695E+005	2.2406102E+005	-5.1927147E+001	0.0000000E+000	0.0000000E+000	0.0000000E+000	5.1927147E+001	0.0000000E+000	0.0000000E+000	0.0000000E+000	-5.1927147E+001	0.0000000E+000	0.0000000E+000	0.0000000E+000	-3.8072853E+001	0.0000000E+000	0.0000000E+000	0.0000000E+000	3.8072853E+001	1.2765924E+000	5.1927155E+001	-3.562043421997176E-007	-2.5896607E-006	2.8539094E+004
6.8103981E+001	6.8378983E+000	5.1072259E+000	8.5346708E+000	-3.6756050E+001	1.144731675702496E+001	2.7185768E-001	-6.8435501E-003	4.5757529E+002	1.6385478E+002	1.000000000000000E+000	10	4.7426741E-003	5.5569503E-004	0	1.147350981289674E-004	9.3874812E-002	7.0115089E-002	1.1716913E-001	3.6756050E+001	1.6385478E+005	2.1937984E+005	2.7381728E+005	-5.3243950E+001	0.0000000E+000	0.0000000E+000	0.0000000E+000	5.3243950E+001	0.0000000E+000	0.0000000E+000	0.0000000E+000	-5.3243950E+001	0.0000000E+000	0.0000000E+000	0.0000000E+000	-3.6756050E+001	0.0000000E+000	0.0000000E+000	0.0000000E+000	3.6756050E+001	1.3388674E+000	5.3243950E+001	-3.081175920063611E-007	-1.8604717E-006	3.9724656E+004
4.6441547E+001	8.3427706E+000	5.6911297E+000	1.0099049E+001	-3.4300362E+001	1.190254904530593E+001	2.7184579E-001	-1.1534227E-002	6.0216425E+002	1.9122780E+002	1.000000000000000E+000	10	4.7372542E-003	4.6907924E-004	0	1.135994089747680E-004	8.1799261E-002	5.5800430E-002	9.9019229E-002	3.4300362E+001	1.9122778E+005	2.8032566E+005	3.3933838E+005	-5.5699638E+001	0.0000000E+000	0.0000000E+000	0.0000000E+000	5.5699638E+001	0.0000000E+000	0.0000000E+000	0.0000000E+000	-5.5699638E+001	0.0000000E+000	0.0000000E+000	0.0000000E+000	-3.4300362E+001	0.0000000E+000	0.0000000E+000	0.0000000E+000	3.4300362E+001	1.4659252E+000	5.5699638E+001	-1.135689154199400E-006	-3.1355310E-006	2.3568617E+004
3.1629555E+001	1.0068470E+001	6.0768414E+000	1.1760191E+001	-3.1113148E+001	1.234944213318522E+001	2.7184287E-001	-1.4032199E-002	8.2803583E+002	2.2109361E+002	1.000000000000000E+000	10	4.7371979E-003	4.0281640E-004	0	1.119844122282379E-004	7.2800562E-002	4.3938898E-002	8.5032634E-002	3.1113148E+001	2.2109359E+005	3.6632097E+005	4.2787081E+005	-5.8886852E+001	0.0000000E+000	0.0000000E+000	0.0000000E+000	5.8886852E+001	0.0000000E+000	0.0000000E+000	0.0000000E+000	-5.8886852E+001	0.0000000E+000	0.0000000E+000	0.0000000E+000	-3.1113148E+001	0.0000000E+000	0.0000000E+000	0.0000000E+000	3.1113148E+001	1.6568592E+000	5.8886856E+001	-1.614996746530069E-006	-3.8145531E-006	1.9372791E+004
2.1551722E+001	1.1863712E+001	6.1859651E+000	1.3379605E+001	-2.7538393E+001	1.278833063403727E+001	2.7182895E-001	-1.6465025E-002	1.1937976E+003	2.5518727E+002	1.000000000000000E+000	10	4.7375457E-003	3.5408710E-004	0	1.100183176985694E-004	6.6272601E-002	3.4555793E-002	7.4740618E-002	2.7538393E+001	2.5518728E+005	4.8940925E+005	5.5194381E+005	-6.2461609E+001	0.0000000E+000	0.0000000E+000	0.0000000E+000	6.2461609E+001	0.0000000E+000	0.0000000E+000	0.0000000E+000	-6.2461609E+001	0.0000000E+000	0.0000000E+000	0.0000000E+000	-2.7538393E+001	0.0000000E+000	0.0000000E+000	0.0000000E+000	2.7538393E+001	1.9178435E+000	6.2461609E+001	-1.966094529668531E-006	-4.4756703E-006	1.6509477E+004
1.4685154E+001	1.3672898E+001	6.1001086E+000	1.4971956E+001	-2.4043846E+001	1.352604160245392E+001	2.7187458E-001	-2.8597424E-003	1.7766589E+003	2.9493213E+002	1.000000000000000E+000	11	4.7356524E-003	3.1630151E-004	0	1.123546194556729E-004	6.0996301E-002	2.7213253E-002	6.6791542E-002	2.4043846E+001	2.9493213E+005	6.6106650E+005	7.2387419E+005	-6.5956154E+001	0.0000000E+000	0.0000000E+000	0.0000000E+000	6.5956154E+001	0.0000000E+000	0.0000000E+000	0.0000000E+000	-6.5956154E+001	0.0000000E+000	0.0000000E+000	0.0000000E+000	-2.4043846E+001	0.0000000E+000	0.0000000E+000	0.0000000E+000	2.4043846E+001	2.2414188E+000	6.5956154E+001	2.336301757103584E-006	-7.7749127E-007	9.5069602E+004
