EC-Lab ASCII FILE

Nb header lines : 63                          

Potentio Electrochemical Impedance Spectroscopy

Run on channel : 1 (SN 66354)
User : 
CE vs. WE compliance from -10 V to 10 V
Electrode connection : standard
Potential control : Ewe
Ewe ctrl range : min = -10.00 V, max = 10.00 V
Safety Limits :
	Do not start on E overload
Acquisition started on : 09/22/2025 10:02:39.571
Loaded Setting File :  C:\Users\Celltest\OneDrive - store-dot.com\Documents\EC-Lab\Data\txt_done\14380_R229_UA592_SOC00_C01.mpr
Saved on :
	File : 17702_R287_UA661_SOC00_C01.mpr
	Directory : C:\Users\Celltest\OneDrive - store-dot.com\Documents\EC-Lab\Data\Charmaine\
	Host : 169.254.61.224
Device : VMP-3e (SN .003165)
Address : USB
EC-LAB for windows v11.62 (software)
Internet server v27.00 (firmware)
Command interpretor v12.03 (firmware)
Electrode material : 
Initial state : 
Electrolyte : 
Comments : 
Electrode surface area : 0.001 cm²
Characteristic mass : 0.001 g
Equivalent Weight : 0.000 g/eq.
Density : 0.000 g/cm3
Volume (V) : 0.001 cm³
Cycle Definition : Charge/Discharge alternance
Mode                Single sine         
E (V)               0.0000              
vs.                 Eoc                 
tE (h:m:s)          0:00:0.0000         
record              0                   
dI                  0.000               
unit dI             mA                  
dt (s)              0.000               
fi                  100.000             
unit fi             kHz                 
ff                  10.000              
unit ff             mHz                 
Nd                  6                   
Points              per decade          
spacing             Logarithmic         
Va (mV)             5.0                 
pw                  0.10                
Na                  2                   
corr                0                   
E range min (V)     -10.000             
E range max (V)     10.000              
I Range             Auto                
Bandwidth           5                   
nc cycles           0                   
goto Ns'            0                   
nr cycles           0                   
inc. cycle          0                   

freq/Hz	Re(Z)/Ohm	-Im(Z)/Ohm	|Z|/Ohm	Phase(Z)/deg	time/s	<Ewe>/V	<I>/mA	Cs/µF	Cp/µF	cycle number	I Range	|Ewe|/V	|I|/A	Ns	(Q-Qo)/mA.h	Re(Y)/Ohm-1	Im(Y)/Ohm-1	|Y|/Ohm-1	Phase(Y)/deg	Re(C)/nF	Im(C)/nF	|C|/nF	Phase(C)/deg	Re(M)	Im(M)	|M|	Phase(M)/deg	Re(Permittivity)	Im(Permittivity)	|Permittivity|	Phase(Permittivity)/deg	Re(Resistivity)/Ohm.cm	Im(Resistivity)/Ohm.cm	|Resistivity|/Ohm.cm	Phase(Resistivity)/deg	Re(Conductivity)/mS/cm	Im(Conductivity)/mS/cm	|Conductivity|/mS/cm	Phase(Conductivity)/deg	Tan(Delta)	Loss Angle(Delta)/deg	dq/mA.h	Pwe/W	Rwe/Ohm	
1.0000371E+005	1.2363423E+000	2.3149414E-001	1.2578282E+000	-1.0605327E+001	2.068490418227157E+000	2.7328798E-001	7.6813899E-002	6.8748622E+000	2.3286346E-001	1.000000000000000E+000	9	4.7468864E-003	3.7738751E-003	0	1.657638676499482E-005	7.8144073E-001	1.4631785E-001	7.9502112E-001	1.0605327E+001	2.3286339E+002	1.2436554E+003	1.2652684E+003	-7.9394676E+001	0.0000000E+000	0.0000000E+000	0.0000000E+000	7.9394676E+001	0.0000000E+000	0.0000000E+000	0.0000000E+000	-7.9394676E+001	0.0000000E+000	0.0000000E+000	0.0000000E+000	-1.0605327E+001	0.0000000E+000	0.0000000E+000	0.0000000E+000	1.0605327E+001	5.3407068E+000	7.9394676E+001	1.657638676499482E-005	2.0992315E-005	3.5577935E+003
6.8132047E+004	1.2900728E+000	2.5165999E-001	1.3143898E+000	-1.1038308E+001	2.646481458999915E+000	2.7329507E-001	7.7912897E-002	9.2822762E+000	3.4027848E-001	1.000000000000000E+000	9	5.0446037E-003	3.8379815E-003	0	2.945336312580750E-005	7.4673384E-001	1.4566857E-001	7.6080930E-001	1.1038308E+001	3.4027850E+002	1.7443538E+003	1.7772336E+003	-7.8961693E+001	0.0000000E+000	0.0000000E+000	0.0000000E+000	7.8961693E+001	0.0000000E+000	0.0000000E+000	0.0000000E+000	-7.8961693E+001	0.0000000E+000	0.0000000E+000	0.0000000E+000	-1.1038308E+001	0.0000000E+000	0.0000000E+000	0.0000000E+000	1.1038308E+001	5.1262531E+000	7.8961693E+001	1.287697636081268E-005	2.1293212E-005	3.5077002E+003
4.6420355E+004	1.3509337E+000	2.7488002E-001	1.3786155E+000	-1.1501200E+001	3.224475806433475E+000	2.7329835E-001	7.8248180E-002	1.2472931E+001	4.9587080E-001	1.000000000000000E+000	9	5.0079091E-003	3.6325641E-003	0	5.211152402697028E-005	7.1080047E-001	1.4462948E-001	7.2536540E-001	1.1501200E+001	4.9587073E+002	2.4370217E+003	2.4869585E+003	-7.8498802E+001	0.0000000E+000	0.0000000E+000	0.0000000E+000	7.8498802E+001	0.0000000E+000	0.0000000E+000	0.0000000E+000	-7.8498802E+001	0.0000000E+000	0.0000000E+000	0.0000000E+000	-1.1501200E+001	0.0000000E+000	0.0000000E+000	0.0000000E+000	1.1501200E+001	4.9146304E+000	7.8498802E+001	2.265816090116277E-005	2.1385098E-005	3.4927119E+003
3.1621139E+004	1.4122403E+000	3.0917755E-001	1.4456879E+000	-1.2348765E+001	3.802495380601613E+000	2.7329096E-001	8.4898084E-002	1.6279261E+001	7.4456310E-001	1.000000000000000E+000	9	5.0346232E-003	3.4825106E-003	0	5.266332212636351E-005	6.7570877E-001	1.4793089E-001	6.9171226E-001	1.2348765E+001	7.4456287E+002	3.4009648E+003	3.4815134E+003	-7.7651237E+001	0.0000000E+000	0.0000000E+000	0.0000000E+000	7.7651237E+001	0.0000000E+000	0.0000000E+000	0.0000000E+000	-7.7651237E+001	0.0000000E+000	0.0000000E+000	0.0000000E+000	-1.2348765E+001	0.0000000E+000	0.0000000E+000	0.0000000E+000	1.2348765E+001	4.5677323E+000	7.7651237E+001	5.517980993932295E-007	2.3201879E-005	3.2190474E+003
2.1544684E+004	1.4832939E+000	3.5025358E-001	1.5240861E+000	-1.3286015E+001	4.239482734672492E+000	2.7328563E-001	8.1917733E-002	2.1091013E+001	1.1138933E+000	1.000000000000000E+000	9	5.3127808E-003	3.4858796E-003	0	6.134534161328339E-005	6.3856959E-001	1.5078688E-001	6.5613091E-001	1.3286015E+001	1.1138929E+003	4.7172432E+003	4.8469722E+003	-7.6713989E+001	0.0000000E+000	0.0000000E+000	0.0000000E+000	7.6713989E+001	0.0000000E+000	0.0000000E+000	0.0000000E+000	-7.6713989E+001	0.0000000E+000	0.0000000E+000	0.0000000E+000	-1.3286015E+001	0.0000000E+000	0.0000000E+000	0.0000000E+000	1.3286015E+001	4.2349143E+000	7.6713989E+001	8.682019486919879E-006	2.2386939E-005	3.3360986E+003
1.4678594E+004	1.5520090E+000	3.8831699E-001	1.5998507E+000	-1.4047179E+001	4.535476162069244E+000	2.7329847E-001	7.6478593E-002	2.7922176E+001	1.6449896E+000	1.000000000000000E+000	9	4.6640062E-003	2.9152760E-003	0	6.974869013467752E-005	6.0636675E-001	1.5171465E-001	6.2505835E-001	1.4047179E+001	1.6449899E+003	6.5746255E+003	6.7772925E+003	-7.5952820E+001	0.0000000E+000	0.0000000E+000	0.0000000E+000	7.5952820E+001	0.0000000E+000	0.0000000E+000	0.0000000E+000	-7.5952820E+001	0.0000000E+000	0.0000000E+000	0.0000000E+000	-1.4047179E+001	0.0000000E+000	0.0000000E+000	0.0000000E+000	1.4047179E+001	3.9967580E+000	7.5952820E+001	8.403348521394139E-006	2.0901483E-005	3.5735291E+003
1.0002226E+004	1.6317929E+000	4.4902354E-001	1.6924450E+000	-1.5385407E+001	4.972496929491172E+000	2.7328679E-001	7.6962896E-002	3.5436790E+001	2.4943848E+000	1.000000000000000E+000	9	4.8790239E-003	2.8828257E-003	0	7.651591677857666E-005	5.6968647E-001	1.5676171E-001	5.9086114E-001	1.5385407E+001	2.4943848E+003	9.0648242E+003	9.4017549E+003	-7.4614594E+001	0.0000000E+000	0.0000000E+000	0.0000000E+000	7.4614594E+001	0.0000000E+000	0.0000000E+000	0.0000000E+000	-7.4614594E+001	0.0000000E+000	0.0000000E+000	0.0000000E+000	-1.5385407E+001	0.0000000E+000	0.0000000E+000	0.0000000E+000	1.5385407E+001	3.6340921E+000	7.4614594E+001	6.767226643899135E-006	2.1032944E-005	3.5508901E+003
6.8110674E+003	1.7249137E+000	5.3243065E-001	1.8052174E+000	-1.7153934E+001	5.352498174208449E+000	2.7308932E-001	-3.8451046E-002	4.3887608E+001	3.8177631E+000	1.000000000000000E+000	9	4.6171369E-003	2.5576625E-003	0	7.441496066010505E-005	5.2930790E-001	1.6338193E-001	5.5394989E-001	1.7153934E+001	3.8177627E+003	1.2368396E+004	1.2944208E+004	-7.2846069E+001	0.0000000E+000	0.0000000E+000	0.0000000E+000	7.2846069E+001	0.0000000E+000	0.0000000E+000	0.0000000E+000	-7.2846069E+001	0.0000000E+000	0.0000000E+000	0.0000000E+000	-1.7153934E+001	0.0000000E+000	0.0000000E+000	0.0000000E+000	1.7153934E+001	3.2396965E+000	7.2846069E+001	-2.100956118471610E-006	-1.0500570E-005	7.1022598E+003
4.6414854E+003	1.8217260E+000	6.3221574E-001	1.9283108E+000	-1.9138931E+001	6.046687887224834E+000	2.7327442E-001	1.0549971E-001	5.4237274E+001	5.8300786E+000	1.000000000000000E+000	9	4.9958625E-003	2.5907974E-003	0	9.165239087343474E-005	4.8992431E-001	1.7002441E-001	5.1858860E-001	1.9138931E+001	5.8300791E+003	1.6799338E+004	1.7782227E+004	-7.0861069E+001	0.0000000E+000	0.0000000E+000	0.0000000E+000	7.0861069E+001	0.0000000E+000	0.0000000E+000	0.0000000E+000	-7.0861069E+001	0.0000000E+000	0.0000000E+000	0.0000000E+000	-1.9138931E+001	0.0000000E+000	0.0000000E+000	0.0000000E+000	1.9138931E+001	2.8814943E+000	7.0861069E+001	1.723743021332969E-005	2.8830373E-005	2.5902859E+003
3.1610117E+003	1.9430609E+000	7.6590919E-001	2.0885646E+000	-2.1513201E+001	6.513674949404958E+000	2.7329385E-001	1.0754871E-001	6.5738037E+001	8.8404722E+000	1.000000000000000E+000	9	4.9217264E-003	2.3565115E-003	0	1.065636342844357E-004	4.4544140E-001	1.7558259E-001	4.7879773E-001	2.1513201E+001	8.8404717E+003	2.2427691E+004	2.4107162E+004	-6.8486801E+001	0.0000000E+000	0.0000000E+000	0.0000000E+000	6.8486801E+001	0.0000000E+000	0.0000000E+000	0.0000000E+000	-6.8486801E+001	0.0000000E+000	0.0000000E+000	0.0000000E+000	-2.1513201E+001	0.0000000E+000	0.0000000E+000	0.0000000E+000	2.1513201E+001	2.5369337E+000	6.8486801E+001	1.491124341100093E-005	2.9392400E-005	2.5411172E+003
2.1556899E+003	2.0839381E+000	9.3673235E-001	2.2847900E+000	-2.4203968E+001	6.980680758257222E+000	2.7328402E-001	1.0015371E-001	7.8816711E+001	1.3248197E+001	1.000000000000000E+000	9	4.8838104E-003	2.1375313E-003	0	1.172859969921539E-004	3.9920154E-001	1.7944151E-001	4.3767697E-001	2.4203968E+001	1.3248194E+004	2.9473115E+004	3.2313762E+004	-6.5796036E+001	0.0000000E+000	0.0000000E+000	0.0000000E+000	6.5796036E+001	0.0000000E+000	0.0000000E+000	0.0000000E+000	-6.5796036E+001	0.0000000E+000	0.0000000E+000	0.0000000E+000	-2.4203968E+001	0.0000000E+000	0.0000000E+000	0.0000000E+000	2.4203968E+001	2.2246890E+000	6.5796036E+001	1.072236270771827E-005	2.7370410E-005	2.7286458E+003
1.4685898E+003	2.2524178E+000	1.1699510E+000	2.5381432E+000	-2.7448269E+001	7.447969420434674E+000	2.7328184E-001	1.0354384E-001	9.2630058E+001	1.9681358E+001	1.000000000000000E+000	9	4.8535075E-003	1.9122276E-003	0	1.306538800998306E-004	3.4963647E-001	1.8160819E-001	3.9398882E-001	2.7448269E+001	1.9681357E+004	3.7891023E+004	4.2697605E+004	-6.2551731E+001	0.0000000E+000	0.0000000E+000	0.0000000E+000	6.2551731E+001	0.0000000E+000	0.0000000E+000	0.0000000E+000	-6.2551731E+001	0.0000000E+000	0.0000000E+000	0.0000000E+000	-2.7448269E+001	0.0000000E+000	0.0000000E+000	0.0000000E+000	2.7448269E+001	1.9252241E+000	6.2551727E+001	1.336788310767669E-005	2.8296652E-005	2.6392864E+003
1.0003202E+003	2.4603326E+000	1.4603870E+000	2.8611128E+000	-3.0692223E+001	7.916713656042703E+000	2.7327371E-001	1.0190465E-001	1.0894646E+002	2.8384357E+001	1.000000000000000E+000	9	4.8408336E-003	1.6919408E-003	0	1.435898274135220E-004	3.0055493E-001	1.7840129E-001	3.4951437E-001	3.0692223E+001	2.8384357E+004	4.7819492E+004	5.5609133E+004	-5.9307777E+001	0.0000000E+000	0.0000000E+000	0.0000000E+000	5.9307777E+001	0.0000000E+000	0.0000000E+000	0.0000000E+000	-5.9307777E+001	0.0000000E+000	0.0000000E+000	0.0000000E+000	-3.0692223E+001	0.0000000E+000	0.0000000E+000	0.0000000E+000	3.0692223E+001	1.6847128E+000	5.9307777E+001	1.293594731369133E-005	2.7847862E-005	2.6816606E+003
6.8108978E+002	2.7497306E+000	1.8519756E+000	3.3152423E+000	-3.3960724E+001	8.636423556861700E+000	2.7326167E-001	-1.1108573E-002	1.2617709E+002	3.9374992E+001	1.000000000000000E+000	10	4.9224156E-003	1.4847830E-003	0	1.492280349614448E-004	2.5018403E-001	1.6850185E-001	3.0163708E-001	3.3960724E+001	3.9374992E+004	5.8462230E+004	7.0485617E+004	-5.6039276E+001	0.0000000E+000	0.0000000E+000	0.0000000E+000	5.6039276E+001	0.0000000E+000	0.0000000E+000	0.0000000E+000	-5.6039276E+001	0.0000000E+000	0.0000000E+000	0.0000000E+000	-3.3960724E+001	0.0000000E+000	0.0000000E+000	0.0000000E+000	3.3960724E+001	1.4847553E+000	5.6039276E+001	5.638207547922834E-006	-3.0355470E-006	2.4599170E+004
4.6396069E+002	3.1101439E+000	2.3342173E+000	3.8886456E+000	-3.6888866E+001	9.105193845782196E+000	2.7325881E-001	-1.0337099E-002	1.4695949E+002	5.2952133E+001	1.000000000000000E+000	10	4.8738113E-003	1.2533441E-003	0	1.474895340929248E-004	2.0567605E-001	1.5436347E-001	2.5715894E-001	3.6888866E+001	5.2952133E+004	7.0554164E+004	8.8214617E+004	-5.3111134E+001	0.0000000E+000	0.0000000E+000	0.0000000E+000	5.3111134E+001	0.0000000E+000	0.0000000E+000	0.0000000E+000	-5.3111134E+001	0.0000000E+000	0.0000000E+000	0.0000000E+000	-3.6888866E+001	0.0000000E+000	0.0000000E+000	0.0000000E+000	3.6888866E+001	1.3324140E+000	5.3111130E+001	-1.738500868520015E-006	-2.8247032E-006	2.6434768E+004
3.1631589E+002	3.5862384E+000	2.9199934E+000	4.6246586E+000	-3.9153233E+001	9.570907723973505E+000	2.7325612E-001	-1.1512955E-002	1.7231270E+002	6.8694450E+001	1.000000000000000E+000	10	4.8353584E-003	1.0455601E-003	0	1.459667903723667E-004	1.6767943E-001	1.3652825E-001	2.1623218E-001	3.9153233E+001	6.8694453E+004	8.4368234E+004	1.0879764E+005	-5.0846767E+001	0.0000000E+000	0.0000000E+000	0.0000000E+000	5.0846767E+001	0.0000000E+000	0.0000000E+000	0.0000000E+000	-5.0846767E+001	0.0000000E+000	0.0000000E+000	0.0000000E+000	-3.9153233E+001	0.0000000E+000	0.0000000E+000	0.0000000E+000	3.9153233E+001	1.2281666E+000	5.0846771E+001	-1.522743720558042E-006	-3.1459854E-006	2.3734664E+004
2.1534457E+002	4.2348499E+000	3.6686368E+000	5.6029325E+000	-4.0902279E+001	1.003845297280350E+001	2.7326021E-001	-1.1533450E-002	2.0145660E+002	8.6369453E+001	1.000000000000000E+000	10	4.8375828E-003	8.6340198E-004	0	1.452594707887684E-004	1.3489854E-001	1.1686218E-001	1.7847797E-001	4.0902279E+001	8.6369453E+004	9.9699617E+004	1.3190791E+005	-4.9097721E+001	0.0000000E+000	0.0000000E+000	0.0000000E+000	4.9097721E+001	0.0000000E+000	0.0000000E+000	0.0000000E+000	-4.9097721E+001	0.0000000E+000	0.0000000E+000	0.0000000E+000	-4.0902279E+001	0.0000000E+000	0.0000000E+000	0.0000000E+000	4.0902279E+001	1.1543388E+000	4.9097717E+001	-7.073195835982920E-007	-3.1516331E-006	2.3692842E+004
1.4673740E+002	5.0671391E+000	4.5257940E+000	6.7940202E+000	-4.1770126E+001	1.050136814147118E+001	2.7325323E-001	-1.1673221E-002	2.3965392E+002	1.0634583E+002	1.000000000000000E+000	10	4.8182681E-003	7.0919248E-004	0	1.439225336221150E-004	1.0977645E-001	9.8048531E-002	1.4718826E-001	4.1770126E+001	1.0634581E+005	1.1906620E+005	1.5964395E+005	-4.8229874E+001	0.0000000E+000	0.0000000E+000	0.0000000E+000	4.8229874E+001	0.0000000E+000	0.0000000E+000	0.0000000E+000	-4.8229874E+001	0.0000000E+000	0.0000000E+000	0.0000000E+000	-4.1770126E+001	0.0000000E+000	0.0000000E+000	0.0000000E+000	4.1770126E+001	1.1196133E+000	4.8229874E+001	-1.336937166653419E-006	-3.1897455E-006	2.3408555E+004
1.0003201E+002	6.1834450E+000	5.5378189E+000	8.3007488E+000	-4.1847240E+001	1.096969667042140E+001	2.7324668E-001	-1.0761986E-002	2.8730447E+002	1.2787491E+002	1.000000000000000E+000	10	4.8163971E-003	5.8023643E-004	0	1.425450484608947E-004	8.9742050E-002	8.0371894E-002	1.2047106E-001	4.1847240E+001	1.2787490E+005	1.4278319E+005	1.9167428E+005	-4.8152760E+001	0.0000000E+000	0.0000000E+000	0.0000000E+000	4.8152760E+001	0.0000000E+000	0.0000000E+000	0.0000000E+000	-4.8152760E+001	0.0000000E+000	0.0000000E+000	0.0000000E+000	-4.1847240E+001	0.0000000E+000	0.0000000E+000	0.0000000E+000	4.1847240E+001	1.1165849E+000	4.8152756E+001	-1.377485161220359E-006	-2.9406767E-006	2.5389986E+004
6.8103981E+001	7.6744170E+000	6.6276011E+000	1.0140107E+001	-4.0813782E+001	1.144834791976609E+001	2.7326682E-001	-8.5593676E-003	3.5260727E+002	1.5063257E+002	1.000000000000000E+000	10	4.8131114E-003	4.7466080E-004	0	1.415850612241581E-004	7.4638054E-002	6.4457171E-002	9.8618284E-002	4.0813782E+001	1.5063258E+005	1.7442469E+005	2.3046506E+005	-4.9186218E+001	0.0000000E+000	0.0000000E+000	0.0000000E+000	4.9186218E+001	0.0000000E+000	0.0000000E+000	0.0000000E+000	-4.9186218E+001	0.0000000E+000	0.0000000E+000	0.0000000E+000	-4.0813782E+001	0.0000000E+000	0.0000000E+000	0.0000000E+000	4.0813782E+001	1.1579479E+000	4.9186218E+001	-9.599872367365900E-007	-2.3389912E-006	3.1926053E+004
4.6441547E+001	9.5885830E+000	7.6698947E+000	1.2278770E+001	-3.8656269E+001	1.190355780805112E+001	2.7324510E-001	-1.4347307E-002	4.4681119E+002	1.7433842E+002	1.000000000000000E+000	10	4.8100296E-003	3.9173543E-004	0	1.401985285616457E-004	6.3598178E-002	5.0872099E-002	8.1441380E-002	3.8656269E+001	1.7433842E+005	2.1795063E+005	2.7909919E+005	-5.1343731E+001	0.0000000E+000	0.0000000E+000	0.0000000E+000	5.1343731E+001	0.0000000E+000	0.0000000E+000	0.0000000E+000	-5.1343731E+001	0.0000000E+000	0.0000000E+000	0.0000000E+000	-3.8656269E+001	0.0000000E+000	0.0000000E+000	0.0000000E+000	3.8656269E+001	1.2501583E+000	5.1343735E+001	-1.386532662512354E-006	-3.9203314E-006	1.9045043E+004
3.1629555E+001	1.1893693E+001	8.5180912E+000	1.4629348E+001	-3.5609692E+001	1.235045086927130E+001	2.7324027E-001	-1.6337495E-002	5.9072418E+002	2.0027161E+002	1.000000000000000E+000	10	4.8111002E-003	3.2886636E-004	0	1.383800415729933E-004	5.5573378E-002	3.9800853E-002	6.8355747E-002	3.5609692E+001	2.0027161E+005	2.7963647E+005	3.4395534E+005	-5.4390308E+001	0.0000000E+000	0.0000000E+000	0.0000000E+000	5.4390308E+001	0.0000000E+000	0.0000000E+000	0.0000000E+000	-5.4390308E+001	0.0000000E+000	0.0000000E+000	0.0000000E+000	-3.5609692E+001	0.0000000E+000	0.0000000E+000	0.0000000E+000	3.5609692E+001	1.3962861E+000	5.4390305E+001	-1.818486988652395E-006	-4.4640615E-006	1.6724734E+004
2.1551722E+001	1.4586547E+001	9.0067654E+000	1.7143196E+001	-3.1694117E+001	1.303035372824525E+001	2.7327862E-001	-5.0768508E-003	8.1991583E+002	2.2632025E+002	1.000000000000000E+000	11	4.8134695E-003	2.8078016E-004	0	1.369164142240455E-004	4.9632814E-002	3.0646810E-002	5.8332179E-002	3.1694117E+001	2.2632025E+005	3.6652791E+005	4.3077091E+005	-5.8305885E+001	0.0000000E+000	0.0000000E+000	0.0000000E+000	5.8305885E+001	0.0000000E+000	0.0000000E+000	0.0000000E+000	-5.8305885E+001	0.0000000E+000	0.0000000E+000	0.0000000E+000	-3.1694117E+001	0.0000000E+000	0.0000000E+000	0.0000000E+000	3.1694117E+001	1.6195101E+000	5.8305885E+001	-1.463627348947851E-006	-1.3873948E-006	5.3828375E+004
1.4685154E+001	1.7243853E+001	9.0757227E+000	1.9486385E+001	-2.7758568E+001	1.350803353762603E+001	2.7329227E-001	-4.0646922E-003	1.1941542E+003	2.5903607E+002	1.000000000000000E+000	11	4.8116660E-003	2.4692449E-004	0	1.367416967162515E-004	4.5412116E-002	2.3901142E-002	5.1317882E-002	2.7758568E+001	2.5903609E+005	4.9216800E+005	5.5617356E+005	-6.2241432E+001	0.0000000E+000	0.0000000E+000	0.0000000E+000	6.2241432E+001	0.0000000E+000	0.0000000E+000	0.0000000E+000	-6.2241432E+001	0.0000000E+000	0.0000000E+000	0.0000000E+000	-2.7758568E+001	0.0000000E+000	0.0000000E+000	0.0000000E+000	2.7758568E+001	1.8999977E+000	6.2241432E+001	-1.747175077939853E-007	-1.1108490E-006	6.7235664E+004
