EC-Lab ASCII FILE

Nb header lines : 63                          

Potentio Electrochemical Impedance Spectroscopy

Run on channel : 6 (SN 65795)
User : 
CE vs. WE compliance from -10 V to 10 V
Electrode connection : standard
Potential control : Ewe
Ewe ctrl range : min = -10.00 V, max = 10.00 V
Safety Limits :
	Do not start on E overload
Acquisition started on : 09/22/2025 10:03:34.717
Loaded Setting File :  C:\Users\Celltest\OneDrive - store-dot.com\Documents\EC-Lab\Data\Charmaine\17689_R288_UA670_SOC00_C04.mpr
Saved on :
	File : 17707_R287_UA662_SOC00_C06.mpr
	Directory : C:\Users\Celltest\OneDrive - store-dot.com\Documents\EC-Lab\Data\Charmaine\
	Host : 169.254.61.224
Device : VMP-3e (SN .003165)
Address : USB
EC-LAB for windows v11.62 (software)
Internet server v27.00 (firmware)
Command interpretor v12.03 (firmware)
Electrode material : 
Initial state : 
Electrolyte : 
Comments : 
Electrode surface area : 0.001 cm²
Characteristic mass : 0.001 g
Equivalent Weight : 0.000 g/eq.
Density : 0.000 g/cm3
Volume (V) : 0.001 cm³
Cycle Definition : Charge/Discharge alternance
Mode                Single sine         
E (V)               0.0000              
vs.                 Eoc                 
tE (h:m:s)          0:00:0.0000         
record              0                   
dI                  0.000               
unit dI             mA                  
dt (s)              0.000               
fi                  100.000             
unit fi             kHz                 
ff                  10.000              
unit ff             mHz                 
Nd                  6                   
Points              per decade          
spacing             Logarithmic         
Va (mV)             5.0                 
pw                  0.10                
Na                  2                   
corr                0                   
E range min (V)     -10.000             
E range max (V)     10.000              
I Range             Auto                
Bandwidth           5                   
nc cycles           0                   
goto Ns'            0                   
nr cycles           0                   
inc. cycle          0                   

freq/Hz	Re(Z)/Ohm	-Im(Z)/Ohm	|Z|/Ohm	Phase(Z)/deg	time/s	<Ewe>/V	<I>/mA	Cs/µF	Cp/µF	cycle number	I Range	|Ewe|/V	|I|/A	Ns	(Q-Qo)/mA.h	Re(Y)/Ohm-1	Im(Y)/Ohm-1	|Y|/Ohm-1	Phase(Y)/deg	Re(C)/nF	Im(C)/nF	|C|/nF	Phase(C)/deg	Re(M)	Im(M)	|M|	Phase(M)/deg	Re(Permittivity)	Im(Permittivity)	|Permittivity|	Phase(Permittivity)/deg	Re(Resistivity)/Ohm.cm	Im(Resistivity)/Ohm.cm	|Resistivity|/Ohm.cm	Phase(Resistivity)/deg	Re(Conductivity)/mS/cm	Im(Conductivity)/mS/cm	|Conductivity|/mS/cm	Phase(Conductivity)/deg	Tan(Delta)	Loss Angle(Delta)/deg	dq/mA.h	Pwe/W	Rwe/Ohm	
1.0000371E+005	1.2131220E+000	2.4218883E-001	1.2370613E+000	-1.1290150E+001	1.864497395203216E+000	2.6953012E-001	2.2752920E-002	6.5712790E+000	2.5186956E-001	1.000000000000000E+000	9	4.6066348E-003	3.7238533E-003	0	-3.868175571266976E-006	7.9272419E-001	1.5826020E-001	8.0836743E-001	1.1290150E+001	2.5186948E+002	1.2616128E+003	1.2865089E+003	-7.8709854E+001	0.0000000E+000	0.0000000E+000	0.0000000E+000	7.8709854E+001	0.0000000E+000	0.0000000E+000	0.0000000E+000	-7.8709854E+001	0.0000000E+000	0.0000000E+000	0.0000000E+000	-1.1290150E+001	0.0000000E+000	0.0000000E+000	0.0000000E+000	1.1290150E+001	5.0089927E+000	7.8709854E+001	-3.868175571266976E-006	6.1325973E-006	1.1845957E+004
6.8132047E+004	1.2702596E+000	2.6406664E-001	1.2974169E+000	-1.1743612E+001	2.301484562602127E+000	2.6953343E-001	2.5081104E-002	8.8461676E+000	3.6645707E-001	1.000000000000000E+000	9	5.4927319E-003	4.2335903E-003	0	6.015169815263814E-006	7.5462878E-001	1.5687525E-001	7.7076226E-001	1.1743612E+001	3.6645715E+002	1.7627961E+003	1.8004835E+003	-7.8256386E+001	0.0000000E+000	0.0000000E+000	0.0000000E+000	7.8256386E+001	0.0000000E+000	0.0000000E+000	0.0000000E+000	-7.8256386E+001	0.0000000E+000	0.0000000E+000	0.0000000E+000	-1.1743612E+001	0.0000000E+000	0.0000000E+000	0.0000000E+000	1.1743612E+001	4.8103752E+000	7.8256386E+001	9.883345386530791E-006	6.7601959E-006	1.0746474E+004
4.6420355E+004	1.3317847E+000	2.9214522E-001	1.3634512E+000	-1.2372640E+001	2.879486243386054E+000	2.6953584E-001	2.8657038E-002	1.1735805E+001	5.3880453E-001	1.000000000000000E+000	9	5.0594392E-003	3.7107593E-003	0	5.808196973773496E-006	7.1639872E-001	1.5715186E-001	7.3343289E-001	1.2372640E+001	5.3880463E+002	2.4562153E+003	2.5146182E+003	-7.7627357E+001	0.0000000E+000	0.0000000E+000	0.0000000E+000	7.7627357E+001	0.0000000E+000	0.0000000E+000	0.0000000E+000	-7.7627357E+001	0.0000000E+000	0.0000000E+000	0.0000000E+000	-1.2372640E+001	0.0000000E+000	0.0000000E+000	0.0000000E+000	1.2372640E+001	4.5586395E+000	7.7627357E+001	-2.069728414903185E-007	7.7240984E-006	9.4055723E+003
3.1621139E+004	1.3958256E+000	3.3038509E-001	1.4343930E+000	-1.3316556E+001	3.316480264154961E+000	2.6953346E-001	2.8452173E-002	1.5234289E+001	8.0821466E-001	1.000000000000000E+000	9	5.5055725E-003	3.8382593E-003	0	4.490201816609543E-006	6.7841405E-001	1.6057728E-001	6.9715899E-001	1.3316556E+001	8.0821490E+002	3.4145813E+003	3.5089282E+003	-7.6683441E+001	0.0000000E+000	0.0000000E+000	0.0000000E+000	7.6683441E+001	0.0000000E+000	0.0000000E+000	0.0000000E+000	-7.6683441E+001	0.0000000E+000	0.0000000E+000	0.0000000E+000	-1.3316556E+001	0.0000000E+000	0.0000000E+000	0.0000000E+000	1.3316556E+001	4.2248445E+000	7.6683441E+001	-1.317995157163953E-006	7.6688120E-006	9.4732119E+003
2.1544684E+004	1.4768535E+000	3.7347427E-001	1.5233448E+000	-1.4191719E+001	3.753494124946883E+000	2.6953700E-001	1.9735666E-002	1.9779684E+001	1.1888973E+000	1.000000000000000E+000	9	5.3521255E-003	3.5134039E-003	0	3.466081991015623E-007	6.3641590E-001	1.6094011E-001	6.5645021E-001	1.4191719E+001	1.1888971E+003	4.7013330E+003	4.8493306E+003	-7.5808281E+001	0.0000000E+000	0.0000000E+000	0.0000000E+000	7.5808281E+001	0.0000000E+000	0.0000000E+000	0.0000000E+000	-7.5808281E+001	0.0000000E+000	0.0000000E+000	0.0000000E+000	-1.4191719E+001	0.0000000E+000	0.0000000E+000	0.0000000E+000	1.4191719E+001	3.9543648E+000	7.5808281E+001	-4.143593617507981E-006	5.3194922E-006	1.3657355E+004
1.4678594E+004	1.5564960E+000	4.1806567E-001	1.6116633E+000	-1.5034471E+001	4.190496199036716E+000	2.6953277E-001	2.1784414E-002	2.5935295E+001	1.7451450E+000	1.000000000000000E+000	9	5.1558381E-003	3.1990788E-003	0	-2.684503792437991E-006	5.9923798E-001	1.6095179E-001	6.2047696E-001	1.5034471E+001	1.7451449E+003	6.4973315E+003	6.7276182E+003	-7.4965530E+001	0.0000000E+000	0.0000000E+000	0.0000000E+000	7.4965530E+001	0.0000000E+000	0.0000000E+000	0.0000000E+000	-7.4965530E+001	0.0000000E+000	0.0000000E+000	0.0000000E+000	-1.5034471E+001	0.0000000E+000	0.0000000E+000	0.0000000E+000	1.5034471E+001	3.7230897E+000	7.4965530E+001	-3.031111991539553E-006	5.8716132E-006	1.2372734E+004
1.0002226E+004	1.6471354E+000	4.7756106E-001	1.7149693E+000	-1.6168686E+001	4.487484159792075E+000	2.6953223E-001	2.4764409E-002	3.3319202E+001	2.5836859E+000	1.000000000000000E+000	9	5.2313292E-003	3.0503925E-003	0	1.535882588268982E-006	5.6003684E-001	1.6237389E-001	5.8310080E-001	1.6168686E+001	2.5836858E+003	8.9112813E+003	9.2782734E+003	-7.3831314E+001	0.0000000E+000	0.0000000E+000	0.0000000E+000	7.3831314E+001	0.0000000E+000	0.0000000E+000	0.0000000E+000	-7.3831314E+001	0.0000000E+000	0.0000000E+000	0.0000000E+000	-1.6168686E+001	0.0000000E+000	0.0000000E+000	0.0000000E+000	1.6168686E+001	3.4490571E+000	7.3831314E+001	4.220386380706972E-006	6.6748066E-006	1.0883854E+004
6.8110674E+003	1.7491693E+000	5.4789430E-001	1.8329707E+000	-1.7392179E+001	4.865515617741039E+000	2.6938909E-001	-5.4112379E-002	4.2648933E+001	3.8105764E+000	1.000000000000000E+000	9	5.1552858E-003	2.8125304E-003	0	-8.689522426332890E-007	5.2061993E-001	1.6307436E-001	5.4556245E-001	1.7392179E+001	3.8105769E+003	1.2165383E+004	1.2748217E+004	-7.2607819E+001	0.0000000E+000	0.0000000E+000	0.0000000E+000	7.2607819E+001	0.0000000E+000	0.0000000E+000	0.0000000E+000	-7.2607819E+001	0.0000000E+000	0.0000000E+000	0.0000000E+000	-1.7392179E+001	0.0000000E+000	0.0000000E+000	0.0000000E+000	1.7392179E+001	3.1925306E+000	7.2607819E+001	-2.404834830902271E-006	-1.4577285E-005	4.9783267E+003
4.6414854E+003	1.8606997E+000	6.4248359E-001	1.9684991E+000	-1.9049353E+001	5.336666866831365E+000	2.6949179E-001	3.6796123E-002	5.3370483E+001	5.6853180E+000	1.000000000000000E+000	9	5.0575905E-003	2.5692624E-003	0	5.216913275744041E-006	4.8018199E-001	1.6580270E-001	5.0800127E-001	1.9049353E+001	5.6853188E+003	1.6465275E+004	1.7419189E+004	-7.0950645E+001	0.0000000E+000	0.0000000E+000	0.0000000E+000	7.0950645E+001	0.0000000E+000	0.0000000E+000	0.0000000E+000	-7.0950645E+001	0.0000000E+000	0.0000000E+000	0.0000000E+000	-1.9049353E+001	0.0000000E+000	0.0000000E+000	0.0000000E+000	1.9049353E+001	2.8961046E+000	7.0950645E+001	6.085865518377330E-006	9.9162535E-006	7.3239180E+003
3.1610117E+003	1.9725748E+000	7.6231223E-001	2.1147509E+000	-2.1129293E+001	5.803669049018936E+000	2.6949012E-001	4.0986732E-002	6.6048218E+001	8.5823946E+000	1.000000000000000E+000	9	4.9912888E-003	2.3602254E-003	0	8.067303277202882E-006	4.4107768E-001	1.7045684E-001	4.7286895E-001	2.1129293E+001	8.5823945E+003	2.2207980E+004	2.3808652E+004	-6.8870705E+001	0.0000000E+000	0.0000000E+000	0.0000000E+000	6.8870705E+001	0.0000000E+000	0.0000000E+000	0.0000000E+000	-6.8870705E+001	0.0000000E+000	0.0000000E+000	0.0000000E+000	-2.1129293E+001	0.0000000E+000	0.0000000E+000	0.0000000E+000	2.1129293E+001	2.5876205E+000	6.8870705E+001	2.850390001458841E-006	1.1045519E-005	6.5750576E+003
2.1556899E+003	2.1161060E+000	9.2754024E-001	2.3104622E+000	-2.3668997E+001	6.270701977868157E+000	2.6949480E-001	4.1917976E-002	7.9597801E+001	1.2828292E+001	1.000000000000000E+000	9	4.9345973E-003	2.1357620E-003	0	1.436468113468598E-005	3.9640552E-001	1.7375408E-001	4.3281382E-001	2.3668997E+001	1.2828293E+004	2.9266682E+004	3.1954715E+004	-6.6331001E+001	0.0000000E+000	0.0000000E+000	0.0000000E+000	6.6331001E+001	0.0000000E+000	0.0000000E+000	0.0000000E+000	-6.6331001E+001	0.0000000E+000	0.0000000E+000	0.0000000E+000	-2.3668997E+001	0.0000000E+000	0.0000000E+000	0.0000000E+000	2.3668997E+001	2.2814169E+000	6.6331001E+001	6.297377857483095E-006	1.1296676E-005	6.4290986E+003
1.4685898E+003	2.2806709E+000	1.1397709E+000	2.5496151E+000	-2.6553703E+001	6.737942693376681E+000	2.6949885E-001	4.1433722E-002	9.5082825E+001	1.9001501E+001	1.000000000000000E+000	9	4.8933686E-003	1.9192577E-003	0	2.038343178074704E-005	3.5084343E-001	1.7533487E-001	3.9221606E-001	2.6553703E+001	1.9001500E+004	3.8021824E+004	4.2505484E+004	-6.3446297E+001	0.0000000E+000	0.0000000E+000	0.0000000E+000	6.3446297E+001	0.0000000E+000	0.0000000E+000	0.0000000E+000	-6.3446297E+001	0.0000000E+000	0.0000000E+000	0.0000000E+000	-2.6553703E+001	0.0000000E+000	0.0000000E+000	0.0000000E+000	2.6553703E+001	2.0009906E+000	6.3446297E+001	6.018750646061059E-006	1.1166340E-005	6.5043359E+003
1.0003202E+003	2.4683774E+000	1.4274635E+000	2.8514099E+000	-3.0040812E+001	7.206709702324588E+000	2.6949835E-001	3.8416471E-002	1.1145924E+002	2.7933594E+001	1.000000000000000E+000	9	4.8683113E-003	1.7073348E-003	0	2.332347103288501E-005	3.0359331E-001	1.7556813E-001	3.5070369E-001	3.0040812E+001	2.7933592E+004	4.8302914E+004	5.5798359E+004	-5.9959190E+001	0.0000000E+000	0.0000000E+000	0.0000000E+000	5.9959190E+001	0.0000000E+000	0.0000000E+000	0.0000000E+000	-5.9959190E+001	0.0000000E+000	0.0000000E+000	0.0000000E+000	-3.0040812E+001	0.0000000E+000	0.0000000E+000	0.0000000E+000	3.0040812E+001	1.7292053E+000	5.9959190E+001	2.940039252137970E-006	1.0353176E-005	7.0151772E+003
6.8108978E+002	2.7327235E+000	1.8226482E+000	3.2847867E+000	-3.3702152E+001	7.926436029811157E+000	2.6950300E-001	-1.5109984E-002	1.2820735E+002	3.9473377E+001	1.000000000000000E+000	10	4.9405363E-003	1.5040661E-003	0	2.413777811852924E-005	2.5326857E-001	1.6892289E-001	3.0443376E-001	3.3702152E+001	3.9473379E+004	5.9183020E+004	7.1139141E+004	-5.6297848E+001	0.0000000E+000	0.0000000E+000	0.0000000E+000	5.6297848E+001	0.0000000E+000	0.0000000E+000	0.0000000E+000	-5.6297848E+001	0.0000000E+000	0.0000000E+000	0.0000000E+000	-3.3702152E+001	0.0000000E+000	0.0000000E+000	0.0000000E+000	3.3702152E+001	1.4993149E+000	5.6297852E+001	8.143070856442356E-007	-4.0721861E-006	1.7836088E+004
4.6396069E+002	3.0733774E+000	2.3257456E+000	3.8541849E+000	-3.7116226E+001	8.395187492045807E+000	2.6951215E-001	-1.4459702E-002	1.4749481E+002	5.3707638E+001	1.000000000000000E+000	10	4.8960275E-003	1.2703147E-003	0	2.276453281964900E-005	2.0689540E-001	1.5656589E-001	2.5945824E-001	3.7116226E+001	5.3707633E+004	7.0972438E+004	8.9003352E+004	-5.2883774E+001	0.0000000E+000	0.0000000E+000	0.0000000E+000	5.2883774E+001	0.0000000E+000	0.0000000E+000	0.0000000E+000	-5.2883774E+001	0.0000000E+000	0.0000000E+000	0.0000000E+000	-3.7116226E+001	0.0000000E+000	0.0000000E+000	0.0000000E+000	3.7116226E+001	1.3214589E+000	5.2883774E+001	-1.373245298880243E-006	-3.8970652E-006	1.8638846E+004
3.1631589E+002	3.5440760E+000	2.9579875E+000	4.6162934E+000	-3.9849346E+001	8.861936980916653E+000	2.6950726E-001	-1.5121168E-002	1.7009940E+002	6.9840714E+001	1.000000000000000E+000	10	4.8693558E-003	1.0548194E-003	0	2.067453059224903E-005	1.6630916E-001	1.3880642E-001	2.1662401E-001	3.9849346E+001	6.9840711E+004	8.3678773E+004	1.0899478E+005	-5.0150654E+001	0.0000000E+000	0.0000000E+000	0.0000000E+000	5.0150654E+001	0.0000000E+000	0.0000000E+000	0.0000000E+000	-5.0150654E+001	0.0000000E+000	0.0000000E+000	0.0000000E+000	-3.9849346E+001	0.0000000E+000	0.0000000E+000	0.0000000E+000	3.9849346E+001	1.1981375E+000	5.0150650E+001	-2.090002227399965E-006	-4.0752648E-006	1.7823178E+004
2.1534457E+002	4.1755266E+000	3.7472332E+000	5.6104169E+000	-4.1905682E+001	9.329411456448724E+000	2.6950467E-001	-1.4841680E-002	1.9723114E+002	8.7984604E+001	1.000000000000000E+000	10	4.8436155E-003	8.6332543E-004	0	1.810729635314136E-005	1.3265419E-001	1.1904754E-001	1.7823987E-001	4.1905682E+001	8.7984586E+004	9.8040867E+004	1.3173192E+005	-4.8094318E+001	0.0000000E+000	0.0000000E+000	0.0000000E+000	4.8094318E+001	0.0000000E+000	0.0000000E+000	0.0000000E+000	-4.8094318E+001	0.0000000E+000	0.0000000E+000	0.0000000E+000	-4.1905682E+001	0.0000000E+000	0.0000000E+000	0.0000000E+000	4.1905682E+001	1.1142960E+000	4.8094315E+001	-2.567234239107671E-006	-3.9999022E-006	1.8158635E+004
1.4673740E+002	5.0568132E+000	4.6680846E+000	6.8820329E+000	-4.2710964E+001	9.792396678443765E+000	2.6949975E-001	-1.5516196E-002	2.3234889E+002	1.0690169E+002	1.000000000000000E+000	10	4.8316466E-003	7.0206675E-004	0	1.657790404112570E-005	1.0676857E-001	9.8561034E-002	1.4530590E-001	4.2710964E+001	1.0690170E+005	1.1580380E+005	1.5760233E+005	-4.7289036E+001	0.0000000E+000	0.0000000E+000	0.0000000E+000	4.7289036E+001	0.0000000E+000	0.0000000E+000	0.0000000E+000	-4.7289036E+001	0.0000000E+000	0.0000000E+000	0.0000000E+000	-4.2710964E+001	0.0000000E+000	0.0000000E+000	0.0000000E+000	4.2710964E+001	1.0832736E+000	4.7289032E+001	-1.529392312015666E-006	-4.1816111E-006	1.7368932E+004
1.0003201E+002	6.2326398E+000	5.7612281E+000	8.4874935E+000	-4.2749184E+001	1.026068120737909E+001	2.6949948E-001	-1.4659093E-002	2.7616336E+002	1.2724400E+002	1.000000000000000E+000	10	4.8239687E-003	5.6836201E-004	0	1.528916997942886E-005	8.6519323E-002	7.9975352E-002	1.1782041E-001	4.2749184E+001	1.2724399E+005	1.3765570E+005	1.8745700E+005	-4.7250816E+001	0.0000000E+000	0.0000000E+000	0.0000000E+000	4.7250816E+001	0.0000000E+000	0.0000000E+000	0.0000000E+000	-4.7250816E+001	0.0000000E+000	0.0000000E+000	0.0000000E+000	-4.2749184E+001	0.0000000E+000	0.0000000E+000	0.0000000E+000	4.2749184E+001	1.0818249E+000	4.7250824E+001	-1.288734061696836E-006	-3.9506181E-006	1.8384459E+004
6.8103981E+001	7.8454924E+000	6.8773103E+000	1.0433080E+001	-4.1237606E+001	1.073832859002869E+001	2.6950115E-001	-1.3179648E-002	3.3980441E+002	1.4765263E+002	1.000000000000000E+000	10	4.8150574E-003	4.6151830E-004	0	1.393943270610665E-005	7.2076745E-002	6.3182034E-002	9.5848978E-002	4.1237606E+001	1.4765264E+005	1.6843906E+005	2.2399334E+005	-4.8762394E+001	0.0000000E+000	0.0000000E+000	0.0000000E+000	4.8762394E+001	0.0000000E+000	0.0000000E+000	0.0000000E+000	-4.8762394E+001	0.0000000E+000	0.0000000E+000	0.0000000E+000	-4.1237606E+001	0.0000000E+000	0.0000000E+000	0.0000000E+000	4.1237606E+001	1.1407791E+000	4.8762390E+001	-1.349737273322212E-006	-3.5519301E-006	2.0448281E+004
4.6441547E+001	9.9338531E+000	7.8979216E+000	1.2690886E+001	-3.8486496E+001	1.119353397164377E+001	2.6949820E-001	-1.6999373E-002	4.3391098E+002	1.6805148E+002	1.000000000000000E+000	10	4.8168912E-003	3.7955513E-004	0	1.216658727631309E-005	6.1678499E-002	4.9037565E-002	7.8796700E-002	3.8486496E+001	1.6805148E+005	2.1137192E+005	2.7003591E+005	-5.1513504E+001	0.0000000E+000	0.0000000E+000	0.0000000E+000	5.1513504E+001	0.0000000E+000	0.0000000E+000	0.0000000E+000	-5.1513504E+001	0.0000000E+000	0.0000000E+000	0.0000000E+000	-3.8486496E+001	0.0000000E+000	0.0000000E+000	0.0000000E+000	3.8486496E+001	1.2577807E+000	5.1513504E+001	-1.772845429793556E-006	-4.5813003E-006	1.5853420E+004
3.1629555E+001	1.2438855E+001	8.5373507E+000	1.5086798E+001	-3.4463577E+001	1.163945161949960E+001	2.6948544E-001	-1.8484410E-002	5.8939154E+002	1.8873656E+002	1.000000000000000E+000	10	4.8123742E-003	3.1897918E-004	0	9.869659259542661E-006	5.4649513E-002	3.7508439E-002	6.6283122E-002	3.4463577E+001	1.8873656E+005	2.7498772E+005	3.3352622E+005	-5.5536423E+001	0.0000000E+000	0.0000000E+000	0.0000000E+000	5.5536423E+001	0.0000000E+000	0.0000000E+000	0.0000000E+000	-5.5536423E+001	0.0000000E+000	0.0000000E+000	0.0000000E+000	-3.4463577E+001	0.0000000E+000	0.0000000E+000	0.0000000E+000	3.4463577E+001	1.4569924E+000	5.5536423E+001	-2.296928016770431E-006	-4.9812793E-006	1.4579066E+004
2.1551722E+001	1.5234041E+001	8.7465696E+000	1.7566402E+001	-2.9862133E+001	1.231935525176232E+001	2.6951650E-001	-1.0979054E-002	8.4430701E+002	2.0931976E+002	1.000000000000000E+000	11	4.8127663E-003	2.7397563E-004	0	7.191937728757492E-006	4.9368449E-002	2.8344717E-002	5.6926854E-002	2.9862133E+001	2.0931980E+005	3.6457563E+005	4.2039288E+005	-6.0137867E+001	0.0000000E+000	0.0000000E+000	0.0000000E+000	6.0137867E+001	0.0000000E+000	0.0000000E+000	0.0000000E+000	-6.0137867E+001	0.0000000E+000	0.0000000E+000	0.0000000E+000	-2.9862133E+001	0.0000000E+000	0.0000000E+000	0.0000000E+000	2.9862133E+001	1.7417161E+000	6.0137863E+001	-2.677721530785170E-006	-2.9590360E-006	2.4548244E+004
1.4685154E+001	1.7809971E+001	8.3978519E+000	1.9690580E+001	-2.5245064E+001	1.279704023449449E+001	2.6952285E-001	-1.0142840E-002	1.2905458E+003	2.3474307E+002	1.000000000000000E+000	11	4.8095011E-003	2.4425390E-004	0	6.005232077314253E-006	4.5935258E-002	2.1659637E-002	5.0785705E-002	2.5245064E+001	2.3474308E+005	4.9783772E+005	5.5040594E+005	-6.4754936E+001	0.0000000E+000	0.0000000E+000	0.0000000E+000	6.4754936E+001	0.0000000E+000	0.0000000E+000	0.0000000E+000	-6.4754936E+001	0.0000000E+000	0.0000000E+000	0.0000000E+000	-2.5245064E+001	0.0000000E+000	0.0000000E+000	0.0000000E+000	2.5245064E+001	2.1207769E+000	6.4754936E+001	-1.186705651443238E-006	-2.7337269E-006	2.6572721E+004
