EC-Lab ASCII FILE
Nb header lines : 63                          

Potentio Electrochemical Impedance Spectroscopy

Run on channel : 5 (SN 65912)
User : 
CE vs. WE compliance from -10 V to 10 V
Electrode connection : standard
Potential control : Ewe
Ewe ctrl range : min = -10.00 V, max = 10.00 V
Safety Limits :
	Do not start on E overload
Acquisition started on : 09/22/2025 10:03:28.043
Loaded Setting File :  C:\Users\Celltest\OneDrive - store-dot.com\Documents\EC-Lab\Data\Gyutae\17740_R277_UA674_SOC00_C04.mpr
Saved on :
	File : 17706_R287_UA662_SOC00_C05.mpr
	Directory : C:\Users\Celltest\OneDrive - store-dot.com\Documents\EC-Lab\Data\Charmaine\
	Host : 169.254.61.224
Device : VMP-3e (SN .003165)
Address : USB
EC-LAB for windows v11.62 (software)
Internet server v27.00 (firmware)
Command interpretor v12.03 (firmware)
Electrode material : 
Initial state : 
Electrolyte : 
Comments : 
Electrode surface area : 0.001 cm²
Characteristic mass : 0.001 g
Equivalent Weight : 0.000 g/eq.
Density : 0.000 g/cm3
Volume (V) : 0.001 cm³
Cycle Definition : Charge/Discharge alternance
Mode                Single sine         
E (V)               0.0000              
vs.                 Eoc                 
tE (h:m:s)          0:00:0.0000         
record              0                   
dI                  0.000               
unit dI             mA                  
dt (s)              0.000               
fi                  100.000             
unit fi             kHz                 
ff                  10.000              
unit ff             mHz                 
Nd                  6                   
Points              per decade          
spacing             Logarithmic         
Va (mV)             5.0                 
pw                  0.10                
Na                  2                   
corr                0                   
E range min (V)     -10.000             
E range max (V)     10.000              
I Range             Auto                
Bandwidth           5                   
nc cycles           0                   
goto Ns'            0                   
nr cycles           0                   
inc. cycle          0                   

freq/Hz	Re(Z)/Ohm	-Im(Z)/Ohm	|Z|/Ohm	Phase(Z)/deg	time/s	<Ewe>/V	<I>/mA	Cs/µF	Cp/µF	cycle number	I Range	|Ewe|/V	|I|/A	Ns	(Q-Qo)/mA.h	Re(Y)/Ohm-1	Im(Y)/Ohm-1	|Y|/Ohm-1	Phase(Y)/deg	Re(C)/nF	Im(C)/nF	|C|/nF	Phase(C)/deg	Re(M)	Im(M)	|M|	Phase(M)/deg	Re(Permittivity)	Im(Permittivity)	|Permittivity|	Phase(Permittivity)/deg	Re(Resistivity)/Ohm.cm	Im(Resistivity)/Ohm.cm	|Resistivity|/Ohm.cm	Phase(Resistivity)/deg	Re(Conductivity)/mS/cm	Im(Conductivity)/mS/cm	|Conductivity|/mS/cm	Phase(Conductivity)/deg	Tan(Delta)	Loss Angle(Delta)/deg	dq/mA.h	Pwe/W	Rwe/Ohm	
1.0000371E+005	1.1337919E+000	2.3976532E-001	1.1588665E+000	-1.1940535E+001	1.864496301888721E+000	2.7535191E-001	-1.7159021E-003	6.6377006E+000	2.8413421E-001	1.000000000000000E+000	9	4.8975935E-003	4.2261928E-003	0	2.064514600180296E-006	8.4424114E-001	1.7853341E-001	8.6291212E-001	1.1940535E+001	2.8413425E+002	1.3436018E+003	1.3733164E+003	-7.8059464E+001	0.0000000E+000	0.0000000E+000	0.0000000E+000	7.8059464E+001	0.0000000E+000	0.0000000E+000	0.0000000E+000	-7.8059464E+001	0.0000000E+000	0.0000000E+000	0.0000000E+000	-1.1940535E+001	0.0000000E+000	0.0000000E+000	0.0000000E+000	1.1940535E+001	4.7287569E+000	7.8059464E+001	2.064514600180296E-006	-4.7247693E-007	1.6047064E+005
6.8132047E+004	1.1938667E+000	2.6852983E-001	1.2236936E+000	-1.2676264E+001	2.442499609343940E+000	2.7533826E-001	-1.1759254E-003	8.6991367E+000	4.1890529E-001	1.000000000000000E+000	9	5.0377916E-003	4.1168733E-003	0	-1.140254327264201E-005	7.9727930E-001	1.7932761E-001	8.1719804E-001	1.2676264E+001	4.1890524E+002	1.8624266E+003	1.9089564E+003	-7.7323738E+001	0.0000000E+000	0.0000000E+000	0.0000000E+000	7.7323738E+001	0.0000000E+000	0.0000000E+000	0.0000000E+000	-7.7323738E+001	0.0000000E+000	0.0000000E+000	0.0000000E+000	-1.2676264E+001	0.0000000E+000	0.0000000E+000	0.0000000E+000	1.2676264E+001	4.4459372E+000	7.7323738E+001	-1.346705787282230E-005	-3.2377724E-007	2.3414603E+005
4.6420355E+004	1.2583599E+000	2.9802316E-001	1.2931695E+000	-1.3324124E+001	3.020491956762271E+000	2.7533332E-001	-7.3577403E-003	1.1504339E+001	6.1101347E-001	1.000000000000000E+000	9	5.0591733E-003	3.9122277E-003	0	-1.840934675461095E-005	7.5247824E-001	1.7821290E-001	7.7329385E-001	1.3324124E+001	6.1101355E+002	2.5799163E+003	2.6512837E+003	-7.6675873E+001	0.0000000E+000	0.0000000E+000	0.0000000E+000	7.6675873E+001	0.0000000E+000	0.0000000E+000	0.0000000E+000	-7.6675873E+001	0.0000000E+000	0.0000000E+000	0.0000000E+000	-1.3324124E+001	0.0000000E+000	0.0000000E+000	0.0000000E+000	1.3324124E+001	4.2223558E+000	7.6675873E+001	-7.006803481968947E-006	-2.0258310E-006	3.7420906E+004
3.1621139E+004	1.3315485E+000	3.3466849E-001	1.3729619E+000	-1.4108363E+001	3.598493690864416E+000	2.7533633E-001	-7.5811832E-003	1.5039308E+001	8.9359450E-001	1.000000000000000E+000	9	5.0425483E-003	3.6727518E-003	0	-1.778810823739817E-005	7.0638269E-001	1.7754067E-001	7.2835237E-001	1.4108363E+001	8.9359436E+002	3.5553525E+003	3.6659299E+003	-7.5891640E+001	0.0000000E+000	0.0000000E+000	0.0000000E+000	7.5891640E+001	0.0000000E+000	0.0000000E+000	0.0000000E+000	-7.5891640E+001	0.0000000E+000	0.0000000E+000	0.0000000E+000	-1.4108363E+001	0.0000000E+000	0.0000000E+000	0.0000000E+000	1.4108363E+001	3.9787087E+000	7.5891640E+001	6.212385172127856E-007	-2.0873752E-006	3.6318383E+004
2.1544684E+004	1.4084251E+000	3.7951654E-001	1.4586617E+000	-1.5080822E+001	4.035486884968122E+000	2.7533367E-001	-8.0839228E-003	1.9464771E+001	1.3176546E+000	1.000000000000000E+000	9	5.2763950E-003	3.6172851E-003	0	-1.903812517543944E-005	6.6194910E-001	1.7836989E-001	6.8555993E-001	1.5080822E+001	1.3176549E+003	4.8899521E+003	5.0643701E+003	-7.4919174E+001	0.0000000E+000	0.0000000E+000	0.0000000E+000	7.4919174E+001	0.0000000E+000	0.0000000E+000	0.0000000E+000	-7.4919174E+001	0.0000000E+000	0.0000000E+000	0.0000000E+000	-1.5080822E+001	0.0000000E+000	0.0000000E+000	0.0000000E+000	1.5080822E+001	3.7111032E+000	7.4919174E+001	-1.250016938041274E-006	-2.2257761E-006	3.4059414E+004
1.4678594E+004	1.4928187E+000	4.2388296E-001	1.5518327E+000	-1.5851791E+001	4.331482605688507E+000	2.7533627E-001	-7.4694837E-003	2.5579363E+001	1.9084985E+000	1.000000000000000E+000	9	4.5776046E-003	2.9498055E-003	0	-2.089725344216600E-005	6.1989379E-001	1.7601763E-001	6.4439934E-001	1.5851791E+001	1.9084987E+003	6.7212959E+003	6.9870010E+003	-7.4148209E+001	0.0000000E+000	0.0000000E+000	0.0000000E+000	7.4148209E+001	0.0000000E+000	0.0000000E+000	0.0000000E+000	-7.4148209E+001	0.0000000E+000	0.0000000E+000	0.0000000E+000	-1.5851791E+001	0.0000000E+000	0.0000000E+000	0.0000000E+000	1.5851791E+001	3.5217710E+000	7.4148209E+001	-1.859128266726556E-006	-2.0566197E-006	3.6861484E+004
1.0002226E+004	1.5888346E+000	4.7964194E-001	1.6596541E+000	-1.6798166E+001	4.768479613150703E+000	2.7533433E-001	-1.8909690E-004	3.3174648E+001	2.7708018E+000	1.000000000000000E+000	9	4.9488735E-003	2.9818704E-003	0	-2.216968407502605E-005	5.7682425E-001	1.7413336E-001	6.0253519E-001	1.6798166E+001	2.7708015E+003	9.1783994E+003	9.5875107E+003	-7.3201836E+001	0.0000000E+000	0.0000000E+000	0.0000000E+000	7.3201836E+001	0.0000000E+000	0.0000000E+000	0.0000000E+000	-7.3201836E+001	0.0000000E+000	0.0000000E+000	0.0000000E+000	-1.6798166E+001	0.0000000E+000	0.0000000E+000	0.0000000E+000	1.6798166E+001	3.3125432E+000	7.3201836E+001	-1.272430632860054E-006	-5.2064866E-008	1.4560489E+006
6.8110674E+003	1.6923440E+000	5.5123639E-001	1.7798566E+000	-1.8041653E+001	5.146518031106098E+000	2.7508187E-001	-1.6475180E-001	4.2390358E+001	4.0660510E+000	1.000000000000000E+000	9	4.6775318E-003	2.6280386E-003	0	-3.888290012384661E-005	5.3421813E-001	1.7400746E-001	5.6184304E-001	1.8041653E+001	4.0660518E+003	1.2483132E+004	1.3128646E+004	-7.1958344E+001	0.0000000E+000	0.0000000E+000	0.0000000E+000	7.1958344E+001	0.0000000E+000	0.0000000E+000	0.0000000E+000	-7.1958344E+001	0.0000000E+000	0.0000000E+000	0.0000000E+000	-1.8041653E+001	0.0000000E+000	0.0000000E+000	0.0000000E+000	1.8041653E+001	3.0700874E+000	7.1958344E+001	-1.671321604882056E-005	-4.5320234E-005	1.6696744E+003
4.6414854E+003	1.8002887E+000	6.4503437E-001	1.9123569E+000	-1.9712345E+001	5.617711866849277E+000	2.7532622E-001	2.7945567E-002	5.3159424E+001	6.0479493E+000	1.000000000000000E+000	9	4.5413817E-003	2.3747564E-003	0	-3.718109248213780E-005	4.9227104E-001	1.7637822E-001	5.2291495E-001	1.9712345E+001	6.0479482E+003	1.6879807E+004	1.7930576E+004	-7.0287659E+001	0.0000000E+000	0.0000000E+000	0.0000000E+000	7.0287659E+001	0.0000000E+000	0.0000000E+000	0.0000000E+000	-7.0287659E+001	0.0000000E+000	0.0000000E+000	0.0000000E+000	-1.9712345E+001	0.0000000E+000	0.0000000E+000	0.0000000E+000	1.9712345E+001	2.7909966E+000	7.0287659E+001	1.701807641708810E-006	7.6941469E-006	9.8522324E+003
3.1610117E+003	1.9156998E+000	7.6549035E-001	2.0629787E+000	-2.1781048E+001	6.307713126290764E+000	2.7532536E-001	3.0347532E-002	6.5774002E+001	9.0561628E+000	1.000000000000000E+000	9	4.8649311E-003	2.3582070E-003	0	-3.104960474346040E-005	4.5012999E-001	1.7986646E-001	4.8473597E-001	2.1781048E+001	9.0561641E+003	2.2663760E+004	2.4406148E+004	-6.8218948E+001	0.0000000E+000	0.0000000E+000	0.0000000E+000	6.8218948E+001	0.0000000E+000	0.0000000E+000	0.0000000E+000	-6.8218948E+001	0.0000000E+000	0.0000000E+000	0.0000000E+000	-2.1781048E+001	0.0000000E+000	0.0000000E+000	0.0000000E+000	2.1781048E+001	2.5025787E+000	6.8218948E+001	6.131487738677401E-006	8.3554451E-006	9.0724131E+003
2.1556899E+003	2.0566745E+000	9.1933715E-001	2.2527962E+000	-2.4084728E+001	6.774703281800612E+000	2.7532896E-001	3.0347520E-002	8.0308037E+001	1.3374108E+001	1.000000000000000E+000	9	4.8082154E-003	2.1343322E-003	0	-3.011206988035539E-005	4.0524882E-001	1.8114695E-001	4.4389281E-001	2.4084728E+001	1.3374111E+004	2.9919588E+004	3.2772680E+004	-6.5915268E+001	0.0000000E+000	0.0000000E+000	0.0000000E+000	6.5915268E+001	0.0000000E+000	0.0000000E+000	0.0000000E+000	-6.5915268E+001	0.0000000E+000	0.0000000E+000	0.0000000E+000	-2.4084728E+001	0.0000000E+000	0.0000000E+000	0.0000000E+000	2.4084728E+001	2.2371275E+000	6.5915268E+001	9.375348631050065E-007	8.3555515E-006	9.0725361E+003
1.4685898E+003	2.2278619E+000	1.1314445E+000	2.4987066E+000	-2.6924246E+001	7.241929810639704E+000	2.7532378E-001	2.5618060E-002	9.5782547E+001	1.9639133E+001	1.000000000000000E+000	9	4.7904812E-003	1.9171844E-003	0	-2.797474102406866E-005	3.5682699E-001	1.8121856E-001	4.0020704E-001	2.6924246E+001	1.9639135E+004	3.8670277E+004	4.3371488E+004	-6.3075752E+001	0.0000000E+000	0.0000000E+000	0.0000000E+000	6.3075752E+001	0.0000000E+000	0.0000000E+000	0.0000000E+000	-6.3075752E+001	0.0000000E+000	0.0000000E+000	0.0000000E+000	-2.6924246E+001	0.0000000E+000	0.0000000E+000	0.0000000E+000	2.6924246E+001	1.9690422E+000	6.3075752E+001	2.137328856286735E-006	7.0532610E-006	1.0747254E+004
1.0003202E+003	2.4227178E+000	1.4220949E+000	2.8092554E+000	-3.0412224E+001	7.710676179594884E+000	2.7532366E-001	2.7610388E-002	1.1188000E+002	2.8669970E+001	1.000000000000000E+000	9	4.7646691E-003	1.6960612E-003	0	-2.438301242210178E-005	3.0698729E-001	1.8019642E-001	3.5596621E-001	3.0412224E+001	2.8669971E+004	4.8842906E+004	5.6635648E+004	-5.9587776E+001	0.0000000E+000	0.0000000E+000	0.0000000E+000	5.9587776E+001	0.0000000E+000	0.0000000E+000	0.0000000E+000	-5.9587776E+001	0.0000000E+000	0.0000000E+000	0.0000000E+000	-3.0412224E+001	0.0000000E+000	0.0000000E+000	0.0000000E+000	3.0412224E+001	1.7036259E+000	5.9587776E+001	3.591728601966879E-006	7.6017932E-006	9.9717422E+003
6.8108978E+002	2.6706791E+000	1.7809461E+000	3.2100306E+000	-3.3697395E+001	8.430453387059970E+000	2.7527851E-001	-1.7353225E-002	1.3120941E+002	4.0387619E+001	1.000000000000000E+000	10	4.8545199E-003	1.5122971E-003	0	-2.561963604884901E-005	2.5918114E-001	1.7283531E-001	3.1152353E-001	3.3697395E+001	4.0387613E+004	6.0564637E+004	7.2795844E+004	-5.6302605E+001	0.0000000E+000	0.0000000E+000	0.0000000E+000	5.6302605E+001	0.0000000E+000	0.0000000E+000	0.0000000E+000	-5.6302605E+001	0.0000000E+000	0.0000000E+000	0.0000000E+000	-3.3697395E+001	0.0000000E+000	0.0000000E+000	0.0000000E+000	3.3697395E+001	1.4995844E+000	5.6302605E+001	-1.236623626747234E-006	-4.7769699E-006	1.5863247E+004
4.6396069E+002	3.0148189E+000	2.2662628E+000	3.7716150E+000	-3.6932468E+001	8.899199889361626E+000	2.7527916E-001	-1.6010927E-002	1.5136612E+002	5.4650543E+001	1.000000000000000E+000	10	4.8150113E-003	1.2766444E-003	0	-2.799883462687851E-005	2.1193688E-001	1.5931459E-001	2.6513842E-001	3.6932468E+001	5.4650547E+004	7.2701852E+004	9.0951867E+004	-5.3067532E+001	0.0000000E+000	0.0000000E+000	0.0000000E+000	5.3067532E+001	0.0000000E+000	0.0000000E+000	0.0000000E+000	-5.3067532E+001	0.0000000E+000	0.0000000E+000	0.0000000E+000	-3.6932468E+001	0.0000000E+000	0.0000000E+000	0.0000000E+000	3.6932468E+001	1.3303043E+000	5.3067535E+001	-2.379198578029497E-006	-4.4074745E-006	1.7193205E+004
3.1631589E+002	3.4848151E+000	2.8684764E+000	4.5135455E+000	-3.9459023E+001	9.365912951529026E+000	2.7527925E-001	-1.6878482E-002	1.7540736E+002	7.0845909E+001	1.000000000000000E+000	10	4.7882581E-003	1.0608641E-003	0	-2.969005253789429E-005	1.7105828E-001	1.4080422E-001	2.2155532E-001	3.9459023E+001	7.0845906E+004	8.6068297E+004	1.1147598E+005	-5.0540977E+001	0.0000000E+000	0.0000000E+000	0.0000000E+000	5.0540977E+001	0.0000000E+000	0.0000000E+000	0.0000000E+000	-5.0540977E+001	0.0000000E+000	0.0000000E+000	0.0000000E+000	-3.9459023E+001	0.0000000E+000	0.0000000E+000	0.0000000E+000	3.9459023E+001	1.2148663E+000	5.0540985E+001	-1.691217911015781E-006	-4.6462960E-006	1.6309479E+004
2.1534457E+002	4.1269903E+000	3.5972638E+000	5.4747014E+000	-4.1076820E+001	9.833430387050612E+000	2.7528527E-001	-1.6526628E-002	2.0545367E+002	8.8702858E+001	1.000000000000000E+000	10	4.7645252E-003	8.7028038E-004	0	-3.081833759366418E-005	1.3769323E-001	1.2001939E-001	1.8265836E-001	4.1076820E+001	8.8702852E+004	1.0176507E+005	1.3499750E+005	-4.8923180E+001	0.0000000E+000	0.0000000E+000	0.0000000E+000	4.8923180E+001	0.0000000E+000	0.0000000E+000	0.0000000E+000	-4.8923180E+001	0.0000000E+000	0.0000000E+000	0.0000000E+000	-4.1076820E+001	0.0000000E+000	0.0000000E+000	0.0000000E+000	4.1076820E+001	1.1472582E+000	4.8923187E+001	-1.128285055769889E-006	-4.5495376E-006	1.6657074E+004
1.4673740E+002	5.0183296E+000	4.4521508E+000	6.7085972E+000	-4.1578728E+001	1.029639934233273E+001	2.7528095E-001	-1.6591802E-002	2.4361806E+002	1.0729655E+002	1.000000000000000E+000	10	4.7602924E-003	7.0958090E-004	0	-3.307959201225701E-005	1.1150535E-001	9.8925076E-002	1.4906245E-001	4.1578728E+001	1.0729655E+005	1.2094142E+005	1.6167677E+005	-4.8421272E+001	0.0000000E+000	0.0000000E+000	0.0000000E+000	4.8421272E+001	0.0000000E+000	0.0000000E+000	0.0000000E+000	-4.8421272E+001	0.0000000E+000	0.0000000E+000	0.0000000E+000	-4.1578728E+001	0.0000000E+000	0.0000000E+000	0.0000000E+000	4.1578728E+001	1.1271697E+000	4.8421265E+001	-2.261254418592826E-006	-4.5674069E-006	1.6591383E+004
1.0003201E+002	6.2084579E+000	5.3714609E+000	8.2096004E+000	-4.0865849E+001	1.076468317798572E+001	2.7528062E-001	-1.5830368E-002	2.9620248E+002	1.2680299E+002	1.000000000000000E+000	10	4.7469898E-003	5.7822425E-004	0	-3.546226477717089E-005	9.2116982E-002	7.9698175E-002	1.2180861E-001	4.0865849E+001	1.2680299E+005	1.4656181E+005	1.9380238E+005	-4.9134151E+001	0.0000000E+000	0.0000000E+000	0.0000000E+000	4.9134151E+001	0.0000000E+000	0.0000000E+000	0.0000000E+000	-4.9134151E+001	0.0000000E+000	0.0000000E+000	0.0000000E+000	-4.0865849E+001	0.0000000E+000	0.0000000E+000	0.0000000E+000	4.0865849E+001	1.1558230E+000	4.9134155E+001	-2.382672764913879E-006	-4.3577934E-006	1.7389402E+004
6.8103981E+001	7.7718019E+000	6.2738900E+000	9.9881229E+000	-3.8912663E+001	1.124234450727818E+001	2.7528176E-001	-1.4802706E-002	3.7248663E+002	1.4696596E+002	1.000000000000000E+000	10	4.7418657E-003	4.7475041E-004	0	-3.753873375145971E-005	7.7902958E-002	6.2888198E-002	1.0011891E-001	3.8912663E+001	1.4696597E+005	1.8205456E+005	2.3397192E+005	-5.1087337E+001	0.0000000E+000	0.0000000E+000	0.0000000E+000	5.1087337E+001	0.0000000E+000	0.0000000E+000	0.0000000E+000	-5.1087337E+001	0.0000000E+000	0.0000000E+000	0.0000000E+000	-3.8912663E+001	0.0000000E+000	0.0000000E+000	0.0000000E+000	3.8912663E+001	1.2387533E+000	5.1087341E+001	-2.076468974288825E-006	-4.0749151E-006	1.8596719E+004
4.6441547E+001	9.7095566E+000	7.0386300E+000	1.1992406E+001	-3.5939026E+001	1.169752244892879E+001	2.7527755E-001	-1.8079309E-002	4.8688376E+002	1.6772159E+002	1.000000000000000E+000	10	4.7456296E-003	3.9571957E-004	0	-3.981425129584386E-005	6.7512892E-002	4.8941299E-002	8.3386101E-002	3.5939026E+001	1.6772158E+005	2.3136633E+005	2.8576372E+005	-5.4060974E+001	0.0000000E+000	0.0000000E+000	0.0000000E+000	5.4060974E+001	0.0000000E+000	0.0000000E+000	0.0000000E+000	-5.4060974E+001	0.0000000E+000	0.0000000E+000	0.0000000E+000	-3.5939026E+001	0.0000000E+000	0.0000000E+000	0.0000000E+000	3.5939026E+001	1.3794668E+000	5.4060974E+001	-2.275517544384154E-006	-4.9768278E-006	1.5226110E+004
3.1629555E+001	1.1911131E+001	7.4115396E+000	1.4028754E+001	-3.1891378E+001	1.214344639008050E+001	2.7526754E-001	-1.9004580E-002	6.7892004E+002	1.8949478E+002	1.000000000000000E+000	10	4.7383667E-003	3.3776104E-004	0	-4.189925906833863E-005	6.0522206E-002	3.7659120E-002	7.1282163E-002	3.1891378E+001	1.8949480E+005	3.0453822E+005	3.5868066E+005	-5.8108620E+001	0.0000000E+000	0.0000000E+000	0.0000000E+000	5.8108620E+001	0.0000000E+000	0.0000000E+000	0.0000000E+000	-5.8108620E+001	0.0000000E+000	0.0000000E+000	0.0000000E+000	-3.1891378E+001	0.0000000E+000	0.0000000E+000	0.0000000E+000	3.1891378E+001	1.6071062E+000	5.8108620E+001	-2.085007772494763E-006	-5.2313439E-006	1.4484274E+004
2.1551722E+001	1.4249096E+001	7.4262619E+000	1.6068171E+001	-2.7527365E+001	1.282334946238552E+001	2.7529725E-001	-9.1427164E-003	9.9441547E+002	2.1241028E+002	1.000000000000000E+000	11	4.7485759E-003	2.9552684E-004	0	-4.391971861692016E-005	5.5189244E-002	2.8763212E-002	6.2234838E-002	2.7527365E+001	2.1241030E+005	4.0756097E+005	4.5959122E+005	-6.2472633E+001	0.0000000E+000	0.0000000E+000	0.0000000E+000	6.2472633E+001	0.0000000E+000	0.0000000E+000	0.0000000E+000	-6.2472633E+001	0.0000000E+000	0.0000000E+000	0.0000000E+000	-2.7527365E+001	0.0000000E+000	0.0000000E+000	0.0000000E+000	2.7527365E+001	1.9187441E+000	6.2472633E+001	-2.020459548581532E-006	-2.5169647E-006	3.0111102E+004
1.4685154E+001	1.6348017E+001	7.0448589E+000	1.7801340E+001	-2.3312681E+001	1.330103473842610E+001	2.7530447E-001	-8.2513820E-003	1.5384001E+003	2.4093979E+002	1.000000000000000E+000	11	4.7458508E-003	2.6660075E-004	0	-4.513046666473868E-005	5.1589306E-002	2.2231404E-002	5.6175545E-002	2.3312681E+001	2.4093981E+005	5.5911525E+005	6.0882006E+005	-6.6687317E+001	0.0000000E+000	0.0000000E+000	0.0000000E+000	6.6687317E+001	0.0000000E+000	0.0000000E+000	0.0000000E+000	-6.6687317E+001	0.0000000E+000	0.0000000E+000	0.0000000E+000	-2.3312681E+001	0.0000000E+000	0.0000000E+000	0.0000000E+000	2.3312681E+001	2.3205597E+000	6.6687317E+001	-1.210748047818523E-006	-2.2716424E-006	3.3364648E+004
