EC-Lab ASCII FILE
Nb header lines : 63                          

Potentio Electrochemical Impedance Spectroscopy

Run on channel : 3 (SN 65921)
User : 
CE vs. WE compliance from -10 V to 10 V
Electrode connection : standard
Potential control : Ewe
Ewe ctrl range : min = -10.00 V, max = 10.00 V
Safety Limits :
	Do not start on E overload
Acquisition started on : 09/22/2025 10:25:12.037
Loaded Setting File :  C:\Users\Celltest\OneDrive - store-dot.com\Documents\EC-Lab\Data\Gyutae\17738_R277_UA674_SOC00_C02.mpr
Saved on :
	File : 17713_R287_UA663_SOC00_C03.mpr
	Directory : C:\Users\Celltest\OneDrive - store-dot.com\Documents\EC-Lab\Data\Charmaine\
	Host : 169.254.61.224
Device : VMP-3e (SN .003165)
Address : USB
EC-LAB for windows v11.62 (software)
Internet server v27.00 (firmware)
Command interpretor v12.03 (firmware)
Electrode material : 
Initial state : 
Electrolyte : 
Comments : 
Electrode surface area : 0.001 cm²
Characteristic mass : 0.001 g
Equivalent Weight : 0.000 g/eq.
Density : 0.000 g/cm3
Volume (V) : 0.001 cm³
Cycle Definition : Charge/Discharge alternance
Mode                Single sine         
E (V)               0.0000              
vs.                 Eoc                 
tE (h:m:s)          0:00:0.0000         
record              0                   
dI                  0.000               
unit dI             mA                  
dt (s)              0.000               
fi                  100.000             
unit fi             kHz                 
ff                  10.000              
unit ff             mHz                 
Nd                  6                   
Points              per decade          
spacing             Logarithmic         
Va (mV)             5.0                 
pw                  0.10                
Na                  2                   
corr                0                   
E range min (V)     -10.000             
E range max (V)     10.000              
I Range             Auto                
Bandwidth           5                   
nc cycles           0                   
goto Ns'            0                   
nr cycles           0                   
inc. cycle          0                   

freq/Hz	Re(Z)/Ohm	-Im(Z)/Ohm	|Z|/Ohm	Phase(Z)/deg	time/s	<Ewe>/V	<I>/mA	Cs/µF	Cp/µF	cycle number	I Range	|Ewe|/V	|I|/A	Ns	(Q-Qo)/mA.h	Re(Y)/Ohm-1	Im(Y)/Ohm-1	|Y|/Ohm-1	Phase(Y)/deg	Re(C)/nF	Im(C)/nF	|C|/nF	Phase(C)/deg	Re(M)	Im(M)	|M|	Phase(M)/deg	Re(Permittivity)	Im(Permittivity)	|Permittivity|	Phase(Permittivity)/deg	Re(Resistivity)/Ohm.cm	Im(Resistivity)/Ohm.cm	|Resistivity|/Ohm.cm	Phase(Resistivity)/deg	Re(Conductivity)/mS/cm	Im(Conductivity)/mS/cm	|Conductivity|/mS/cm	Phase(Conductivity)/deg	Tan(Delta)	Loss Angle(Delta)/deg	dq/mA.h	Pwe/W	Rwe/Ohm	
1.0000371E+005	1.0011711E+000	2.1166317E-001	1.0233010E+000	-1.1937437E+001	2.024485642818036E+000	2.7857360E-001	3.4993667E-002	7.5189762E+000	3.2169366E-001	1.000000000000000E+000	9	4.9281339E-003	4.8159179E-003	0	9.036754038779893E-006	9.5609605E-001	2.0213360E-001	9.7722960E-001	1.1937437E+001	3.2169370E+002	1.5216176E+003	1.5552513E+003	-7.8062561E+001	0.0000000E+000	0.0000000E+000	0.0000000E+000	7.8062561E+001	0.0000000E+000	0.0000000E+000	0.0000000E+000	-7.8062561E+001	0.0000000E+000	0.0000000E+000	0.0000000E+000	-1.1937437E+001	0.0000000E+000	0.0000000E+000	0.0000000E+000	1.1937437E+001	4.7300205E+000	7.8062561E+001	9.036754038779893E-006	9.7483116E-006	7.9606860E+003
6.8132047E+004	1.0527189E+000	2.3433481E-001	1.0784850E+000	-1.2549411E+001	2.461483796912944E+000	2.7857167E-001	3.6075190E-002	9.9685478E+000	4.7062746E-001	1.000000000000000E+000	9	5.3790589E-003	4.9876068E-003	0	1.426952230053333E-005	9.0507424E-001	2.0146917E-001	9.2722660E-001	1.2549411E+001	4.7062738E+002	2.1142332E+003	2.1659807E+003	-7.7450592E+001	0.0000000E+000	0.0000000E+000	0.0000000E+000	7.7450592E+001	0.0000000E+000	0.0000000E+000	0.0000000E+000	-7.7450592E+001	0.0000000E+000	0.0000000E+000	0.0000000E+000	-1.2549411E+001	0.0000000E+000	0.0000000E+000	0.0000000E+000	1.2549411E+001	4.4923711E+000	7.7450592E+001	5.232768261753436E-006	1.0049525E-005	7.7219736E+003
4.6420355E+004	1.1049985E+000	2.6002216E-001	1.1351798E+000	-1.3241627E+001	2.898475924303057E+000	2.7854437E-001	3.3539217E-002	1.3185643E+001	6.9181943E-001	1.000000000000000E+000	9	5.3749690E-003	4.7349054E-003	0	2.036169744584671E-005	8.5749656E-001	2.0178138E-001	8.8091773E-001	1.3241627E+001	6.9181921E+002	2.9399780E+003	3.0202788E+003	-7.6758377E+001	0.0000000E+000	0.0000000E+000	0.0000000E+000	7.6758377E+001	0.0000000E+000	0.0000000E+000	0.0000000E+000	-7.6758377E+001	0.0000000E+000	0.0000000E+000	0.0000000E+000	-1.3241627E+001	0.0000000E+000	0.0000000E+000	0.0000000E+000	1.3241627E+001	4.2496319E+000	7.6758377E+001	6.092175145313377E-006	9.3421595E-006	8.3050352E+003
3.1621139E+004	1.1646976E+000	2.9365292E-001	1.2011464E+000	-1.4150941E+001	3.336496718431590E+000	2.7855042E-001	3.3334095E-002	1.7139900E+001	1.0244366E+000	1.000000000000000E+000	9	5.3319084E-003	4.4390163E-003	0	2.766326213193437E-005	8.0727470E-001	2.0353657E-001	8.3253801E-001	1.4150941E+001	1.0244365E+003	4.0631604E+003	4.1903154E+003	-7.5849060E+001	0.0000000E+000	0.0000000E+000	0.0000000E+000	7.5849060E+001	0.0000000E+000	0.0000000E+000	0.0000000E+000	-7.5849060E+001	0.0000000E+000	0.0000000E+000	0.0000000E+000	-1.4150941E+001	0.0000000E+000	0.0000000E+000	0.0000000E+000	1.4150941E+001	3.9662390E+000	7.5849060E+001	7.301564686087661E-006	9.2852260E-006	8.3563213E+003
2.1544684E+004	1.2293640E+000	3.3077604E-001	1.2730863E+000	-1.5059510E+001	3.774479859246640E+000	2.7855113E-001	3.6056507E-002	2.2332945E+001	1.5076425E+000	1.000000000000000E+000	9	5.3705941E-003	4.2185625E-003	0	3.315225268579606E-005	7.5851613E-001	2.0408842E-001	7.8549272E-001	1.5059510E+001	1.5076423E+003	5.6033125E+003	5.8025938E+003	-7.4940491E+001	0.0000000E+000	0.0000000E+000	0.0000000E+000	7.4940491E+001	0.0000000E+000	0.0000000E+000	0.0000000E+000	-7.4940491E+001	0.0000000E+000	0.0000000E+000	0.0000000E+000	-1.5059510E+001	0.0000000E+000	0.0000000E+000	0.0000000E+000	1.5059510E+001	3.7166054E+000	7.4940491E+001	5.488990553861692E-006	1.0043581E-005	7.7254053E+003
1.4678594E+004	1.2981124E+000	3.7549204E-001	1.3513290E+000	-1.6133043E+001	4.211473959992873E+000	2.7855489E-001	3.1376131E-002	2.8875860E+001	2.2295346E+000	1.000000000000000E+000	9	5.3848005E-003	3.9848182E-003	0	3.412554060629595E-005	7.1086985E-001	2.0562623E-001	7.4001223E-001	1.6133043E+001	2.2295344E+003	7.7077183E+003	8.0236987E+003	-7.3866959E+001	0.0000000E+000	0.0000000E+000	0.0000000E+000	7.3866959E+001	0.0000000E+000	0.0000000E+000	0.0000000E+000	-7.3866959E+001	0.0000000E+000	0.0000000E+000	0.0000000E+000	-1.6133043E+001	0.0000000E+000	0.0000000E+000	0.0000000E+000	1.6133043E+001	3.4570971E+000	7.3866959E+001	9.732879204998933E-007	8.7399749E-006	8.8779238E+003
1.0002226E+004	1.3710150E+000	4.3257961E-001	1.4376395E+000	-1.7511412E+001	4.648497874120949E+000	2.7856338E-001	3.1059142E-002	3.6783871E+001	3.3303475E+000	1.000000000000000E+000	9	5.3422656E-003	3.7159980E-003	0	3.651006122274945E-005	6.6334921E-001	2.0929846E-001	6.9558465E-001	1.7511412E+001	3.3303477E+003	1.0555182E+004	1.1068110E+004	-7.2488586E+001	0.0000000E+000	0.0000000E+000	0.0000000E+000	7.2488586E+001	0.0000000E+000	0.0000000E+000	0.0000000E+000	-7.2488586E+001	0.0000000E+000	0.0000000E+000	0.0000000E+000	-1.7511412E+001	0.0000000E+000	0.0000000E+000	0.0000000E+000	1.7511412E+001	3.1693933E+000	7.2488586E+001	2.384520616453501E-006	8.6519394E-006	8.9688047E+003
6.8110674E+003	1.4581815E+000	5.0669855E-001	1.5437088E+000	-1.9161655E+001	5.203508593811421E+000	2.7856100E-001	1.8099645E-002	4.6116390E+001	4.9684834E+000	1.000000000000000E+000	9	5.2693640E-003	3.4134444E-003	0	4.686165867290563E-005	6.1190051E-001	2.1262725E-001	6.4779055E-001	1.9161655E+001	4.9684829E+003	1.4298346E+004	1.5136991E+004	-7.0838348E+001	0.0000000E+000	0.0000000E+000	0.0000000E+000	7.0838348E+001	0.0000000E+000	0.0000000E+000	0.0000000E+000	-7.0838348E+001	0.0000000E+000	0.0000000E+000	0.0000000E+000	-1.9161655E+001	0.0000000E+000	0.0000000E+000	0.0000000E+000	1.9161655E+001	2.8778088E+000	7.0838348E+001	1.035159745015618E-005	5.0418553E-006	1.5390412E+004
4.6414854E+003	1.5535786E+000	6.0593748E-001	1.6675631E+000	-2.1307123E+001	5.896690040099202E+000	2.7855590E-001	4.0121499E-002	5.6589432E+001	7.4718204E+000	1.000000000000000E+000	9	5.1971665E-003	3.1166235E-003	0	5.540448424471671E-005	5.5868715E-001	2.1790303E-001	5.9967744E-001	2.1307123E+001	7.4718198E+003	1.9157191E+004	2.0562734E+004	-6.8692879E+001	0.0000000E+000	0.0000000E+000	0.0000000E+000	6.8692879E+001	0.0000000E+000	0.0000000E+000	0.0000000E+000	-6.8692879E+001	0.0000000E+000	0.0000000E+000	0.0000000E+000	-2.1307123E+001	0.0000000E+000	0.0000000E+000	0.0000000E+000	2.1307123E+001	2.5639255E+000	6.8692879E+001	8.542825571811083E-006	1.1176080E-005	6.9428086E+003
3.1610117E+003	1.6628100E+000	7.3724800E-001	1.8189205E+000	-2.3911291E+001	6.586680739543226E+000	2.7855217E-001	3.9095920E-002	6.8293663E+001	1.1219673E+001	1.000000000000000E+000	9	5.0955499E-003	2.8014143E-003	0	6.059993692231809E-005	5.0259155E-001	2.2283642E-001	5.4977661E-001	2.3911291E+001	1.1219674E+004	2.5305168E+004	2.7680906E+004	-6.6088707E+001	0.0000000E+000	0.0000000E+000	0.0000000E+000	6.6088707E+001	0.0000000E+000	0.0000000E+000	0.0000000E+000	-6.6088707E+001	0.0000000E+000	0.0000000E+000	0.0000000E+000	-2.3911291E+001	0.0000000E+000	0.0000000E+000	0.0000000E+000	2.3911291E+001	2.2554283E+000	6.6088707E+001	5.195452677601377E-006	1.0890253E-005	7.1248398E+003
2.1556899E+003	1.7963804E+000	9.1343582E-001	2.0152786E+000	-2.6952738E+001	7.053686761719291E+000	2.7855587E-001	4.2359099E-002	8.0826874E+001	1.6605108E+001	1.000000000000000E+000	9	5.1814285E-003	2.5710731E-003	0	6.539666870901257E-005	4.4231141E-001	2.2490954E-001	4.9620932E-001	2.6952738E+001	1.6605107E+004	3.2655924E+004	3.6635215E+004	-6.3047264E+001	0.0000000E+000	0.0000000E+000	0.0000000E+000	6.3047264E+001	0.0000000E+000	0.0000000E+000	0.0000000E+000	-6.3047264E+001	0.0000000E+000	0.0000000E+000	0.0000000E+000	-2.6952738E+001	0.0000000E+000	0.0000000E+000	0.0000000E+000	2.6952738E+001	1.9666191E+000	6.3047264E+001	4.796731786694480E-006	1.1799376E-005	6.5760576E+003
1.4685898E+003	1.9549413E+000	1.1519134E+000	2.2690747E+000	-3.0507942E+001	7.520932410552632E+000	2.7855942E-001	3.9245073E-002	9.4080536E+001	2.4246099E+001	1.000000000000000E+000	9	5.0750733E-003	2.2366268E-003	0	7.193252493401653E-005	3.7969610E-001	2.2372900E-001	4.4070828E-001	3.0507942E+001	2.4246102E+004	4.1148668E+004	4.7760719E+004	-5.9492058E+001	0.0000000E+000	0.0000000E+000	0.0000000E+000	5.9492058E+001	0.0000000E+000	0.0000000E+000	0.0000000E+000	-5.9492058E+001	0.0000000E+000	0.0000000E+000	0.0000000E+000	-3.0507942E+001	0.0000000E+000	0.0000000E+000	0.0000000E+000	3.0507942E+001	1.6971252E+000	5.9492058E+001	6.535856225003961E-006	1.0932084E-005	7.0979463E+003
1.0003202E+003	2.1755664E+000	1.4468194E+000	2.6127334E+000	-3.3625145E+001	7.989673846175720E+000	2.7856410E-001	3.5702165E-002	1.0996811E+002	3.3721371E+001	1.000000000000000E+000	9	4.9933307E-003	1.9111520E-003	0	7.538996875455552E-005	3.1870008E-001	2.1194549E-001	3.8274094E-001	3.3625145E+001	3.3721371E+004	5.0706453E+004	6.0895609E+004	-5.6374855E+001	0.0000000E+000	0.0000000E+000	0.0000000E+000	5.6374855E+001	0.0000000E+000	0.0000000E+000	0.0000000E+000	-5.6374855E+001	0.0000000E+000	0.0000000E+000	0.0000000E+000	-3.3625145E+001	0.0000000E+000	0.0000000E+000	0.0000000E+000	3.3625145E+001	1.5036889E+000	5.6374855E+001	3.457443820538986E-006	9.9453409E-006	7.8024424E+003
6.8108978E+002	2.4369726E+000	1.8253816E+000	3.0448077E+000	-3.6834553E+001	8.709410840325290E+000	2.7858931E-001	-7.9114232E-003	1.2801537E+002	4.6009735E+001	1.000000000000000E+000	10	5.0073406E-003	1.6445507E-003	0	7.822303027540652E-005	2.6286387E-001	1.9689466E-001	3.2842797E-001	3.6834553E+001	4.6009734E+004	6.1425219E+004	7.6746031E+004	-5.3165447E+001	0.0000000E+000	0.0000000E+000	0.0000000E+000	5.3165447E+001	0.0000000E+000	0.0000000E+000	0.0000000E+000	-5.3165447E+001	0.0000000E+000	0.0000000E+000	0.0000000E+000	-3.6834553E+001	0.0000000E+000	0.0000000E+000	0.0000000E+000	3.6834553E+001	1.3350483E+000	5.3165451E+001	2.833061520851000E-006	-2.2040379E-006	3.5213551E+004
4.6396069E+002	2.8030252E+000	2.3164821E+000	3.6363497E+000	-3.9571079E+001	9.178179635928245E+000	2.7856848E-001	-8.0960160E-003	1.4808463E+002	6.0094757E+001	1.000000000000000E+000	10	4.9038972E-003	1.3485769E-003	0	7.718279482962357E-005	2.1198040E-001	1.7518529E-001	2.7500105E-001	3.9571079E+001	6.0094754E+004	7.2716781E+004	9.4335094E+004	-5.0428921E+001	0.0000000E+000	0.0000000E+000	0.0000000E+000	5.0428921E+001	0.0000000E+000	0.0000000E+000	0.0000000E+000	-5.0428921E+001	0.0000000E+000	0.0000000E+000	0.0000000E+000	-3.9571079E+001	0.0000000E+000	0.0000000E+000	0.0000000E+000	3.9571079E+001	1.2100353E+000	5.0428925E+001	-1.040235445782950E-006	-2.2552949E-006	3.4408094E+004
3.1631589E+002	3.2951100E+000	2.9295900E+000	4.4091096E+000	-4.1639397E+001	9.644923151441617E+000	2.7855772E-001	-8.1929676E-003	1.7174825E+002	7.5823563E+001	1.000000000000000E+000	10	4.8393086E-003	1.0975705E-003	0	7.551471139848258E-005	1.6949940E-001	1.5069716E-001	2.2680317E-001	4.1639397E+001	7.5823563E+004	8.5283945E+004	1.1411645E+005	-4.8360603E+001	0.0000000E+000	0.0000000E+000	0.0000000E+000	4.8360603E+001	0.0000000E+000	0.0000000E+000	0.0000000E+000	-4.8360603E+001	0.0000000E+000	0.0000000E+000	0.0000000E+000	-4.1639397E+001	0.0000000E+000	0.0000000E+000	0.0000000E+000	4.1639397E+001	1.1247683E+000	4.8360596E+001	-1.668083431140982E-006	-2.2822144E-006	3.3999613E+004
2.1534457E+002	3.9559548E+000	3.6474299E+000	5.3808293E+000	-4.2676369E+001	1.011244277362130E+001	2.7856955E-001	-7.7194055E-003	2.0262791E+002	9.3105370E+001	1.000000000000000E+000	10	4.7942600E-003	8.9098909E-004	0	7.391239493159487E-005	1.3663214E-001	1.2597622E-001	1.8584496E-001	4.2676369E+001	9.3105367E+004	1.0098086E+005	1.3735263E+005	-4.7323631E+001	0.0000000E+000	0.0000000E+000	0.0000000E+000	4.7323631E+001	0.0000000E+000	0.0000000E+000	0.0000000E+000	-4.7323631E+001	0.0000000E+000	0.0000000E+000	0.0000000E+000	-4.2676369E+001	0.0000000E+000	0.0000000E+000	0.0000000E+000	4.2676369E+001	1.0845869E+000	4.7323639E+001	-1.602316466887719E-006	-2.1503913E-006	3.6086918E+004
1.4673740E+002	4.8240504E+000	4.4900794E+000	6.5903168E+000	-4.2946461E+001	1.057536746226833E+001	2.7856863E-001	-7.5646690E-003	2.4156013E+002	1.1212972E+002	1.000000000000000E+000	10	4.7661439E-003	7.2320405E-004	0	7.338773136921292E-005	1.1107064E-001	1.0338117E-001	1.5173778E-001	4.2946461E+001	1.1212973E+005	1.2046991E+005	1.6457847E+005	-4.7053539E+001	0.0000000E+000	0.0000000E+000	0.0000000E+000	4.7053539E+001	0.0000000E+000	0.0000000E+000	0.0000000E+000	-4.7053539E+001	0.0000000E+000	0.0000000E+000	0.0000000E+000	-4.2946461E+001	0.0000000E+000	0.0000000E+000	0.0000000E+000	4.2946461E+001	1.0743798E+000	4.7053543E+001	-5.246635623819458E-007	-2.1072794E-006	3.6824957E+004
1.0003201E+002	5.9648695E+000	5.4220862E+000	8.0609360E+000	-4.2270943E+001	1.104369561790372E+001	2.7857706E-001	-7.0109293E-003	2.9343689E+002	1.3276286E+002	1.000000000000000E+000	10	4.7476483E-003	5.8896985E-004	0	7.310552044770803E-005	9.1797322E-002	8.3444074E-002	1.2405507E-001	4.2270943E+001	1.3276286E+005	1.4605322E+005	1.9737659E+005	-4.7729057E+001	0.0000000E+000	0.0000000E+000	0.0000000E+000	4.7729057E+001	0.0000000E+000	0.0000000E+000	0.0000000E+000	-4.7729057E+001	0.0000000E+000	0.0000000E+000	0.0000000E+000	-4.2270943E+001	0.0000000E+000	0.0000000E+000	0.0000000E+000	4.2270943E+001	1.1001060E+000	4.7729065E+001	-2.822109215048932E-007	-1.9530842E-006	3.9734684E+004
6.8103981E+001	7.4754753E+000	6.4166322E+000	9.8516951E+000	-4.0641399E+001	1.152233668058761E+001	2.7856681E-001	-6.9922903E-003	3.6420044E+002	1.5450156E+002	1.000000000000000E+000	10	4.7508162E-003	4.8223339E-004	0	7.265151806228419E-005	7.7022366E-002	6.6112749E-002	1.0150538E-001	4.0641399E+001	1.5450155E+005	1.7999667E+005	2.3721200E+005	-4.9358601E+001	0.0000000E+000	0.0000000E+000	0.0000000E+000	4.9358601E+001	0.0000000E+000	0.0000000E+000	0.0000000E+000	-4.9358601E+001	0.0000000E+000	0.0000000E+000	0.0000000E+000	-4.0641399E+001	0.0000000E+000	0.0000000E+000	0.0000000E+000	4.0641399E+001	1.1650155E+000	4.9358597E+001	-4.540023854238416E-007	-1.9478200E-006	3.9839137E+004
4.6441547E+001	9.3452415E+000	7.3163791E+000	1.1868569E+001	-3.8057354E+001	1.197755915552261E+001	2.7856809E-001	-7.9431571E-003	4.6840039E+002	1.7799710E+002	1.000000000000000E+000	10	4.7390261E-003	3.9929210E-004	0	7.197679923015918E-005	6.6342793E-002	5.1939704E-002	8.4256150E-002	3.8057354E+001	1.7799709E+005	2.2735642E+005	2.8874541E+005	-5.1942646E+001	0.0000000E+000	0.0000000E+000	0.0000000E+000	5.1942646E+001	0.0000000E+000	0.0000000E+000	0.0000000E+000	-5.1942646E+001	0.0000000E+000	0.0000000E+000	0.0000000E+000	-3.8057354E+001	0.0000000E+000	0.0000000E+000	0.0000000E+000	3.8057354E+001	1.2773042E+000	5.1942642E+001	-6.747188321250096E-007	-2.2127101E-006	3.5070199E+004
3.1629555E+001	1.1529904E+001	7.9764433E+000	1.4020069E+001	-3.4675671E+001	1.242444944343879E+001	2.7858335E-001	-8.2862154E-003	6.3083789E+002	2.0419072E+002	1.000000000000000E+000	10	4.7265319E-003	3.3712614E-004	0	7.092263115365414E-005	5.8657747E-002	4.0579710E-002	7.1326323E-002	3.4675671E+001	2.0419073E+005	2.9515656E+005	3.5890284E+005	-5.5324329E+001	0.0000000E+000	0.0000000E+000	0.0000000E+000	5.5324329E+001	0.0000000E+000	0.0000000E+000	0.0000000E+000	-5.5324329E+001	0.0000000E+000	0.0000000E+000	0.0000000E+000	-3.4675671E+001	0.0000000E+000	0.0000000E+000	0.0000000E+000	3.4675671E+001	1.4454944E+000	5.5324326E+001	-1.054168076505032E-006	-2.3084017E-006	3.3620094E+004
2.1551722E+001	1.3979309E+001	8.3328810E+000	1.6274458E+001	-3.0798611E+001	1.310336168899084E+001	2.7859738E-001	-8.0914721E-003	8.8622290E+002	2.3233800E+002	1.000000000000000E+000	11	4.7302721E-003	2.9065620E-004	0	6.912685879894384E-005	5.2780394E-002	3.1461693E-002	6.1445978E-002	3.0798611E+001	2.3233802E+005	3.8977213E+005	4.5376566E+005	-5.9201389E+001	0.0000000E+000	0.0000000E+000	0.0000000E+000	5.9201389E+001	0.0000000E+000	0.0000000E+000	0.0000000E+000	-5.9201389E+001	0.0000000E+000	0.0000000E+000	0.0000000E+000	-3.0798611E+001	0.0000000E+000	0.0000000E+000	0.0000000E+000	3.0798611E+001	1.6776081E+000	5.9201385E+001	-1.795772354710304E-006	-2.2542629E-006	3.4430988E+004
1.4685154E+001	1.6410337E+001	8.3351240E+000	1.8405800E+001	-2.6926886E+001	1.358206352510024E+001	2.7858117E-001	-8.5206823E-003	1.3002581E+003	2.6665167E+002	1.000000000000000E+000	11	4.7343657E-003	2.5722140E-004	0	6.824409187550999E-005	4.8440445E-002	2.4603827E-002	5.4330699E-002	2.6926886E+001	2.6665166E+005	5.2498838E+005	5.8882588E+005	-6.3073112E+001	0.0000000E+000	0.0000000E+000	0.0000000E+000	6.3073112E+001	0.0000000E+000	0.0000000E+000	0.0000000E+000	-6.3073112E+001	0.0000000E+000	0.0000000E+000	0.0000000E+000	-2.6926886E+001	0.0000000E+000	0.0000000E+000	0.0000000E+000	2.6926886E+001	1.9688175E+000	6.3073112E+001	-8.827669234338535E-007	-2.3737016E-006	3.2694703E+004
