EC-Lab ASCII FILE

Nb header lines : 63                          

Potentio Electrochemical Impedance Spectroscopy

Run on channel : 8 (SN 65398)
User : 
CE vs. WE compliance from -10 V to 10 V
Electrode connection : standard
Potential control : Ewe
Ewe ctrl range : min = -10.00 V, max = 10.00 V
Safety Limits :
	Do not start on E overload
Acquisition started on : 09/22/2025 10:03:51.870
Loaded Setting File :  C:\Users\Celltest\OneDrive - store-dot.com\Documents\EC-Lab\Data\Charmaine\17688_R288_UA670_SOC00_C03.mpr
Saved on :
	File : 17710_R287_UA662_SOC00_C08.mpr
	Directory : C:\Users\Celltest\OneDrive - store-dot.com\Documents\EC-Lab\Data\Charmaine\
	Host : 169.254.61.224
Device : VMP-3e (SN .003165)
Address : USB
EC-LAB for windows v11.62 (software)
Internet server v27.00 (firmware)
Command interpretor v12.03 (firmware)
Electrode material : 
Initial state : 
Electrolyte : 
Comments : 
Electrode surface area : 0.001 cm²
Characteristic mass : 0.001 g
Equivalent Weight : 0.000 g/eq.
Density : 0.000 g/cm3
Volume (V) : 0.001 cm³
Cycle Definition : Charge/Discharge alternance
Mode                Single sine         
E (V)               0.0000              
vs.                 Eoc                 
tE (h:m:s)          0:00:0.0000         
record              0                   
dI                  0.000               
unit dI             mA                  
dt (s)              0.000               
fi                  100.000             
unit fi             kHz                 
ff                  10.000              
unit ff             mHz                 
Nd                  6                   
Points              per decade          
spacing             Logarithmic         
Va (mV)             5.0                 
pw                  0.10                
Na                  2                   
corr                0                   
E range min (V)     -10.000             
E range max (V)     10.000              
I Range             Auto                
Bandwidth           5                   
nc cycles           0                   
goto Ns'            0                   
nr cycles           0                   
inc. cycle          0                   

freq/Hz	Re(Z)/Ohm	-Im(Z)/Ohm	|Z|/Ohm	Phase(Z)/deg	time/s	<Ewe>/V	<I>/mA	Cs/µF	Cp/µF	cycle number	I Range	|Ewe|/V	|I|/A	Ns	(Q-Qo)/mA.h	Re(Y)/Ohm-1	Im(Y)/Ohm-1	|Y|/Ohm-1	Phase(Y)/deg	Re(C)/nF	Im(C)/nF	|C|/nF	Phase(C)/deg	Re(M)	Im(M)	|M|	Phase(M)/deg	Re(Permittivity)	Im(Permittivity)	|Permittivity|	Phase(Permittivity)/deg	Re(Resistivity)/Ohm.cm	Im(Resistivity)/Ohm.cm	|Resistivity|/Ohm.cm	Phase(Resistivity)/deg	Re(Conductivity)/mS/cm	Im(Conductivity)/mS/cm	|Conductivity|/mS/cm	Phase(Conductivity)/deg	Tan(Delta)	Loss Angle(Delta)/deg	dq/mA.h	Pwe/W	Rwe/Ohm	
1.0000371E+005	1.3416349E+000	2.3722407E-001	1.3624461E+000	-1.0027237E+001	2.077493671997217E+000	2.7229083E-001	4.8625741E-002	6.7088060E+000	2.0338742E-001	1.000000000000000E+000	9	4.9099564E-003	3.6037804E-003	0	6.659204694959853E-006	7.2276258E-001	1.2779684E-001	7.3397398E-001	1.0027237E+001	2.0338745E+002	1.1502698E+003	1.1681125E+003	-7.9972763E+001	0.0000000E+000	0.0000000E+000	0.0000000E+000	7.9972763E+001	0.0000000E+000	0.0000000E+000	0.0000000E+000	-7.9972763E+001	0.0000000E+000	0.0000000E+000	0.0000000E+000	-1.0027237E+001	0.0000000E+000	0.0000000E+000	0.0000000E+000	1.0027237E+001	5.6555595E+000	7.9972763E+001	6.659204694959853E-006	1.3240343E-005	5.5997261E+003
6.8132047E+004	1.3929316E+000	2.8327700E-001	1.4214444E+000	-1.1495335E+001	2.514486572734313E+000	2.7229500E-001	4.9425591E-002	8.2462664E+000	3.2750675E-001	1.000000000000000E+000	9	5.4016705E-003	3.8001279E-003	0	1.705587018896929E-005	6.8939799E-001	1.4020115E-001	7.0350975E-001	1.1495335E+001	3.2750665E+002	1.6104183E+003	1.6433831E+003	-7.8504669E+001	0.0000000E+000	0.0000000E+000	0.0000000E+000	7.8504669E+001	0.0000000E+000	0.0000000E+000	0.0000000E+000	-7.8504669E+001	0.0000000E+000	0.0000000E+000	0.0000000E+000	-1.1495335E+001	0.0000000E+000	0.0000000E+000	0.0000000E+000	1.1495335E+001	4.9172068E+000	7.8504669E+001	1.039666549400944E-005	1.3458342E-005	5.5091904E+003
4.6420355E+004	1.4582100E+000	3.2941949E-001	1.4949560E+000	-1.2729824E+001	3.092480093502672E+000	2.7230075E-001	5.0653256E-002	1.0407883E+001	5.0536382E-001	1.000000000000000E+000	9	5.0874674E-003	3.4030883E-003	0	2.433790075248625E-005	6.5247399E-001	1.4739829E-001	6.6891599E-001	1.2729824E+001	5.0536395E+002	2.2370459E+003	2.2934182E+003	-7.7270172E+001	0.0000000E+000	0.0000000E+000	0.0000000E+000	7.7270172E+001	0.0000000E+000	0.0000000E+000	0.0000000E+000	-7.7270172E+001	0.0000000E+000	0.0000000E+000	0.0000000E+000	-1.2729824E+001	0.0000000E+000	0.0000000E+000	0.0000000E+000	1.2729824E+001	4.4266052E+000	7.7270172E+001	7.282030563516957E-006	1.3792920E-005	5.3757798E+003
3.1621139E+004	1.5326391E+000	3.8351640E-001	1.5798948E+000	-1.4048791E+001	3.529497500945581E+000	2.7230036E-001	4.7788683E-002	1.3123773E+001	7.7333963E-001	1.000000000000000E+000	9	5.4367455E-003	3.4412073E-003	0	2.412175315346232E-005	6.1402148E-001	1.5364824E-001	6.3295352E-001	1.4048791E+001	7.7333960E+002	3.0904822E+003	3.1857705E+003	-7.5951210E+001	0.0000000E+000	0.0000000E+000	0.0000000E+000	7.5951210E+001	0.0000000E+000	0.0000000E+000	0.0000000E+000	-7.5951210E+001	0.0000000E+000	0.0000000E+000	0.0000000E+000	-1.4048791E+001	0.0000000E+000	0.0000000E+000	0.0000000E+000	1.4048791E+001	3.9962807E+000	7.5951210E+001	-2.161475990239244E-007	1.3012876E-005	5.6980093E+003
2.1544684E+004	1.6261519E+000	4.4313127E-001	1.6854482E+000	-1.5243156E+001	4.107498248427873E+000	2.7229989E-001	4.4496283E-002	1.6670462E+001	1.1523426E+000	1.000000000000000E+000	9	5.0780778E-003	3.0128947E-003	0	2.899016670905985E-005	5.7244045E-001	1.5599173E-001	5.9331399E-001	1.5243156E+001	1.1523425E+003	4.2287334E+003	4.3829307E+003	-7.4756844E+001	0.0000000E+000	0.0000000E+000	0.0000000E+000	7.4756844E+001	0.0000000E+000	0.0000000E+000	0.0000000E+000	-7.4756844E+001	0.0000000E+000	0.0000000E+000	0.0000000E+000	-1.5243156E+001	0.0000000E+000	0.0000000E+000	0.0000000E+000	1.5243156E+001	3.6696844E+000	7.4756844E+001	4.868413555597524E-006	1.2116333E-005	6.1196099E+003
1.4678594E+004	1.7270734E+000	5.1454562E-001	1.8020931E+000	-1.6590332E+001	4.544493842491647E+000	2.7229801E-001	4.4831105E-002	2.1072292E+001	1.7179285E+000	1.000000000000000E+000	9	5.4337797E-003	3.0152602E-003	0	3.134513123473152E-005	5.3180981E-001	1.5844168E-001	5.5491030E-001	1.6590332E+001	1.7179286E+003	5.7662305E+003	6.0167012E+003	-7.3409668E+001	0.0000000E+000	0.0000000E+000	0.0000000E+000	7.3409668E+001	0.0000000E+000	0.0000000E+000	0.0000000E+000	-7.3409668E+001	0.0000000E+000	0.0000000E+000	0.0000000E+000	-1.6590332E+001	0.0000000E+000	0.0000000E+000	0.0000000E+000	1.6590332E+001	3.3565021E+000	7.3409668E+001	2.354964525671675E-006	1.2207421E-005	6.0738633E+003
1.0002226E+004	1.8460519E+000	5.8392680E-001	1.9362020E+000	-1.7552742E+001	5.122480909951264E+000	2.7229190E-001	4.3045394E-002	2.7249910E+001	2.4784522E+000	1.000000000000000E+000	9	5.0622602E-003	2.6145310E-003	0	3.815315160558870E-005	4.9242780E-001	1.5576039E-001	5.1647502E-001	1.7552742E+001	2.4784521E+003	7.8354888E+003	8.2181270E+003	-7.2447258E+001	0.0000000E+000	0.0000000E+000	0.0000000E+000	7.2447258E+001	0.0000000E+000	0.0000000E+000	0.0000000E+000	-7.2447258E+001	0.0000000E+000	0.0000000E+000	0.0000000E+000	-1.7552742E+001	0.0000000E+000	0.0000000E+000	0.0000000E+000	1.7552742E+001	3.1614442E+000	7.2447258E+001	6.808020370857175E-006	1.1720912E-005	6.3256919E+003
6.8110674E+003	1.9796526E+000	6.7638469E-001	2.0920136E+000	-1.8863674E+001	5.678503096365603E+000	2.7227092E-001	1.9626591E-002	3.4547066E+001	3.6113510E+000	1.000000000000000E+000	9	5.4161837E-003	2.5889811E-003	0	3.688040800600882E-005	4.5233479E-001	1.5454848E-001	4.7800836E-001	1.8863674E+001	3.6113518E+003	1.0569756E+004	1.1169673E+004	-7.1136322E+001	0.0000000E+000	0.0000000E+000	0.0000000E+000	7.1136322E+001	0.0000000E+000	0.0000000E+000	0.0000000E+000	-7.1136322E+001	0.0000000E+000	0.0000000E+000	0.0000000E+000	-1.8863674E+001	0.0000000E+000	0.0000000E+000	0.0000000E+000	1.8863674E+001	2.9268148E+000	7.1136322E+001	-1.272743599579878E-006	5.3437502E-006	1.3872553E+004
4.6414854E+003	2.1363630E+000	7.7107173E-001	2.2712548E+000	-1.9845898E+001	6.372710142706637E+000	2.7228907E-001	3.1456891E-002	4.4470127E+001	5.1253819E+000	1.000000000000000E+000	9	5.4832529E-003	2.4141953E-003	0	4.536193484423631E-005	4.1413632E-001	1.4947312E-001	4.4028527E-001	1.9845898E+001	5.1253828E+003	1.4200593E+004	1.5097231E+004	-7.0154099E+001	0.0000000E+000	0.0000000E+000	0.0000000E+000	7.0154099E+001	0.0000000E+000	0.0000000E+000	0.0000000E+000	-7.0154099E+001	0.0000000E+000	0.0000000E+000	0.0000000E+000	-1.9845898E+001	0.0000000E+000	0.0000000E+000	0.0000000E+000	1.9845898E+001	2.7706411E+000	7.0154099E+001	8.481526838227485E-006	8.5653674E-006	8.6559434E+003
3.1610117E+003	2.3098929E+000	8.9122093E-001	2.4758594E+000	-2.1098001E+001	7.062708655481401E+000	2.7229276E-001	3.2312535E-002	5.6494823E+001	7.3202758E+000	1.000000000000000E+000	9	5.3211167E-003	2.1491998E-003	0	4.761941156021526E-005	3.7682515E-001	1.4538962E-001	4.0390015E-001	2.1098001E+001	7.3202749E+003	1.8972908E+004	2.0336117E+004	-6.8902000E+001	0.0000000E+000	0.0000000E+000	0.0000000E+000	6.8902000E+001	0.0000000E+000	0.0000000E+000	0.0000000E+000	-6.8902000E+001	0.0000000E+000	0.0000000E+000	0.0000000E+000	-2.1098001E+001	0.0000000E+000	0.0000000E+000	0.0000000E+000	2.1098001E+001	2.5918298E+000	6.8902000E+001	2.257476715978957E-006	8.7984690E-006	8.4268467E+003
2.1556899E+003	2.5007398E+000	1.0241717E+000	2.7023373E+000	-2.2271431E+001	7.752697541589441E+000	2.7228904E-001	3.3782013E-002	7.2087677E+001	1.0354461E+001	1.000000000000000E+000	9	5.1083099E-003	1.8903303E-003	0	5.270296851588258E-005	3.4244388E-001	1.4024703E-001	3.7005004E-001	2.2271431E+001	1.0354462E+004	2.5282688E+004	2.7320855E+004	-6.7728569E+001	0.0000000E+000	0.0000000E+000	0.0000000E+000	6.7728569E+001	0.0000000E+000	0.0000000E+000	0.0000000E+000	-6.7728569E+001	0.0000000E+000	0.0000000E+000	0.0000000E+000	-2.2271431E+001	0.0000000E+000	0.0000000E+000	0.0000000E+000	2.2271431E+001	2.4417193E+000	6.7728569E+001	5.083556955667314E-006	9.1984721E-006	8.0601782E+003
1.4685898E+003	2.7268293E+000	1.1921841E+000	2.9760547E+000	-2.3615200E+001	8.444927681121044E+000	2.7228832E-001	3.5009678E-002	9.0902596E+001	1.4587509E+001	1.000000000000000E+000	9	5.1156217E-003	1.7189273E-003	0	6.020069916252720E-005	3.0787623E-001	1.3460509E-001	3.3601534E-001	2.3615200E+001	1.4587511E+004	3.3365355E+004	3.6414867E+004	-6.6384796E+001	0.0000000E+000	0.0000000E+000	0.0000000E+000	6.6384796E+001	0.0000000E+000	0.0000000E+000	0.0000000E+000	-6.6384796E+001	0.0000000E+000	0.0000000E+000	0.0000000E+000	-2.3615200E+001	0.0000000E+000	0.0000000E+000	0.0000000E+000	2.3615200E+001	2.2872553E+000	6.6384796E+001	7.497730646644620E-006	9.5327268E-006	7.7775156E+003
1.0003202E+003	2.9812720E+000	1.3943946E+000	3.2912488E+000	-2.5066339E+001	9.167702302132966E+000	2.7229843E-001	-1.4821326E-003	1.1410256E+002	2.0480726E+001	1.000000000000000E+000	10	5.1734466E-003	1.5718795E-003	0	6.391521090451473E-005	2.7522013E-001	1.2872541E-001	3.0383605E-001	2.5066339E+001	2.0480725E+004	4.3788621E+004	4.8341527E+004	-6.4933662E+001	0.0000000E+000	0.0000000E+000	0.0000000E+000	6.4933662E+001	0.0000000E+000	0.0000000E+000	0.0000000E+000	-6.4933662E+001	0.0000000E+000	0.0000000E+000	0.0000000E+000	-2.5066339E+001	0.0000000E+000	0.0000000E+000	0.0000000E+000	2.5066339E+001	2.1380403E+000	6.4933662E+001	3.714511741987536E-006	-4.0358236E-007	1.8372069E+005
6.8108978E+002	3.2696900E+000	1.6545515E+000	3.6644800E+000	-2.6840643E+001	9.633440404228168E+000	2.7229965E-001	-1.2756819E-003	1.4123277E+002	2.8791969E+001	1.000000000000000E+000	10	5.0908346E-003	1.3892379E-003	0	6.395262590233082E-005	2.4349043E-001	1.2321274E-001	2.7289003E-001	2.6840643E+001	2.8791971E+004	5.6898086E+004	6.3768094E+004	-6.3159355E+001	0.0000000E+000	0.0000000E+000	0.0000000E+000	6.3159355E+001	0.0000000E+000	0.0000000E+000	0.0000000E+000	-6.3159355E+001	0.0000000E+000	0.0000000E+000	0.0000000E+000	-2.6840643E+001	0.0000000E+000	0.0000000E+000	0.0000000E+000	2.6840643E+001	1.9761790E+000	6.3159355E+001	3.741499781608653E-008	-3.4736772E-007	2.1345419E+005
4.6396069E+002	3.6195343E+000	1.9824945E+000	4.1269011E+000	-2.8710440E+001	1.010219154649531E+001	2.7230331E-001	-1.1901218E-003	1.7303221E+002	3.9930321E+001	1.000000000000000E+000	10	4.9908636E-003	1.2093490E-003	0	6.391609729411075E-005	2.1252233E-001	1.1640291E-001	2.4231257E-001	2.8710440E+001	3.9930324E+004	7.2902680E+004	8.3121789E+004	-6.1289558E+001	0.0000000E+000	0.0000000E+000	0.0000000E+000	6.1289558E+001	0.0000000E+000	0.0000000E+000	0.0000000E+000	-6.1289558E+001	0.0000000E+000	0.0000000E+000	0.0000000E+000	-2.8710440E+001	0.0000000E+000	0.0000000E+000	0.0000000E+000	2.8710440E+001	1.8257475E+000	6.1289558E+001	-3.652860822007356E-008	-3.2407411E-007	2.2880291E+005
3.1631589E+002	4.0481257E+000	2.3901486E+000	4.7010779E+000	-3.0559021E+001	1.056894252865459E+001	2.7230251E-001	-1.0785270E-003	2.1051073E+002	5.4416317E+001	1.000000000000000E+000	10	4.9058744E-003	1.0435637E-003	0	6.446346999906625E-005	1.8317202E-001	1.0815087E-001	2.1271718E-001	3.0559021E+001	5.4416320E+004	9.2163352E+004	1.0702905E+005	-5.9440979E+001	0.0000000E+000	0.0000000E+000	0.0000000E+000	5.9440979E+001	0.0000000E+000	0.0000000E+000	0.0000000E+000	-5.9440979E+001	0.0000000E+000	0.0000000E+000	0.0000000E+000	-3.0559021E+001	0.0000000E+000	0.0000000E+000	0.0000000E+000	3.0559021E+001	1.6936711E+000	5.9440979E+001	5.473727049555007E-007	-2.9368559E-007	2.5247631E+005
2.1534457E+002	4.5922275E+000	2.8897462E+000	5.4257889E+000	-3.2180935E+001	1.103641052418971E+001	2.7230173E-001	-1.6253638E-003	2.5575639E+002	7.2547112E+001	1.000000000000000E+000	10	4.8374860E-003	8.9157285E-004	0	6.491686891350158E-005	1.5599030E-001	9.8159857E-002	1.8430500E-001	3.2180935E+001	7.2547117E+004	1.1528792E+005	1.3621450E+005	-5.7819065E+001	0.0000000E+000	0.0000000E+000	0.0000000E+000	5.7819065E+001	0.0000000E+000	0.0000000E+000	0.0000000E+000	-5.7819065E+001	0.0000000E+000	0.0000000E+000	0.0000000E+000	-3.2180935E+001	0.0000000E+000	0.0000000E+000	0.0000000E+000	3.2180935E+001	1.5891457E+000	5.7819061E+001	4.533989144353290E-007	-4.4258940E-007	1.6753278E+005
1.4673740E+002	5.3164902E+000	3.5024154E+000	6.3664732E+000	-3.3376228E+001	1.149938449283945E+001	2.7230155E-001	-1.6309540E-003	3.0967892E+002	9.3723640E+001	1.000000000000000E+000	10	4.8047071E-003	7.5468898E-004	0	6.423514581790530E-005	1.3116778E-001	8.6411163E-002	1.5707284E-001	3.3376228E+001	9.3723633E+004	1.4226775E+005	1.7036500E+005	-5.6623772E+001	0.0000000E+000	0.0000000E+000	0.0000000E+000	5.6623772E+001	0.0000000E+000	0.0000000E+000	0.0000000E+000	-5.6623772E+001	0.0000000E+000	0.0000000E+000	0.0000000E+000	-3.3376228E+001	0.0000000E+000	0.0000000E+000	0.0000000E+000	3.3376228E+001	1.5179496E+000	5.6623772E+001	-6.817230955962741E-007	-4.4411129E-007	1.6695845E+005
1.0003201E+002	6.2803936E+000	4.1294789E+000	7.5163779E+000	-3.3325684E+001	1.196767080845893E+001	2.7230281E-001	-2.1963886E-003	3.8528836E+002	1.1629450E+002	1.000000000000000E+000	10	4.7714510E-003	6.3480722E-004	0	6.330935704245349E-005	1.1116540E-001	7.3093370E-002	1.3304280E-001	3.3325684E+001	1.1629449E+005	1.7686861E+005	2.1167644E+005	-5.6674316E+001	0.0000000E+000	0.0000000E+000	0.0000000E+000	5.6674316E+001	0.0000000E+000	0.0000000E+000	0.0000000E+000	-5.6674316E+001	0.0000000E+000	0.0000000E+000	0.0000000E+000	-3.3325684E+001	0.0000000E+000	0.0000000E+000	0.0000000E+000	3.3325684E+001	1.5208683E+000	5.6674316E+001	-9.257887754518101E-007	-5.9808275E-007	1.2397752E+005
6.8103981E+001	7.5226536E+000	4.7128258E+000	8.8769951E+000	-3.2066505E+001	1.244633664449793E+001	2.7229941E-001	-1.3147596E-003	4.9586819E+002	1.3976456E+002	1.000000000000000E+000	10	4.7597778E-003	5.3619244E-004	0	6.266789318194949E-005	9.5463879E-002	5.9806641E-002	1.1265073E-001	3.2066505E+001	1.3976455E+005	2.2309339E+005	2.6325803E+005	-5.7933495E+001	0.0000000E+000	0.0000000E+000	0.0000000E+000	5.7933495E+001	0.0000000E+000	0.0000000E+000	0.0000000E+000	-5.7933495E+001	0.0000000E+000	0.0000000E+000	0.0000000E+000	-3.2066505E+001	0.0000000E+000	0.0000000E+000	0.0000000E+000	3.2066505E+001	1.5962087E+000	5.7933495E+001	-6.414638605039993E-007	-3.5800826E-007	2.0710966E+005
4.6441547E+001	9.0100355E+000	5.0850005E+000	1.0345916E+001	-2.9439112E+001	1.290155751942075E+001	2.7229542E-001	-2.2949709E-003	6.7394189E+002	1.6280457E+002	1.000000000000000E+000	10	4.7504916E-003	4.5916587E-004	0	6.207333661370083E-005	8.4176071E-002	4.7506511E-002	9.6656501E-002	2.9439112E+001	1.6280455E+005	2.8847094E+005	3.3124131E+005	-6.0560890E+001	0.0000000E+000	0.0000000E+000	0.0000000E+000	6.0560890E+001	0.0000000E+000	0.0000000E+000	0.0000000E+000	-6.0560890E+001	0.0000000E+000	0.0000000E+000	0.0000000E+000	-2.9439112E+001	0.0000000E+000	0.0000000E+000	0.0000000E+000	2.9439112E+001	1.7718849E+000	6.0560890E+001	-5.945565682486569E-007	-6.2491006E-007	1.1864874E+005
3.1629555E+001	1.0588896E+001	5.1650891E+000	1.1781463E+001	-2.6002359E+001	1.334845338066225E+001	2.7229172E-001	-3.5132621E-003	9.7420245E+002	1.8724336E+002	1.000000000000000E+000	10	4.7449088E-003	4.0274361E-004	0	6.181376434920013E-005	7.6287307E-002	3.7211694E-002	8.4879108E-002	2.6002359E+001	1.8724338E+005	3.8386572E+005	4.2709831E+005	-6.3997643E+001	0.0000000E+000	0.0000000E+000	0.0000000E+000	6.3997643E+001	0.0000000E+000	0.0000000E+000	0.0000000E+000	-6.3997643E+001	0.0000000E+000	0.0000000E+000	0.0000000E+000	-2.6002359E+001	0.0000000E+000	0.0000000E+000	0.0000000E+000	2.6002359E+001	2.0500896E+000	6.3997643E+001	-2.595722645007051E-007	-9.5663222E-007	7.7503961E+004
2.1551722E+001	1.2097555E+001	4.9519734E+000	1.3071836E+001	-2.2261086E+001	1.378734569481458E+001	2.7228630E-001	-4.1103181E-003	1.4912822E+003	2.1401454E+002	1.000000000000000E+000	10	4.7382177E-003	3.6247532E-004	0	6.117443171764413E-005	7.0798568E-002	2.8980451E-002	7.6500349E-002	2.2261086E+001	2.1401456E+005	5.2283259E+005	5.6493906E+005	-6.7738914E+001	0.0000000E+000	0.0000000E+000	0.0000000E+000	6.7738914E+001	0.0000000E+000	0.0000000E+000	0.0000000E+000	-6.7738914E+001	0.0000000E+000	0.0000000E+000	0.0000000E+000	-2.2261086E+001	0.0000000E+000	0.0000000E+000	0.0000000E+000	2.2261086E+001	2.4429765E+000	6.7738914E+001	-6.393326315559986E-007	-1.1191833E-006	6.6244578E+004
1.4685154E+001	1.3467121E+001	4.5823784E+000	1.4225384E+001	-1.8791599E+001	1.452405495653511E+001	2.7230200E-001	-3.9170119E-003	2.3651062E+003	2.4541696E+002	1.000000000000000E+000	11	4.7408817E-003	3.3326916E-004	0	5.788871693908287E-005	6.6549808E-002	2.2644514E-002	7.0296876E-002	1.8791599E+001	2.4541694E+005	7.2125431E+005	7.6186431E+005	-7.1208405E+001	0.0000000E+000	0.0000000E+000	0.0000000E+000	7.1208405E+001	0.0000000E+000	0.0000000E+000	0.0000000E+000	-7.1208405E+001	0.0000000E+000	0.0000000E+000	0.0000000E+000	-1.8791599E+001	0.0000000E+000	0.0000000E+000	0.0000000E+000	1.8791599E+001	2.9388933E+000	7.1208405E+001	-3.285714778561263E-006	-1.0666101E-006	6.9517789E+004
