EC-Lab ASCII FILE

Nb header lines : 63                          

Potentio Electrochemical Impedance Spectroscopy

Run on channel : 5 (SN 65912)
User : 
CE vs. WE compliance from -10 V to 10 V
Electrode connection : standard
Potential control : Ewe
Ewe ctrl range : min = -10.00 V, max = 10.00 V
Safety Limits :
	Do not start on E overload
Acquisition started on : 09/22/2025 10:25:27.551
Loaded Setting File :  C:\Users\Celltest\OneDrive - store-dot.com\Documents\EC-Lab\Data\Gyutae\17740_R277_UA674_SOC00_C04.mpr
Saved on :
	File : 17715_R287_UA663_SOC00_C05.mpr
	Directory : C:\Users\Celltest\OneDrive - store-dot.com\Documents\EC-Lab\Data\Charmaine\
	Host : 169.254.61.224
Device : VMP-3e (SN .003165)
Address : USB
EC-LAB for windows v11.62 (software)
Internet server v27.00 (firmware)
Command interpretor v12.03 (firmware)
Electrode material : 
Initial state : 
Electrolyte : 
Comments : 
Electrode surface area : 0.001 cm²
Characteristic mass : 0.001 g
Equivalent Weight : 0.000 g/eq.
Density : 0.000 g/cm3
Volume (V) : 0.001 cm³
Cycle Definition : Charge/Discharge alternance
Mode                Single sine         
E (V)               0.0000              
vs.                 Eoc                 
tE (h:m:s)          0:00:0.0000         
record              0                   
dI                  0.000               
unit dI             mA                  
dt (s)              0.000               
fi                  100.000             
unit fi             kHz                 
ff                  10.000              
unit ff             mHz                 
Nd                  6                   
Points              per decade          
spacing             Logarithmic         
Va (mV)             5.0                 
pw                  0.10                
Na                  2                   
corr                0                   
E range min (V)     -10.000             
E range max (V)     10.000              
I Range             Auto                
Bandwidth           5                   
nc cycles           0                   
goto Ns'            0                   
nr cycles           0                   
inc. cycle          0                   

freq/Hz	Re(Z)/Ohm	-Im(Z)/Ohm	|Z|/Ohm	Phase(Z)/deg	time/s	<Ewe>/V	<I>/mA	Cs/µF	Cp/µF	cycle number	I Range	|Ewe|/V	|I|/A	Ns	(Q-Qo)/mA.h	Re(Y)/Ohm-1	Im(Y)/Ohm-1	|Y|/Ohm-1	Phase(Y)/deg	Re(C)/nF	Im(C)/nF	|C|/nF	Phase(C)/deg	Re(M)	Im(M)	|M|	Phase(M)/deg	Re(Permittivity)	Im(Permittivity)	|Permittivity|	Phase(Permittivity)/deg	Re(Resistivity)/Ohm.cm	Im(Resistivity)/Ohm.cm	|Resistivity|/Ohm.cm	Phase(Resistivity)/deg	Re(Conductivity)/mS/cm	Im(Conductivity)/mS/cm	|Conductivity|/mS/cm	Phase(Conductivity)/deg	Tan(Delta)	Loss Angle(Delta)/deg	dq/mA.h	Pwe/W	Rwe/Ohm	
1.0000371E+005	1.0356094E+000	2.1728578E-001	1.0581588E+000	-1.1849594E+001	1.864486248552566E+000	2.6511645E-001	-1.9590998E-002	7.3244104E+000	3.0884007E-001	1.000000000000000E+000	9	4.7468310E-003	4.4859345E-003	0	-9.364986883954972E-006	9.2489904E-001	1.9405714E-001	9.4503778E-001	1.1849594E+001	3.0884009E+002	1.4719679E+003	1.5040186E+003	-7.8150406E+001	0.0000000E+000	0.0000000E+000	0.0000000E+000	7.8150406E+001	0.0000000E+000	0.0000000E+000	0.0000000E+000	-7.8150406E+001	0.0000000E+000	0.0000000E+000	0.0000000E+000	-1.1849594E+001	0.0000000E+000	0.0000000E+000	0.0000000E+000	1.1849594E+001	4.7661166E+000	7.8150406E+001	-9.364986883954972E-006	-5.1938960E-006	1.3532564E+004
6.8132047E+004	1.0894278E+000	2.3477690E-001	1.1144385E+000	-1.2161521E+001	2.442475609335816E+000	2.6510489E-001	-2.1955729E-002	9.9497766E+000	4.4158247E-001	1.000000000000000E+000	9	5.0273882E-003	4.5111398E-003	0	-1.034887537983660E-005	8.7717497E-001	1.8903540E-001	8.9731282E-001	1.2161521E+001	4.4158252E+002	2.0490613E+003	2.0961028E+003	-7.7838478E+001	0.0000000E+000	0.0000000E+000	0.0000000E+000	7.7838478E+001	0.0000000E+000	0.0000000E+000	0.0000000E+000	-7.7838478E+001	0.0000000E+000	0.0000000E+000	0.0000000E+000	-1.2161521E+001	0.0000000E+000	0.0000000E+000	0.0000000E+000	1.2161521E+001	4.6402683E+000	7.7838478E+001	-9.838884958816286E-007	-5.8205710E-006	1.2074521E+004
4.6420355E+004	1.1498420E+000	2.5729522E-001	1.1782774E+000	-1.2613054E+001	3.020494863420026E+000	2.6509151E-001	-1.7635917E-002	1.3325392E+001	6.3540161E-001	1.000000000000000E+000	9	5.0181090E-003	4.2588520E-003	0	-1.217930931515164E-005	8.2821500E-001	1.8532613E-001	8.4869659E-001	1.2613054E+001	6.3540155E+002	2.8395845E+003	2.9098066E+003	-7.7386948E+001	0.0000000E+000	0.0000000E+000	0.0000000E+000	7.7386948E+001	0.0000000E+000	0.0000000E+000	0.0000000E+000	-7.7386948E+001	0.0000000E+000	0.0000000E+000	0.0000000E+000	-1.2613054E+001	0.0000000E+000	0.0000000E+000	0.0000000E+000	1.2613054E+001	4.4689598E+000	7.7386948E+001	-1.830433935315038E-006	-4.6751320E-006	1.5031342E+004
3.1621139E+004	1.2088013E+000	2.8679550E-001	1.2423575E+000	-1.3346991E+001	3.598485344235087E+000	2.6509666E-001	-1.8511057E-002	1.7549725E+001	9.3523723E-001	1.000000000000000E+000	9	5.0544729E-003	4.0684529E-003	0	-1.952609010656468E-005	7.8318024E-001	1.8581431E-001	8.0492127E-001	1.3346991E+001	9.3523730E+002	3.9418884E+003	4.0513149E+003	-7.6653008E+001	0.0000000E+000	0.0000000E+000	0.0000000E+000	7.6653008E+001	0.0000000E+000	0.0000000E+000	0.0000000E+000	-7.6653008E+001	0.0000000E+000	0.0000000E+000	0.0000000E+000	-1.3346991E+001	0.0000000E+000	0.0000000E+000	0.0000000E+000	1.3346991E+001	4.2148542E+000	7.6653008E+001	-7.346780791413040E-006	-4.9072196E-006	1.4320990E+004
2.1544684E+004	1.2752323E+000	3.1993717E-001	1.3147537E+000	-1.4083980E+001	4.035499551653629E+000	2.6509187E-001	-2.0522006E-002	2.3089542E+001	1.3672752E+000	1.000000000000000E+000	9	5.3513441E-003	4.0702256E-003	0	-1.576971228383223E-005	7.3773527E-001	1.8508701E-001	7.6059878E-001	1.4083980E+001	1.3672750E+003	5.4497998E+003	5.6186973E+003	-7.5916023E+001	0.0000000E+000	0.0000000E+000	0.0000000E+000	7.5916023E+001	0.0000000E+000	0.0000000E+000	0.0000000E+000	-7.5916023E+001	0.0000000E+000	0.0000000E+000	0.0000000E+000	-1.4083980E+001	0.0000000E+000	0.0000000E+000	0.0000000E+000	1.4083980E+001	3.9858835E+000	7.5916023E+001	3.756377822732450E-006	-5.4402167E-006	1.2917444E+004
1.4678594E+004	1.3440998E+000	3.5753742E-001	1.3908404E+000	-1.4896025E+001	4.332486899074866E+000	2.6509076E-001	-2.2495722E-002	3.0325933E+001	2.0040224E+000	1.000000000000000E+000	9	5.3503430E-003	3.8468419E-003	0	-1.941271388065070E-005	6.9482732E-001	1.8482763E-001	7.1898973E-001	1.4896025E+001	2.0040227E+003	7.5337734E+003	7.7957583E+003	-7.5103973E+001	0.0000000E+000	0.0000000E+000	0.0000000E+000	7.5103973E+001	0.0000000E+000	0.0000000E+000	0.0000000E+000	-7.5103973E+001	0.0000000E+000	0.0000000E+000	0.0000000E+000	-1.4896025E+001	0.0000000E+000	0.0000000E+000	0.0000000E+000	1.4896025E+001	3.7593262E+000	7.5103973E+001	-3.643001596818471E-006	-5.9634081E-006	1.1784052E+004
1.0002226E+004	1.4147515E+000	4.0944350E-001	1.4728088E+000	-1.6140982E+001	4.628479313134449E+000	2.6508942E-001	-2.0335823E-002	3.8862392E+001	3.0034797E+000	1.000000000000000E+000	9	4.9573872E-003	3.3659406E-003	0	-1.931151297553960E-005	6.5220994E-001	1.8875620E-001	6.7897475E-001	1.6140982E+001	3.0034800E+003	1.0377933E+004	1.0803813E+004	-7.3859016E+001	0.0000000E+000	0.0000000E+000	0.0000000E+000	7.3859016E+001	0.0000000E+000	0.0000000E+000	0.0000000E+000	-7.3859016E+001	0.0000000E+000	0.0000000E+000	0.0000000E+000	-1.6140982E+001	0.0000000E+000	0.0000000E+000	0.0000000E+000	1.6140982E+001	3.4553034E+000	7.3859016E+001	1.012009051111013E-007	-5.3908116E-006	1.3035589E+004
6.8110674E+003	1.5015895E+000	4.7392535E-001	1.5746036E+000	-1.7516520E+001	5.006509411119623E+000	2.6489776E-001	-1.5890516E-001	4.9305458E+001	4.4665523E+000	1.000000000000000E+000	9	4.7254604E-003	3.0010478E-003	0	-3.135813403427083E-005	6.0563195E-001	1.9114701E-001	6.3508052E-001	1.7516520E+001	4.4665527E+003	1.4151868E+004	1.4839995E+004	-7.2483482E+001	0.0000000E+000	0.0000000E+000	0.0000000E+000	7.2483482E+001	0.0000000E+000	0.0000000E+000	0.0000000E+000	-7.2483482E+001	0.0000000E+000	0.0000000E+000	0.0000000E+000	-1.7516520E+001	0.0000000E+000	0.0000000E+000	0.0000000E+000	1.7516520E+001	3.1684093E+000	7.2483482E+001	-1.204662105873123E-005	-4.2093623E-005	1.6670179E+003
4.6414854E+003	1.5938656E+000	5.5885804E-001	1.6890026E+000	-1.9322227E+001	5.477674580200983E+000	2.6506728E-001	-2.2931511E-003	6.1356647E+001	6.7174430E+000	1.000000000000000E+000	9	4.5859739E-003	2.7151965E-003	0	-3.164813596049660E-005	5.5871594E-001	1.9590290E-001	5.9206539E-001	1.9322227E+001	6.7174438E+003	1.9158180E+004	2.0301721E+004	-7.0677773E+001	0.0000000E+000	0.0000000E+000	0.0000000E+000	7.0677773E+001	0.0000000E+000	0.0000000E+000	0.0000000E+000	-7.0677773E+001	0.0000000E+000	0.0000000E+000	0.0000000E+000	-1.9322227E+001	0.0000000E+000	0.0000000E+000	0.0000000E+000	1.9322227E+001	2.8520045E+000	7.0677773E+001	-2.900019262257658E-007	-6.0783930E-007	1.1559084E+005
3.1610117E+003	1.6993605E+000	6.7103058E-001	1.8270490E+000	-2.1547697E+001	5.944682682376879E+000	2.6506343E-001	-6.2405705E-003	7.5032898E+001	1.0121291E+001	1.000000000000000E+000	9	4.5057917E-003	2.4661580E-003	0	-3.339005891331989E-005	5.0907892E-001	2.0102122E-001	5.4733068E-001	2.1547697E+001	1.0121293E+004	2.5631803E+004	2.7557756E+004	-6.8452301E+001	0.0000000E+000	0.0000000E+000	0.0000000E+000	6.8452301E+001	0.0000000E+000	0.0000000E+000	0.0000000E+000	-6.8452301E+001	0.0000000E+000	0.0000000E+000	0.0000000E+000	-2.1547697E+001	0.0000000E+000	0.0000000E+000	0.0000000E+000	2.1547697E+001	2.5324636E+000	6.8452301E+001	-1.741922952823294E-006	-1.6541470E-006	4.2474230E+004
2.1556899E+003	1.8210588E+000	8.1555367E-001	1.9953402E+000	-2.4125025E+001	6.634675728484581E+000	2.6506412E-001	-5.2164746E-003	9.0527657E+001	1.5123505E+001	1.000000000000000E+000	9	4.9737426E-003	2.4926791E-003	0	-3.522812431797825E-005	4.5739353E-001	2.0484181E-001	5.0116765E-001	2.4125025E+001	1.5123503E+004	3.3769441E+004	3.7001289E+004	-6.5874977E+001	0.0000000E+000	0.0000000E+000	0.0000000E+000	6.5874977E+001	0.0000000E+000	0.0000000E+000	0.0000000E+000	-6.5874977E+001	0.0000000E+000	0.0000000E+000	0.0000000E+000	-2.4125025E+001	0.0000000E+000	0.0000000E+000	0.0000000E+000	2.4125025E+001	2.2329111E+000	6.5874977E+001	-1.838065404658359E-006	-1.3827002E-006	5.0812883E+004
1.4685898E+003	1.9722023E+000	1.0070581E+000	2.2144408E+000	-2.7050045E+001	7.101952097320464E+000	2.6506767E-001	-6.3895448E-003	1.0761308E+002	2.2255943E+001	1.000000000000000E+000	9	4.9435119E-003	2.2323974E-003	0	-3.609056119129268E-005	4.0218264E-001	2.0536497E-001	4.5158127E-001	2.7050045E+001	2.2255943E+004	4.3585590E+004	4.8939051E+004	-6.2949955E+001	0.0000000E+000	0.0000000E+000	0.0000000E+000	6.2949955E+001	0.0000000E+000	0.0000000E+000	0.0000000E+000	-6.2949955E+001	0.0000000E+000	0.0000000E+000	0.0000000E+000	-2.7050045E+001	0.0000000E+000	0.0000000E+000	0.0000000E+000	2.7050045E+001	1.9583797E+000	6.2949951E+001	-8.624368733144337E-007	-1.6936617E-006	4.1484594E+004
1.0003202E+003	2.1621161E+000	1.2615882E+000	2.5032680E+000	-3.0263433E+001	7.571689239659463E+000	2.6506624E-001	-1.1491410E-002	1.2611405E+002	3.2031998E+001	1.000000000000000E+000	9	4.9130633E-003	1.9626596E-003	0	-3.804376370855001E-005	3.4503591E-001	2.0132743E-001	3.9947781E-001	3.0263433E+001	3.2032000E+004	5.4896594E+004	6.3558516E+004	-5.9736565E+001	0.0000000E+000	0.0000000E+000	0.0000000E+000	5.9736565E+001	0.0000000E+000	0.0000000E+000	0.0000000E+000	-5.9736565E+001	0.0000000E+000	0.0000000E+000	0.0000000E+000	-3.0263433E+001	0.0000000E+000	0.0000000E+000	0.0000000E+000	3.0263433E+001	1.7138048E+000	5.9736565E+001	-1.953202517257324E-006	-3.0459846E-006	2.3066469E+004
6.8108978E+002	2.4018416E+000	1.5924951E+000	2.8818195E+000	-3.3545609E+001	8.037418381747557E+000	2.6506013E-001	-1.3018239E-002	1.4673634E+002	4.4808495E+001	1.000000000000000E+000	9	4.9029724E-003	1.7013461E-003	0	-3.876186267471510E-005	2.8920832E-001	1.9175406E-001	3.4700298E-001	3.3545609E+001	4.4808496E+004	6.7581305E+004	8.1086586E+004	-5.6454391E+001	0.0000000E+000	0.0000000E+000	0.0000000E+000	5.6454391E+001	0.0000000E+000	0.0000000E+000	0.0000000E+000	-5.6454391E+001	0.0000000E+000	0.0000000E+000	0.0000000E+000	-3.3545609E+001	0.0000000E+000	0.0000000E+000	0.0000000E+000	3.3545609E+001	1.5082254E+000	5.6454391E+001	-7.180989661650925E-007	-3.4506161E-006	2.0360674E+004
4.6396069E+002	2.7162211E+000	1.9983015E+000	3.3721011E+000	-3.6341614E+001	8.760183776059421E+000	2.6505402E-001	-2.6957763E-002	1.7166348E+002	6.0283543E+001	1.000000000000000E+000	10	4.9656597E-003	1.4725714E-003	0	-4.465389024408068E-005	2.3887128E-001	1.7573565E-001	2.9655102E-001	3.6341614E+001	6.0283551E+004	8.1941305E+004	1.0172750E+005	-5.3658386E+001	0.0000000E+000	0.0000000E+000	0.0000000E+000	5.3658386E+001	0.0000000E+000	0.0000000E+000	0.0000000E+000	-5.3658386E+001	0.0000000E+000	0.0000000E+000	0.0000000E+000	-3.6341614E+001	0.0000000E+000	0.0000000E+000	0.0000000E+000	3.6341614E+001	1.3592649E+000	5.3658386E+001	-5.892027569365584E-006	-7.1452637E-006	9.8321963E+003
3.1631589E+002	3.1429214E+000	2.5042238E+000	4.0185933E+000	-3.8547215E+001	9.226912038255250E+000	2.6505429E-001	-2.6592856E-002	2.0092130E+002	7.8023270E+001	1.000000000000000E+000	10	4.9294806E-003	1.2266682E-003	0	-4.773537993006822E-005	1.9461907E-001	1.5506902E-001	2.4884330E-001	3.8547215E+001	7.8023281E+004	9.7922969E+004	1.2520599E+005	-5.1452785E+001	0.0000000E+000	0.0000000E+000	0.0000000E+000	5.1452785E+001	0.0000000E+000	0.0000000E+000	0.0000000E+000	-5.1452785E+001	0.0000000E+000	0.0000000E+000	0.0000000E+000	-3.8547215E+001	0.0000000E+000	0.0000000E+000	0.0000000E+000	3.8547215E+001	1.2550482E+000	5.1452789E+001	-3.081489685987539E-006	-7.0485507E-006	9.9671240E+003
2.1534457E+002	3.7117565E+000	3.1073086E+000	4.8407130E+000	-3.9934490E+001	9.694449687114684E+000	2.6505676E-001	-2.6989408E-002	2.3784926E+002	9.8005836E+001	1.000000000000000E+000	10	4.9070488E-003	1.0137038E-003	0	-5.012265398299658E-005	1.5840206E-001	1.3260676E-001	2.0658113E-001	3.9934490E+001	9.8005828E+004	1.1707038E+005	1.5267814E+005	-5.0065510E+001	0.0000000E+000	0.0000000E+000	0.0000000E+000	5.0065510E+001	0.0000000E+000	0.0000000E+000	0.0000000E+000	-5.0065510E+001	0.0000000E+000	0.0000000E+000	0.0000000E+000	-3.9934490E+001	0.0000000E+000	0.0000000E+000	0.0000000E+000	3.9934490E+001	1.1945245E+000	5.0065506E+001	-2.387274052928357E-006	-7.1537252E-006	9.8207695E+003
1.4673740E+002	4.4726720E+000	3.8027835E+000	5.8707714E+000	-4.0372063E+001	1.015737754906877E+001	2.6505864E-001	-2.7095532E-002	2.8521851E+002	1.1967146E+002	1.000000000000000E+000	10	4.8955232E-003	8.3388074E-004	0	-5.354522003856255E-005	1.2977073E-001	1.1033448E-001	1.7033537E-001	4.0372063E+001	1.1967145E+005	1.4075247E+005	1.8474988E+005	-4.9627937E+001	0.0000000E+000	0.0000000E+000	0.0000000E+000	4.9627937E+001	0.0000000E+000	0.0000000E+000	0.0000000E+000	-4.9627937E+001	0.0000000E+000	0.0000000E+000	0.0000000E+000	-4.0372063E+001	0.0000000E+000	0.0000000E+000	0.0000000E+000	4.0372063E+001	1.1761574E+000	4.9627930E+001	-3.422566055565968E-006	-7.1819049E-006	9.7823740E+003
1.0003201E+002	5.4530406E+000	4.5759153E+000	7.1186132E+000	-4.0001671E+001	1.062567594471329E+001	2.6505142E-001	-2.5775595E-002	3.4769879E+002	1.4367073E+002	1.000000000000000E+000	10	4.8874696E-003	6.8657607E-004	0	-5.714430043816618E-005	1.0760883E-001	9.0299882E-002	1.4047679E-001	4.0001671E+001	1.4367073E+005	1.7120997E+005	2.2350422E+005	-4.9998329E+001	0.0000000E+000	0.0000000E+000	0.0000000E+000	4.9998329E+001	0.0000000E+000	0.0000000E+000	0.0000000E+000	-4.9998329E+001	0.0000000E+000	0.0000000E+000	0.0000000E+000	-4.0001671E+001	0.0000000E+000	0.0000000E+000	0.0000000E+000	4.0001671E+001	1.1916831E+000	4.9998322E+001	-3.599080399603632E-006	-6.8318582E-006	1.0283038E+004
6.8103981E+001	6.7291994E+000	5.3395104E+000	8.5902557E+000	-3.8431427E+001	1.110432628743001E+001	2.6505858E-001	-2.4913630E-002	4.3766940E+002	1.6909738E+002	1.000000000000000E+000	10	4.8781065E-003	5.6786509E-004	0	-6.053588058713366E-005	9.1190837E-002	7.2358444E-002	1.1641097E-001	3.8431427E+001	1.6909738E+005	2.1310756E+005	2.7204550E+005	-5.1568573E+001	0.0000000E+000	0.0000000E+000	0.0000000E+000	5.1568573E+001	0.0000000E+000	0.0000000E+000	0.0000000E+000	-5.1568573E+001	0.0000000E+000	0.0000000E+000	0.0000000E+000	-3.8431427E+001	0.0000000E+000	0.0000000E+000	0.0000000E+000	3.8431427E+001	1.2602652E+000	5.1568573E+001	-3.391580148967476E-006	-6.6035714E-006	1.0639100E+004
4.6441547E+001	8.3160362E+000	6.0461788E+000	1.0281670E+001	-3.6019047E+001	1.155955540234572E+001	2.6505339E-001	-2.7957520E-002	5.6680347E+002	1.9600500E+002	1.000000000000000E+000	10	4.8846519E-003	4.7508351E-004	0	-6.371938350958064E-005	7.8666359E-002	5.7194423E-002	9.7260468E-002	3.6019047E+001	1.9600500E+005	2.6958922E+005	3.3331113E+005	-5.3980953E+001	0.0000000E+000	0.0000000E+000	0.0000000E+000	5.3980953E+001	0.0000000E+000	0.0000000E+000	0.0000000E+000	-5.3980953E+001	0.0000000E+000	0.0000000E+000	0.0000000E+000	-3.6019047E+001	0.0000000E+000	0.0000000E+000	0.0000000E+000	3.6019047E+001	1.3754202E+000	5.3980957E+001	-3.183502922446980E-006	-7.4102354E-006	9.4805762E+003
3.1629555E+001	1.0152353E+001	6.5068288E+000	1.2058570E+001	-3.2656551E+001	1.200644275688683E+001	2.6505232E-001	-2.9121084E-002	7.7331720E+002	2.2516704E+002	1.000000000000000E+000	10	4.8798118E-003	4.0467584E-004	0	-6.714992045188491E-005	6.9819242E-002	4.4748429E-002	8.2928576E-002	3.2656551E+001	2.2516705E+005	3.5131944E+005	4.1728353E+005	-5.7343449E+001	0.0000000E+000	0.0000000E+000	0.0000000E+000	5.7343449E+001	0.0000000E+000	0.0000000E+000	0.0000000E+000	-5.7343449E+001	0.0000000E+000	0.0000000E+000	0.0000000E+000	-3.2656551E+001	0.0000000E+000	0.0000000E+000	0.0000000E+000	3.2656551E+001	1.5602614E+000	5.7343445E+001	-3.430536942304271E-006	-7.7186105E-006	9.1017324E+003
2.1551722E+001	1.2103572E+001	6.6832314E+000	1.3826136E+001	-2.8906170E+001	1.244532933775918E+001	2.6504532E-001	-3.1539444E-002	1.1049729E+003	2.5818024E+002	1.000000000000000E+000	10	4.8715137E-003	3.5234095E-004	0	-6.983527763852262E-005	6.3315772E-002	3.4961082E-002	7.2326787E-002	2.8906170E+001	2.5818023E+005	4.6757369E+005	5.3411813E+005	-6.1093830E+001	0.0000000E+000	0.0000000E+000	0.0000000E+000	6.1093830E+001	0.0000000E+000	0.0000000E+000	0.0000000E+000	-6.1093830E+001	0.0000000E+000	0.0000000E+000	0.0000000E+000	-2.8906170E+001	0.0000000E+000	0.0000000E+000	0.0000000E+000	2.8906170E+001	1.8110359E+000	6.1093826E+001	-2.685357186637708E-006	-8.3593823E-006	8.4036143E+003
1.4685154E+001	1.4125716E+001	6.5825691E+000	1.5584161E+001	-2.4985470E+001	1.318304865283426E+001	2.6507390E-001	-1.6594330E-002	1.6464410E+003	2.9374481E+002	1.000000000000000E+000	11	4.8780493E-003	3.1301327E-004	0	-7.644427898153501E-005	5.8162577E-002	2.7103700E-002	6.4167716E-002	2.4985470E+001	2.9374488E+005	6.3035506E+005	6.9543769E+005	-6.5014526E+001	0.0000000E+000	0.0000000E+000	0.0000000E+000	6.5014526E+001	0.0000000E+000	0.0000000E+000	0.0000000E+000	-6.5014526E+001	0.0000000E+000	0.0000000E+000	0.0000000E+000	-2.4985470E+001	0.0000000E+000	0.0000000E+000	0.0000000E+000	2.4985470E+001	2.1459274E+000	6.5014526E+001	-6.609001343012389E-006	-4.3987238E-006	1.5973764E+004
