EC-Lab ASCII FILE
Nb header lines : 63                          

Potentio Electrochemical Impedance Spectroscopy

Run on channel : 2 (SN 66139)
User : 
CE vs. WE compliance from -10 V to 10 V
Electrode connection : standard
Potential control : Ewe
Ewe ctrl range : min = -10.00 V, max = 10.00 V
Safety Limits :
	Do not start on E overload
Acquisition started on : 09/22/2025 10:25:05.396
Loaded Setting File :  C:\Users\Celltest\OneDrive - store-dot.com\Documents\EC-Lab\Data\Gyutae\17737_R277_UA674_SOC00_C01.mpr
Saved on :
	File : 17712_R287_UA663_SOC00_C02.mpr
	Directory : C:\Users\Celltest\OneDrive - store-dot.com\Documents\EC-Lab\Data\Charmaine\
	Host : 169.254.61.224
Device : VMP-3e (SN .003165)
Address : USB
EC-LAB for windows v11.62 (software)
Internet server v27.00 (firmware)
Command interpretor v12.03 (firmware)
Electrode material : 
Initial state : 
Electrolyte : 
Comments : 
Electrode surface area : 0.001 cm²
Characteristic mass : 0.001 g
Equivalent Weight : 0.000 g/eq.
Density : 0.000 g/cm3
Volume (V) : 0.001 cm³
Cycle Definition : Charge/Discharge alternance
Mode                Single sine         
E (V)               0.0000              
vs.                 Eoc                 
tE (h:m:s)          0:00:0.0000         
record              0                   
dI                  0.000               
unit dI             mA                  
dt (s)              0.000               
fi                  100.000             
unit fi             kHz                 
ff                  10.000              
unit ff             mHz                 
Nd                  6                   
Points              per decade          
spacing             Logarithmic         
Va (mV)             5.0                 
pw                  0.10                
Na                  2                   
corr                0                   
E range min (V)     -10.000             
E range max (V)     10.000              
I Range             Auto                
Bandwidth           5                   
nc cycles           0                   
goto Ns'            0                   
nr cycles           0                   
inc. cycle          0                   

freq/Hz	Re(Z)/Ohm	-Im(Z)/Ohm	|Z|/Ohm	Phase(Z)/deg	time/s	<Ewe>/V	<I>/mA	Cs/µF	Cp/µF	cycle number	I Range	|Ewe|/V	|I|/A	Ns	(Q-Qo)/mA.h	Re(Y)/Ohm-1	Im(Y)/Ohm-1	|Y|/Ohm-1	Phase(Y)/deg	Re(C)/nF	Im(C)/nF	|C|/nF	Phase(C)/deg	Re(M)	Im(M)	|M|	Phase(M)/deg	Re(Permittivity)	Im(Permittivity)	|Permittivity|	Phase(Permittivity)/deg	Re(Resistivity)/Ohm.cm	Im(Resistivity)/Ohm.cm	|Resistivity|/Ohm.cm	Phase(Resistivity)/deg	Re(Conductivity)/mS/cm	Im(Conductivity)/mS/cm	|Conductivity|/mS/cm	Phase(Conductivity)/deg	Tan(Delta)	Loss Angle(Delta)/deg	dq/mA.h	Pwe/W	Rwe/Ohm	
1.0000371E+005	1.1441123E+000	2.2565171E-001	1.1661526E+000	-1.1157170E+001	2.227479065797525E+000	2.7068707E-001	1.7619643E-002	7.0528612E+000	2.6407778E-001	1.000000000000000E+000	9	4.9597728E-003	4.2531081E-003	0	-1.841804748659747E-006	8.4131360E-001	1.6593112E-001	8.5752070E-001	1.1157170E+001	2.6407785E+002	1.3389425E+003	1.3647360E+003	-7.8842827E+001	0.0000000E+000	0.0000000E+000	0.0000000E+000	7.8842827E+001	0.0000000E+000	0.0000000E+000	0.0000000E+000	-7.8842827E+001	0.0000000E+000	0.0000000E+000	0.0000000E+000	-1.1157170E+001	0.0000000E+000	0.0000000E+000	0.0000000E+000	1.1157170E+001	5.0702577E+000	7.8842827E+001	-1.841804748659747E-006	4.7694098E-006	1.5362801E+004
6.8132047E+004	1.2010860E+000	2.4862438E-001	1.2265487E+000	-1.1695034E+001	2.805477279907791E+000	2.7067587E-001	1.6576748E-002	9.3956099E+000	3.8604936E-001	1.000000000000000E+000	9	5.0523649E-003	4.1191718E-003	0	3.425113970750115E-006	7.9837060E-001	1.6526243E-001	8.1529582E-001	1.1695034E+001	3.8604950E+002	1.8649760E+003	1.9045129E+003	-7.8304962E+001	0.0000000E+000	0.0000000E+000	0.0000000E+000	7.8304962E+001	0.0000000E+000	0.0000000E+000	0.0000000E+000	-7.8304962E+001	0.0000000E+000	0.0000000E+000	0.0000000E+000	-1.1695034E+001	0.0000000E+000	0.0000000E+000	0.0000000E+000	1.1695034E+001	4.8309259E+000	7.8304962E+001	5.266918719409862E-006	4.4869257E-006	1.6328646E+004
4.6420355E+004	1.2587550E+000	2.7143809E-001	1.2876889E+000	-1.2168933E+001	3.383488320658216E+000	2.7066028E-001	2.0934507E-002	1.2631092E+001	5.6125551E-001	1.000000000000000E+000	9	5.0564329E-003	3.9267507E-003	0	-6.844871344872647E-006	7.5913548E-001	1.6370009E-001	7.7658510E-001	1.2168933E+001	5.6125537E+002	2.6027412E+003	2.6625681E+003	-7.7831070E+001	0.0000000E+000	0.0000000E+000	0.0000000E+000	7.7831070E+001	0.0000000E+000	0.0000000E+000	0.0000000E+000	-7.7831070E+001	0.0000000E+000	0.0000000E+000	0.0000000E+000	-1.2168933E+001	0.0000000E+000	0.0000000E+000	0.0000000E+000	1.2168933E+001	4.6373558E+000	7.7831070E+001	-1.026998531562276E-005	5.6661397E-006	1.2928906E+004
3.1621139E+004	1.3218464E+000	3.0475608E-001	1.3565228E+000	-1.2982871E+001	3.961493254784727E+000	2.7066699E-001	1.4304732E-002	1.6515444E+001	8.3356756E-001	1.000000000000000E+000	9	5.0081224E-003	3.6918821E-003	0	2.144053802463329E-006	7.1833462E-001	1.6561443E-001	7.3717892E-001	1.2982871E+001	8.3356763E+002	3.6155088E+003	3.7103557E+003	-7.7017128E+001	0.0000000E+000	0.0000000E+000	0.0000000E+000	7.7017128E+001	0.0000000E+000	0.0000000E+000	0.0000000E+000	-7.7017128E+001	0.0000000E+000	0.0000000E+000	0.0000000E+000	-1.2982871E+001	0.0000000E+000	0.0000000E+000	0.0000000E+000	1.2982871E+001	4.3373914E+000	7.7017128E+001	8.988925147335977E-006	3.8718185E-006	1.8921500E+004
2.1544684E+004	1.3891902E+000	3.4245032E-001	1.4307766E+000	-1.3847930E+001	4.398484555567848E+000	2.7066553E-001	1.3783293E-002	2.1571606E+001	1.2357595E+000	1.000000000000000E+000	9	5.3941845E-003	3.7701095E-003	0	7.152139200570269E-006	6.7860657E-001	1.6728382E-001	6.9892114E-001	1.3847930E+001	1.2357594E+003	5.0130039E+003	5.1630718E+003	-7.6152069E+001	0.0000000E+000	0.0000000E+000	0.0000000E+000	7.6152069E+001	0.0000000E+000	0.0000000E+000	0.0000000E+000	-7.6152069E+001	0.0000000E+000	0.0000000E+000	0.0000000E+000	-1.3847930E+001	0.0000000E+000	0.0000000E+000	0.0000000E+000	1.3847930E+001	4.0566182E+000	7.6152069E+001	5.008085398106940E-006	3.7306622E-006	1.9637219E+004
1.4678594E+004	1.4635332E+000	3.8558635E-001	1.5134748E+000	-1.4759893E+001	4.694484916253714E+000	2.7067000E-001	1.4397842E-002	2.8119915E+001	1.8251851E+000	1.000000000000000E+000	9	4.6332381E-003	3.0613248E-003	0	1.100064325808651E-005	6.3892835E-001	1.6833378E-001	6.6073120E-001	1.4759893E+001	1.8251853E+003	6.9276797E+003	7.1640806E+003	-7.5240105E+001	0.0000000E+000	0.0000000E+000	0.0000000E+000	7.5240105E+001	0.0000000E+000	0.0000000E+000	0.0000000E+000	-7.5240105E+001	0.0000000E+000	0.0000000E+000	0.0000000E+000	-1.4759893E+001	0.0000000E+000	0.0000000E+000	0.0000000E+000	1.4759893E+001	3.7956042E+000	7.5240105E+001	3.848504057516241E-006	3.8970638E-006	1.8799346E+004
1.0002226E+004	1.5415435E+000	4.4392478E-001	1.6041900E+000	-1.6065037E+001	5.131493417051388E+000	2.7066210E-001	1.3354958E-002	3.5843803E+001	2.7448668E+000	1.000000000000000E+000	9	4.9289665E-003	3.0725577E-003	0	1.555278725122722E-005	5.9902394E-001	1.7250346E-001	6.2336755E-001	1.6065037E+001	2.7448662E+003	9.5316406E+003	9.9189951E+003	-7.3934967E+001	0.0000000E+000	0.0000000E+000	0.0000000E+000	7.3934967E+001	0.0000000E+000	0.0000000E+000	0.0000000E+000	-7.3934967E+001	0.0000000E+000	0.0000000E+000	0.0000000E+000	-1.6065037E+001	0.0000000E+000	0.0000000E+000	0.0000000E+000	1.6065037E+001	3.4725330E+000	7.3934967E+001	4.552143993140714E-006	3.6146810E-006	2.0266787E+004
6.8110674E+003	1.6298476E+000	5.1773721E-001	1.7101039E+000	-1.7622963E+001	5.509495941660134E+000	2.7047473E-001	-1.1452888E-001	4.5133141E+001	4.1368461E+000	1.000000000000000E+000	9	4.6252324E-003	2.7046499E-003	0	5.947414978536674E-006	5.5731672E-001	1.7703713E-001	5.8475983E-001	1.7622963E+001	4.1368457E+003	1.3022878E+004	1.3664145E+004	-7.2377037E+001	0.0000000E+000	0.0000000E+000	0.0000000E+000	7.2377037E+001	0.0000000E+000	0.0000000E+000	0.0000000E+000	-7.2377037E+001	0.0000000E+000	0.0000000E+000	0.0000000E+000	-1.7622963E+001	0.0000000E+000	0.0000000E+000	0.0000000E+000	1.7622963E+001	3.1480210E+000	7.2377037E+001	-9.605372272690549E-006	-3.0977168E-005	2.3616292E+003
4.6414854E+003	1.7257593E+000	6.1442006E-001	1.8318726E+000	-1.9597197E+001	6.203691308015550E+000	2.7064899E-001	3.3169776E-002	5.5808170E+001	6.2782412E+000	1.000000000000000E+000	9	4.8590363E-003	2.6524968E-003	0	1.312054054555483E-005	5.1426822E-001	1.8309432E-001	5.4588950E-001	1.9597197E+001	6.2782422E+003	1.7634080E+004	1.8718363E+004	-7.0402802E+001	0.0000000E+000	0.0000000E+000	0.0000000E+000	7.0402802E+001	0.0000000E+000	0.0000000E+000	0.0000000E+000	-7.0402802E+001	0.0000000E+000	0.0000000E+000	0.0000000E+000	-1.9597197E+001	0.0000000E+000	0.0000000E+000	0.0000000E+000	1.9597197E+001	2.8087614E+000	7.0402802E+001	7.173125567018157E-006	8.9773666E-006	8.1595059E+003
3.1610117E+003	1.8400557E+000	7.4713624E-001	1.9859551E+000	-2.2099119E+001	6.670707543533354E+000	2.7065769E-001	3.5683867E-002	6.7389809E+001	9.5379486E+000	1.000000000000000E+000	9	4.7794632E-003	2.4066321E-003	0	1.528481917939563E-005	4.6654347E-001	1.8943530E-001	5.0353605E-001	2.2099119E+001	9.5379482E+003	2.3490168E+004	2.5352721E+004	-6.7900879E+001	0.0000000E+000	0.0000000E+000	0.0000000E+000	6.7900879E+001	0.0000000E+000	0.0000000E+000	0.0000000E+000	-6.7900879E+001	0.0000000E+000	0.0000000E+000	0.0000000E+000	-2.2099119E+001	0.0000000E+000	0.0000000E+000	0.0000000E+000	2.2099119E+001	2.4628115E+000	6.7900879E+001	2.164278633840796E-006	9.6581125E-006	7.5848755E+003
2.1556899E+003	1.9705007E+000	9.1855609E-001	2.1740787E+000	-2.4992752E+001	7.136693805667164E+000	2.7064854E-001	3.2015134E-002	8.0376320E+001	1.4347921E+001	1.000000000000000E+000	9	4.7347001E-003	2.1777961E-003	0	2.052519892866258E-005	4.1689441E-001	1.9433686E-001	4.5996496E-001	2.4992752E+001	1.4347922E+004	3.0779383E+004	3.3959289E+004	-6.5007248E+001	0.0000000E+000	0.0000000E+000	0.0000000E+000	6.5007248E+001	0.0000000E+000	0.0000000E+000	0.0000000E+000	-6.5007248E+001	0.0000000E+000	0.0000000E+000	0.0000000E+000	-2.4992752E+001	0.0000000E+000	0.0000000E+000	0.0000000E+000	2.4992752E+001	2.1452155E+000	6.5007248E+001	5.240379749266948E-006	8.6648488E-006	8.4537686E+003
1.4685898E+003	2.1368146E+000	1.1430911E+000	2.4233518E+000	-2.8144598E+001	7.603943454509135E+000	2.7064985E-001	3.1232953E-002	9.4806648E+001	2.1094418E+001	1.000000000000000E+000	9	4.7158501E-003	1.9460032E-003	0	2.562906218772858E-005	3.6385965E-001	1.9464709E-001	4.1265160E-001	2.8144598E+001	2.1094418E+004	3.9432430E+004	4.4720141E+004	-6.1855400E+001	0.0000000E+000	0.0000000E+000	0.0000000E+000	6.1855400E+001	0.0000000E+000	0.0000000E+000	0.0000000E+000	-6.1855400E+001	0.0000000E+000	0.0000000E+000	0.0000000E+000	-2.8144598E+001	0.0000000E+000	0.0000000E+000	0.0000000E+000	2.8144598E+001	1.8693302E+000	6.1855400E+001	5.103863259066002E-006	8.4531939E-006	8.6655225E+003
1.0003202E+003	2.3292277E+000	1.4431055E+000	2.7400465E+000	-3.1780863E+001	8.072705370119365E+000	2.7065793E-001	3.8216561E-002	1.1025112E+002	3.0581818E+001	1.000000000000000E+000	9	4.6922108E-003	1.7124566E-003	0	2.813226630533528E-005	3.1023875E-001	1.9221276E-001	3.6495730E-001	3.1780863E+001	3.0581816E+004	4.9360230E+004	5.8066168E+004	-5.8219139E+001	0.0000000E+000	0.0000000E+000	0.0000000E+000	5.8219139E+001	0.0000000E+000	0.0000000E+000	0.0000000E+000	-5.8219139E+001	0.0000000E+000	0.0000000E+000	0.0000000E+000	-3.1780863E+001	0.0000000E+000	0.0000000E+000	0.0000000E+000	3.1780863E+001	1.6140385E+000	5.8219139E+001	2.503204117606704E-006	1.0343615E-005	7.0822158E+003
6.8108978E+002	2.6053417E+000	1.8252907E+000	3.1811147E+000	-3.5014912E+001	8.792446844250662E+000	2.7064568E-001	-1.8553192E-002	1.2802174E+002	4.2149185E+001	1.000000000000000E+000	10	4.7832481E-003	1.5036390E-003	0	2.822234643669152E-005	2.5745779E-001	1.8037376E-001	3.1435522E-001	3.5014912E+001	4.2149180E+004	6.0161938E+004	7.3457555E+004	-5.4985088E+001	0.0000000E+000	0.0000000E+000	0.0000000E+000	5.4985088E+001	0.0000000E+000	0.0000000E+000	0.0000000E+000	-5.4985088E+001	0.0000000E+000	0.0000000E+000	0.0000000E+000	-3.5014912E+001	0.0000000E+000	0.0000000E+000	0.0000000E+000	3.5014912E+001	1.4273571E+000	5.4985092E+001	9.008013135623942E-008	-5.0213412E-006	1.4587554E+004
4.6396069E+002	2.9648256E+000	2.3175030E+000	3.7631118E+000	-3.8013527E+001	9.261196866544196E+000	2.7064618E-001	-1.8232821E-002	1.4801939E+002	5.6139038E+001	1.000000000000000E+000	10	4.7415225E-003	1.2600004E-003	0	2.590275401825784E-005	2.0936538E-001	1.6365378E-001	2.6573750E-001	3.8013527E+001	5.6139047E+004	7.1819750E+004	9.1157383E+004	-5.1986473E+001	0.0000000E+000	0.0000000E+000	0.0000000E+000	5.1986473E+001	0.0000000E+000	0.0000000E+000	0.0000000E+000	-5.1986473E+001	0.0000000E+000	0.0000000E+000	0.0000000E+000	-3.8013527E+001	0.0000000E+000	0.0000000E+000	0.0000000E+000	3.8013527E+001	1.2793190E+000	5.1986481E+001	-2.319592418433682E-006	-4.9346431E-006	1.4843901E+004
3.1631589E+002	3.4462585E+000	2.9297955E+000	4.5233173E+000	-4.0369129E+001	9.727910195389995E+000	2.7064034E-001	-1.8575542E-002	1.7173619E+002	7.2048065E+001	1.000000000000000E+000	10	4.7045383E-003	1.0400637E-003	0	2.296318823264705E-005	1.6843554E-001	1.4319347E-001	2.2107668E-001	4.0369129E+001	7.2048070E+004	8.4748664E+004	1.1123516E+005	-4.9630871E+001	0.0000000E+000	0.0000000E+000	0.0000000E+000	4.9630871E+001	0.0000000E+000	0.0000000E+000	0.0000000E+000	-4.9630871E+001	0.0000000E+000	0.0000000E+000	0.0000000E+000	-4.0369129E+001	0.0000000E+000	0.0000000E+000	0.0000000E+000	4.0369129E+001	1.1762795E+000	4.9630875E+001	-2.939565785610789E-006	-5.0272911E-006	1.4569715E+004
2.1534457E+002	4.1073771E+000	3.6681092E+000	5.5068660E+000	-4.1766571E+001	1.019542419092613E+001	2.7064395E-001	-1.8249596E-002	2.0148558E+002	8.9396278E+001	1.000000000000000E+000	10	4.6889493E-003	8.5147331E-004	0	2.021810912138123E-005	1.3544270E-001	1.2095763E-001	1.8159150E-001	4.1766571E+001	8.9396281E+004	1.0010177E+005	1.3420902E+005	-4.8233429E+001	0.0000000E+000	0.0000000E+000	0.0000000E+000	4.8233429E+001	0.0000000E+000	0.0000000E+000	0.0000000E+000	-4.8233429E+001	0.0000000E+000	0.0000000E+000	0.0000000E+000	-4.1766571E+001	0.0000000E+000	0.0000000E+000	0.0000000E+000	4.1766571E+001	1.1197532E+000	4.8233429E+001	-2.745079111265822E-006	-4.9391424E-006	1.4830134E+004
1.4673740E+002	4.9764099E+000	4.5276852E+000	6.7278962E+000	-4.2296856E+001	1.065837541289511E+001	2.7063897E-001	-1.9404421E-002	2.3955383E+002	1.0849181E+002	1.000000000000000E+000	10	4.6809604E-003	6.9575396E-004	0	1.833617677702245E-005	1.0994045E-001	1.0002709E-001	1.4863487E-001	4.2296856E+001	1.0849181E+005	1.1924409E+005	1.6121298E+005	-4.7703144E+001	0.0000000E+000	0.0000000E+000	0.0000000E+000	4.7703144E+001	0.0000000E+000	0.0000000E+000	0.0000000E+000	-4.7703144E+001	0.0000000E+000	0.0000000E+000	0.0000000E+000	-4.2296856E+001	0.0000000E+000	0.0000000E+000	0.0000000E+000	4.2296856E+001	1.0991069E+000	4.7703140E+001	-1.881932344358775E-006	-5.2515925E-006	1.3947284E+004
1.0003201E+002	6.1222181E+000	5.4877515E+000	8.2217379E+000	-4.1871986E+001	1.112671170184331E+001	2.7063498E-001	-1.7852869E-002	2.8992569E+002	1.2916603E+002	1.000000000000000E+000	10	4.6693999E-003	5.6793343E-004	0	1.678459109710659E-005	9.0569414E-002	8.1183389E-002	1.2162878E-001	4.1871986E+001	1.2916602E+005	1.4409956E+005	1.9351627E+005	-4.8128014E+001	0.0000000E+000	0.0000000E+000	0.0000000E+000	4.8128014E+001	0.0000000E+000	0.0000000E+000	0.0000000E+000	-4.8128014E+001	0.0000000E+000	0.0000000E+000	0.0000000E+000	-4.1871986E+001	0.0000000E+000	0.0000000E+000	0.0000000E+000	4.1871986E+001	1.1156150E+000	4.8128021E+001	-1.551585679915864E-006	-4.8316110E-006	1.5159188E+004
6.8103981E+001	7.6427350E+000	6.4860210E+000	1.0023965E+001	-4.0319660E+001	1.160531108450959E+001	2.7064553E-001	-1.5850568E-002	3.6030414E+002	1.5085056E+002	1.000000000000000E+000	10	4.6683070E-003	4.6571463E-004	0	1.527406724847646E-005	7.6062351E-002	6.4550452E-002	9.9760927E-002	4.0319660E+001	1.5085056E+005	1.7775319E+005	2.3313534E+005	-4.9680340E+001	0.0000000E+000	0.0000000E+000	0.0000000E+000	4.9680340E+001	0.0000000E+000	0.0000000E+000	0.0000000E+000	-4.9680340E+001	0.0000000E+000	0.0000000E+000	0.0000000E+000	-4.0319660E+001	0.0000000E+000	0.0000000E+000	0.0000000E+000	4.0319660E+001	1.1783395E+000	4.9680344E+001	-1.510523848630128E-006	-4.2898855E-006	1.7074816E+004
4.6441547E+001	9.5231781E+000	7.4449544E+000	1.2087939E+001	-3.8017300E+001	1.206053654613788E+001	2.7063650E-001	-2.0715708E-002	4.6031107E+002	1.7461075E+002	1.000000000000000E+000	10	4.6645836E-003	3.8588743E-004	0	1.312456444084981E-005	6.5174453E-002	5.0951563E-002	8.2727090E-002	3.8017300E+001	1.7461075E+005	2.2335253E+005	2.8350531E+005	-5.1982700E+001	0.0000000E+000	0.0000000E+000	0.0000000E+000	5.1982700E+001	0.0000000E+000	0.0000000E+000	0.0000000E+000	-5.1982700E+001	0.0000000E+000	0.0000000E+000	0.0000000E+000	-3.8017300E+001	0.0000000E+000	0.0000000E+000	0.0000000E+000	3.8017300E+001	1.2791452E+000	5.1982697E+001	-2.149502807626655E-006	-5.6064268E-006	1.3064313E+004
3.1629555E+001	1.1804921E+001	8.1668835E+000	1.4354587E+001	-3.4676270E+001	1.250645363397780E+001	2.7062765E-001	-2.3230230E-002	6.1612762E+002	1.9943529E+002	1.000000000000000E+000	10	4.6654553E-003	3.2501496E-004	0	1.038531307235593E-005	5.7290379E-002	3.9634645E-002	6.9664143E-002	3.4676270E+001	1.9943531E+005	2.8827619E+005	3.5053903E+005	-5.5323730E+001	0.0000000E+000	0.0000000E+000	0.0000000E+000	5.5323730E+001	0.0000000E+000	0.0000000E+000	0.0000000E+000	-5.5323730E+001	0.0000000E+000	0.0000000E+000	0.0000000E+000	-3.4676270E+001	0.0000000E+000	0.0000000E+000	0.0000000E+000	3.4676270E+001	1.4454622E+000	5.5323730E+001	-2.739251368493873E-006	-6.2867425E-006	1.1649805E+004
2.1551722E+001	1.4335320E+001	8.5364037E+000	1.6684471E+001	-3.0772974E+001	1.318635379962507E+001	2.7066275E-001	-9.6186139E-003	8.6509375E+002	2.2645828E+002	1.000000000000000E+000	11	4.6719131E-003	2.8001567E-004	0	7.631785535444376E-006	5.1497068E-002	3.0665500E-002	5.9935972E-002	3.0772974E+001	2.2645827E+005	3.8029503E+005	4.4261456E+005	-5.9227028E+001	0.0000000E+000	0.0000000E+000	0.0000000E+000	5.9227028E+001	0.0000000E+000	0.0000000E+000	0.0000000E+000	-5.9227028E+001	0.0000000E+000	0.0000000E+000	0.0000000E+000	-3.0772974E+001	0.0000000E+000	0.0000000E+000	0.0000000E+000	3.0772974E+001	1.6793160E+000	5.9227028E+001	-2.753527536911558E-006	-2.6034006E-006	2.8139477E+004
1.4685154E+001	1.6832741E+001	8.5006390E+000	1.8857412E+001	-2.6794060E+001	1.366403808901669E+001	2.7066702E-001	-8.6935693E-003	1.2749409E+003	2.5907709E+002	1.000000000000000E+000	11	4.6694358E-003	2.4761807E-004	0	6.761679375254769E-006	4.7335897E-002	2.3904923E-002	5.3029545E-002	2.6794060E+001	2.5907709E+005	5.1301763E+005	5.7472431E+005	-6.3205940E+001	0.0000000E+000	0.0000000E+000	0.0000000E+000	6.3205940E+001	0.0000000E+000	0.0000000E+000	0.0000000E+000	-6.3205940E+001	0.0000000E+000	0.0000000E+000	0.0000000E+000	-2.6794060E+001	0.0000000E+000	0.0000000E+000	0.0000000E+000	2.6794060E+001	1.9801736E+000	6.3205940E+001	-8.701061601896065E-007	-2.3530624E-006	3.1134164E+004
