EC-Lab ASCII FILE

Nb header lines : 63                          

Potentio Electrochemical Impedance Spectroscopy

Run on channel : 4 (SN 66756)
User : 
CE vs. WE compliance from -10 V to 10 V
Electrode connection : standard
Potential control : Ewe
Ewe ctrl range : min = -10.00 V, max = 10.00 V
Safety Limits :
	Do not start on E overload
Acquisition started on : 09/22/2025 10:25:21.346
Loaded Setting File :  C:\Users\Celltest\OneDrive - store-dot.com\Documents\EC-Lab\Data\Gyutae\17739_R277_UA674_SOC00_C03.mpr
Saved on :
	File : 17714_R287_UA663_SOC00_C04.mpr
	Directory : C:\Users\Celltest\OneDrive - store-dot.com\Documents\EC-Lab\Data\Charmaine\
	Host : 169.254.61.224
Device : VMP-3e (SN .003165)
Address : USB
EC-LAB for windows v11.62 (software)
Internet server v27.00 (firmware)
Command interpretor v12.03 (firmware)
Electrode material : 
Initial state : 
Electrolyte : 
Comments : 
Electrode surface area : 0.001 cm²
Characteristic mass : 0.001 g
Equivalent Weight : 0.000 g/eq.
Density : 0.000 g/cm3
Volume (V) : 0.001 cm³
Cycle Definition : Charge/Discharge alternance
Mode                Single sine         
E (V)               0.0000              
vs.                 Eoc                 
tE (h:m:s)          0:00:0.0000         
record              0                   
dI                  0.000               
unit dI             mA                  
dt (s)              0.000               
fi                  100.000             
unit fi             kHz                 
ff                  10.000              
unit ff             mHz                 
Nd                  6                   
Points              per decade          
spacing             Logarithmic         
Va (mV)             5.0                 
pw                  0.10                
Na                  2                   
corr                0                   
E range min (V)     -10.000             
E range max (V)     10.000              
I Range             Auto                
Bandwidth           5                   
nc cycles           0                   
goto Ns'            0                   
nr cycles           0                   
inc. cycle          0                   

freq/Hz	Re(Z)/Ohm	-Im(Z)/Ohm	|Z|/Ohm	Phase(Z)/deg	time/s	<Ewe>/V	<I>/mA	Cs/µF	Cp/µF	cycle number	I Range	|Ewe|/V	|I|/A	Ns	(Q-Qo)/mA.h	Re(Y)/Ohm-1	Im(Y)/Ohm-1	|Y|/Ohm-1	Phase(Y)/deg	Re(C)/nF	Im(C)/nF	|C|/nF	Phase(C)/deg	Re(M)	Im(M)	|M|	Phase(M)/deg	Re(Permittivity)	Im(Permittivity)	|Permittivity|	Phase(Permittivity)/deg	Re(Resistivity)/Ohm.cm	Im(Resistivity)/Ohm.cm	|Resistivity|/Ohm.cm	Phase(Resistivity)/deg	Re(Conductivity)/mS/cm	Im(Conductivity)/mS/cm	|Conductivity|/mS/cm	Phase(Conductivity)/deg	Tan(Delta)	Loss Angle(Delta)/deg	dq/mA.h	Pwe/W	Rwe/Ohm	
1.0000371E+005	1.1822648E+000	2.2277606E-001	1.2030708E+000	-1.0671211E+001	2.066480711480835E+000	2.7926889E-001	-1.9435816E-002	7.1439018E+000	2.4495718E-001	1.000000000000000E+000	9	4.6082619E-003	3.8304164E-003	0	-9.726252237955730E-006	8.1683141E-001	1.5391687E-001	8.3120632E-001	1.0671211E+001	2.4495720E+002	1.2999792E+003	1.3228568E+003	-7.9328789E+001	0.0000000E+000	0.0000000E+000	0.0000000E+000	7.9328789E+001	0.0000000E+000	0.0000000E+000	0.0000000E+000	-7.9328789E+001	0.0000000E+000	0.0000000E+000	0.0000000E+000	-1.0671211E+001	0.0000000E+000	0.0000000E+000	0.0000000E+000	1.0671211E+001	5.3069654E+000	7.9328789E+001	-9.726252237955730E-006	-5.4278185E-006	1.4368776E+004
6.8132047E+004	1.2365780E+000	2.4401839E-001	1.2604246E+000	-1.1162960E+001	2.503494492237223E+000	2.7925408E-001	-1.4810910E-002	9.5729580E+000	3.5880420E-001	1.000000000000000E+000	9	5.4835835E-003	4.3505845E-003	0	-8.080439314349658E-006	7.7837300E-001	1.5359916E-001	7.9338342E-001	1.1162960E+001	3.5880429E+002	1.8182620E+003	1.8533259E+003	-7.8837036E+001	0.0000000E+000	0.0000000E+000	0.0000000E+000	7.8837036E+001	0.0000000E+000	0.0000000E+000	0.0000000E+000	-7.8837036E+001	0.0000000E+000	0.0000000E+000	0.0000000E+000	-1.1162960E+001	0.0000000E+000	0.0000000E+000	0.0000000E+000	1.1162960E+001	5.0675607E+000	7.8837036E+001	1.645812923606072E-006	-4.1360072E-006	1.8854619E+004
4.6420355E+004	1.2941288E+000	2.6819566E-001	1.3216271E+000	-1.1708256E+001	3.081486146344105E+000	2.7926719E-001	-1.2032304E-002	1.2783798E+001	5.2643591E-001	1.000000000000000E+000	9	5.0615706E-003	3.8298022E-003	0	-2.337970331615199E-005	7.4090004E-001	1.5354435E-001	7.5664306E-001	1.1708256E+001	5.2643573E+002	2.5402197E+003	2.5941956E+003	-7.8291748E+001	0.0000000E+000	0.0000000E+000	0.0000000E+000	7.8291748E+001	0.0000000E+000	0.0000000E+000	0.0000000E+000	-7.8291748E+001	0.0000000E+000	0.0000000E+000	0.0000000E+000	-1.1708256E+001	0.0000000E+000	0.0000000E+000	0.0000000E+000	1.1708256E+001	4.8253160E+000	7.8291748E+001	-1.529926400180234E-005	-3.3602278E-006	2.3209785E+004
3.1621139E+004	1.3550793E+000	3.0276170E-001	1.3884901E+000	-1.2594587E+001	3.659475080465199E+000	2.7927092E-001	-2.2083929E-002	1.6624235E+001	7.9042017E-001	1.000000000000000E+000	9	4.9887844E-003	3.5929566E-003	0	-2.876111191862987E-005	7.0287675E-001	1.5704185E-001	7.2020680E-001	1.2594587E+001	7.9042029E+002	3.5377065E+003	3.6249319E+003	-7.7405411E+001	0.0000000E+000	0.0000000E+000	0.0000000E+000	7.7405411E+001	0.0000000E+000	0.0000000E+000	0.0000000E+000	-7.7405411E+001	0.0000000E+000	0.0000000E+000	0.0000000E+000	-1.2594587E+001	0.0000000E+000	0.0000000E+000	0.0000000E+000	1.2594587E+001	4.4757290E+000	7.7405411E+001	-5.381408602477880E-006	-6.1673991E-006	1.2645890E+004
2.1544684E+004	1.4258397E+000	3.4353268E-001	1.4666402E+000	-1.3546300E+001	4.096486941183684E+000	2.7926612E-001	-1.8577982E-002	2.1503639E+001	1.1797796E+000	1.000000000000000E+000	9	5.2852482E-003	3.6036433E-003	0	-2.915565810952749E-005	6.6286260E-001	1.5970586E-001	6.8183047E-001	1.3546300E+001	1.1797798E+003	4.8967002E+003	5.0368198E+003	-7.6453697E+001	0.0000000E+000	0.0000000E+000	0.0000000E+000	7.6453697E+001	0.0000000E+000	0.0000000E+000	0.0000000E+000	-7.6453697E+001	0.0000000E+000	0.0000000E+000	0.0000000E+000	-1.3546300E+001	0.0000000E+000	0.0000000E+000	0.0000000E+000	1.3546300E+001	4.1505213E+000	7.6453697E+001	-3.945461908976214E-007	-5.1882007E-006	1.5032103E+004
1.4678594E+004	1.4987936E+000	3.8524416E-001	1.5475127E+000	-1.4415039E+001	4.392480181908468E+000	2.7927339E-001	-1.8857721E-002	2.8144892E+001	1.7442282E+000	1.000000000000000E+000	9	5.0762706E-003	3.2802774E-003	0	-2.933139776873092E-005	6.2585455E-001	1.6086726E-001	6.4619827E-001	1.4415039E+001	1.7442284E+003	6.7859258E+003	7.0065059E+003	-7.5584961E+001	0.0000000E+000	0.0000000E+000	0.0000000E+000	7.5584961E+001	0.0000000E+000	0.0000000E+000	0.0000000E+000	-7.5584961E+001	0.0000000E+000	0.0000000E+000	0.0000000E+000	-1.4415039E+001	0.0000000E+000	0.0000000E+000	0.0000000E+000	1.4415039E+001	3.8905032E+000	7.5584961E+001	-1.757396592034241E-007	-5.2664595E-006	1.4809498E+004
1.0002226E+004	1.5771407E+000	4.4036397E-001	1.6374655E+000	-1.5600620E+001	4.688496276008664E+000	2.7926004E-001	-2.3109620E-002	3.6133640E+001	2.6133103E+000	1.000000000000000E+000	9	4.6583083E-003	2.8448284E-003	0	-3.279384008422494E-005	5.8820152E-001	1.6423567E-001	6.1069989E-001	1.5600620E+001	2.6133096E+003	9.3594346E+003	9.7174277E+003	-7.4399384E+001	0.0000000E+000	0.0000000E+000	0.0000000E+000	7.4399384E+001	0.0000000E+000	0.0000000E+000	0.0000000E+000	-7.4399384E+001	0.0000000E+000	0.0000000E+000	0.0000000E+000	-1.5600620E+001	0.0000000E+000	0.0000000E+000	0.0000000E+000	1.5600620E+001	3.5814481E+000	7.4399384E+001	-3.462442315494020E-006	-6.4535934E-006	1.2084146E+004
6.8110674E+003	1.6708750E+000	5.1683360E-001	1.7489825E+000	-1.7187840E+001	5.243518942355877E+000	2.7910998E-001	-1.1301476E-001	4.5212051E+001	3.9480691E+000	1.000000000000000E+000	9	4.9618999E-003	2.8370209E-003	0	-4.541463590382935E-005	5.4622680E-001	1.6895841E-001	5.7176101E-001	1.7187840E+001	3.9480681E+003	1.2763740E+004	1.3360400E+004	-7.2812164E+001	0.0000000E+000	0.0000000E+000	0.0000000E+000	7.2812164E+001	0.0000000E+000	0.0000000E+000	0.0000000E+000	-7.2812164E+001	0.0000000E+000	0.0000000E+000	0.0000000E+000	-1.7187840E+001	0.0000000E+000	0.0000000E+000	0.0000000E+000	1.7187840E+001	3.2329071E+000	7.2812164E+001	-1.262079581960441E-005	-3.1543546E-005	2.4696772E+003
4.6414854E+003	1.7693386E+000	6.1067182E-001	1.8717583E+000	-1.9041668E+001	5.714666138119355E+000	2.7923882E-001	-1.5704423E-003	5.6150715E+001	5.9768376E+000	1.000000000000000E+000	9	4.8243296E-003	2.5774320E-003	0	-4.825041724146447E-005	5.0502330E-001	1.7430438E-001	5.3425699E-001	1.9041668E+001	5.9768389E+003	1.7317076E+004	1.8319490E+004	-7.0958328E+001	0.0000000E+000	0.0000000E+000	0.0000000E+000	7.0958328E+001	0.0000000E+000	0.0000000E+000	0.0000000E+000	-7.0958328E+001	0.0000000E+000	0.0000000E+000	0.0000000E+000	-1.9041668E+001	0.0000000E+000	0.0000000E+000	0.0000000E+000	1.9041668E+001	2.8973641E+000	7.0958328E+001	-2.835781337635124E-006	-4.3852847E-007	1.7780903E+005
3.1610117E+003	1.8844565E+000	7.3288149E-001	2.0219524E+000	-2.1251492E+001	6.181676906970097E+000	2.7924123E-001	-6.8293614E-003	6.8700554E+001	9.0258045E+000	1.000000000000000E+000	9	4.7497209E-003	2.3490766E-003	0	-4.866096734863499E-005	4.6093985E-001	1.7926352E-001	4.9457148E-001	2.1251492E+001	9.0258066E+003	2.3208031E+004	2.4901363E+004	-6.8748505E+001	0.0000000E+000	0.0000000E+000	0.0000000E+000	6.8748505E+001	0.0000000E+000	0.0000000E+000	0.0000000E+000	-6.8748505E+001	0.0000000E+000	0.0000000E+000	0.0000000E+000	-2.1251492E+001	0.0000000E+000	0.0000000E+000	0.0000000E+000	2.1251492E+001	2.5712976E+000	6.8748505E+001	-4.105501071705208E-007	-1.9070393E-006	4.0888336E+004
2.1556899E+003	2.0193884E+000	8.9472610E-001	2.2087247E+000	-2.3896591E+001	6.647666315773677E+000	2.7924192E-001	-3.5099108E-003	8.2517059E+001	1.3540689E+001	1.000000000000000E+000	9	4.7028172E-003	2.1292001E-003	0	-5.052080713825611E-005	4.1393933E-001	1.8340319E-001	4.5274994E-001	2.3896591E+001	1.3540689E+004	3.0561213E+004	3.3426605E+004	-6.6103409E+001	0.0000000E+000	0.0000000E+000	0.0000000E+000	6.6103409E+001	0.0000000E+000	0.0000000E+000	0.0000000E+000	-6.6103409E+001	0.0000000E+000	0.0000000E+000	0.0000000E+000	-2.3896591E+001	0.0000000E+000	0.0000000E+000	0.0000000E+000	2.3896591E+001	2.2569907E+000	6.6103409E+001	-1.859839789621121E-006	-9.8011424E-007	7.9558125E+004
1.4685898E+003	2.1738477E+000	1.1052104E+000	2.4386685E+000	-2.6949335E+001	7.114954017946729E+000	2.7924851E-001	-8.3026234E-003	9.8056107E+001	2.0139980E+001	1.000000000000000E+000	9	4.6725455E-003	1.9160232E-003	0	-5.289936937312854E-005	3.6553046E-001	1.8584011E-001	4.1005984E-001	2.6949335E+001	2.0139982E+004	3.9613500E+004	4.4439266E+004	-6.3050667E+001	0.0000000E+000	0.0000000E+000	0.0000000E+000	6.3050667E+001	0.0000000E+000	0.0000000E+000	0.0000000E+000	-6.3050667E+001	0.0000000E+000	0.0000000E+000	0.0000000E+000	-2.6949335E+001	0.0000000E+000	0.0000000E+000	0.0000000E+000	2.6949335E+001	1.9669085E+000	6.3050667E+001	-2.378562234872432E-006	-2.3184953E-006	3.3633766E+004
1.0003202E+003	2.3896549E+000	1.3859802E+000	2.7624974E+000	-3.0113382E+001	7.583700973562372E+000	2.7924100E-001	-4.1439808E-003	1.1479528E+002	2.8895777E+001	1.000000000000000E+000	9	4.6532331E-003	1.6844298E-003	0	-5.378499264699834E-005	3.1313488E-001	1.8161567E-001	3.6199129E-001	3.0113382E+001	2.8895773E+004	4.9821008E+004	5.7594258E+004	-5.9886620E+001	0.0000000E+000	0.0000000E+000	0.0000000E+000	5.9886620E+001	0.0000000E+000	0.0000000E+000	0.0000000E+000	-5.9886620E+001	0.0000000E+000	0.0000000E+000	0.0000000E+000	-3.0113382E+001	0.0000000E+000	0.0000000E+000	0.0000000E+000	3.0113382E+001	1.7241623E+000	5.9886620E+001	-8.856232738697941E-007	-1.1571693E-006	6.7384719E+004
6.8108978E+002	2.6572449E+000	1.7461020E+000	3.1795948E+000	-3.3309315E+001	8.303415301052155E+000	2.7923030E-001	-1.7705657E-002	1.3382776E+002	4.0359135E+001	1.000000000000000E+000	10	4.7406917E-003	1.4909735E-003	0	-5.710405677807932E-005	2.6283792E-001	1.7271343E-001	3.1450549E-001	3.3309315E+001	4.0359137E+004	6.1419148E+004	7.3492664E+004	-5.6690685E+001	0.0000000E+000	0.0000000E+000	0.0000000E+000	5.6690685E+001	0.0000000E+000	0.0000000E+000	0.0000000E+000	-5.6690685E+001	0.0000000E+000	0.0000000E+000	0.0000000E+000	-3.3309315E+001	0.0000000E+000	0.0000000E+000	0.0000000E+000	3.3309315E+001	1.5218154E+000	5.6690689E+001	-3.319064131080979E-006	-4.9439559E-006	1.5770683E+004
4.6396069E+002	3.0019147E+000	2.2030106E+000	3.7235396E+000	-3.6273773E+001	8.772215083328774E+000	2.7923417E-001	-1.7284136E-002	1.5571210E+002	5.4505905E+001	1.000000000000000E+000	10	4.6946113E-003	1.2607926E-003	0	-5.856526623868073E-005	2.1651420E-001	1.5889294E-001	2.6856166E-001	3.6273773E+001	5.4505906E+004	7.4272031E+004	9.2126156E+004	-5.3726227E+001	0.0000000E+000	0.0000000E+000	0.0000000E+000	5.3726227E+001	0.0000000E+000	0.0000000E+000	0.0000000E+000	-5.3726227E+001	0.0000000E+000	0.0000000E+000	0.0000000E+000	-3.6273773E+001	0.0000000E+000	0.0000000E+000	0.0000000E+000	3.6273773E+001	1.3626420E+000	5.3726227E+001	-1.461209460601416E-006	-4.8263214E-006	1.6155518E+004
3.1631589E+002	3.4616516E+000	2.7618430E+000	4.4284091E+000	-3.8584255E+001	9.238906118815066E+000	2.7924019E-001	-1.8543074E-002	1.8217978E+002	7.0860245E+001	1.000000000000000E+000	10	4.6692439E-003	1.0543840E-003	0	-6.023721907357685E-005	1.7651755E-001	1.4083271E-001	2.2581473E-001	3.8584255E+001	7.0860242E+004	8.8815133E+004	1.1361911E+005	-5.1415745E+001	0.0000000E+000	0.0000000E+000	0.0000000E+000	5.1415745E+001	0.0000000E+000	0.0000000E+000	0.0000000E+000	-5.1415745E+001	0.0000000E+000	0.0000000E+000	0.0000000E+000	-3.8584255E+001	0.0000000E+000	0.0000000E+000	0.0000000E+000	3.8584255E+001	1.2533846E+000	5.1415741E+001	-1.671952834896119E-006	-5.1779716E-006	1.5059002E+004
2.1534457E+002	4.0582156E+000	3.4488225E+000	5.3257384E+000	-4.0359119E+001	9.706434301013360E+000	2.7923211E-001	-1.8020852E-002	2.1429665E+002	8.9866409E+001	1.000000000000000E+000	10	4.6469476E-003	8.7254524E-004	0	-6.269109048671736E-005	1.4307885E-001	1.2159372E-001	1.8776739E-001	4.0359119E+001	8.9866398E+004	1.0574544E+005	1.3877344E+005	-4.9640881E+001	0.0000000E+000	0.0000000E+000	0.0000000E+000	4.9640881E+001	0.0000000E+000	0.0000000E+000	0.0000000E+000	-4.9640881E+001	0.0000000E+000	0.0000000E+000	0.0000000E+000	-4.0359119E+001	0.0000000E+000	0.0000000E+000	0.0000000E+000	4.0359119E+001	1.1766959E+000	4.9640884E+001	-2.453871413140511E-006	-5.0320004E-006	1.5494945E+004
1.4673740E+002	4.8562946E+000	4.2590137E+000	6.4593186E+000	-4.1251049E+001	1.016936704298132E+001	2.7924046E-001	-1.8110391E-002	2.5466559E+002	1.1071716E+002	1.000000000000000E+000	10	4.6363012E-003	7.1776938E-004	0	-6.499096552408364E-005	1.1639428E-001	1.0207882E-001	1.5481509E-001	4.1251049E+001	1.1071716E+005	1.2624406E+005	1.6791620E+005	-4.8748951E+001	0.0000000E+000	0.0000000E+000	0.0000000E+000	4.8748951E+001	0.0000000E+000	0.0000000E+000	0.0000000E+000	-4.8748951E+001	0.0000000E+000	0.0000000E+000	0.0000000E+000	-4.1251049E+001	0.0000000E+000	0.0000000E+000	0.0000000E+000	4.1251049E+001	1.1402392E+000	4.8748947E+001	-2.299875037366282E-006	-5.0571539E-006	1.5418798E+004
1.0003201E+002	5.9260106E+000	5.1937661E+000	7.8798990E+000	-4.1232475E+001	1.063767183861637E+001	2.7924874E-001	-1.8015273E-002	3.0633649E+002	1.3308289E+002	1.000000000000000E+000	10	4.6331901E-003	5.8797584E-004	0	-6.721239895976679E-005	9.5437951E-002	8.3645210E-002	1.2690517E-001	4.1232475E+001	1.3308289E+005	1.5184561E+005	2.0191123E+005	-4.8767525E+001	0.0000000E+000	0.0000000E+000	0.0000000E+000	4.8767525E+001	0.0000000E+000	0.0000000E+000	0.0000000E+000	-4.8767525E+001	0.0000000E+000	0.0000000E+000	0.0000000E+000	-4.1232475E+001	0.0000000E+000	0.0000000E+000	0.0000000E+000	4.1232475E+001	1.1409853E+000	4.8767517E+001	-2.221433435683142E-006	-5.0307422E-006	1.5500667E+004
6.8103981E+001	7.3277178E+000	6.1990466E+000	9.5981054E+000	-4.0230301E+001	1.111632716798340E+001	2.7925509E-001	-1.4934149E-002	3.7698383E+002	1.5725392E+002	1.000000000000000E+000	10	4.6248110E-003	4.8184625E-004	0	-6.910350505366740E-005	7.9542212E-002	6.7290522E-002	1.0418723E-001	4.0230301E+001	1.5725394E+005	1.8588542E+005	2.4347934E+005	-4.9769699E+001	0.0000000E+000	0.0000000E+000	0.0000000E+000	4.9769699E+001	0.0000000E+000	0.0000000E+000	0.0000000E+000	-4.9769699E+001	0.0000000E+000	0.0000000E+000	0.0000000E+000	-4.0230301E+001	0.0000000E+000	0.0000000E+000	0.0000000E+000	4.0230301E+001	1.1820717E+000	4.9769699E+001	-1.891106093900618E-006	-4.1704370E-006	1.8699098E+004
4.6441547E+001	9.1013365E+000	7.1266360E+000	1.1559553E+001	-3.8062073E+001	1.157155705624609E+001	2.7924359E-001	-1.9781519E-002	4.8087134E+002	1.8277464E+002	1.000000000000000E+000	10	4.6248310E-003	4.0008736E-004	0	-7.168823465787218E-005	6.8111919E-002	5.3333793E-002	8.6508535E-002	3.8062073E+001	1.8277464E+005	2.3341919E+005	2.9646431E+005	-5.1937927E+001	0.0000000E+000	0.0000000E+000	0.0000000E+000	5.1937927E+001	0.0000000E+000	0.0000000E+000	0.0000000E+000	-5.1937927E+001	0.0000000E+000	0.0000000E+000	0.0000000E+000	-3.8062073E+001	0.0000000E+000	0.0000000E+000	0.0000000E+000	3.8062073E+001	1.2770873E+000	5.1937927E+001	-2.584729604204771E-006	-5.5238625E-006	1.4116388E+004
3.1629555E+001	1.1299211E+001	7.8555455E+000	1.3761604E+001	-3.4808170E+001	1.201845390416565E+001	2.7923569E-001	-2.1907721E-002	6.4054651E+002	2.0872057E+002	1.000000000000000E+000	10	4.6265339E-003	3.3619147E-004	0	-7.401854222975251E-005	5.9663668E-002	4.1479949E-002	7.2665945E-002	3.4808170E+001	2.0872059E+005	3.0021822E+005	3.6564363E+005	-5.5191830E+001	0.0000000E+000	0.0000000E+000	0.0000000E+000	5.5191830E+001	0.0000000E+000	0.0000000E+000	0.0000000E+000	-5.5191830E+001	0.0000000E+000	0.0000000E+000	0.0000000E+000	-3.4808170E+001	0.0000000E+000	0.0000000E+000	0.0000000E+000	3.4808170E+001	1.4383738E+000	5.5191833E+001	-2.330307571880332E-006	-6.1174173E-006	1.2745995E+004
2.1551722E+001	1.3753835E+001	8.2789478E+000	1.6053316E+001	-3.1045311E+001	1.269835542977671E+001	2.7925414E-001	-6.5218131E-003	8.9199615E+002	2.3723773E+002	1.000000000000000E+000	11	4.6286662E-003	2.8833086E-004	0	-7.602209967618628E-005	5.3369641E-002	3.2125186E-002	6.2292427E-002	3.1045311E+001	2.3723775E+005	3.9412359E+005	4.6001647E+005	-5.8954689E+001	0.0000000E+000	0.0000000E+000	0.0000000E+000	5.8954689E+001	0.0000000E+000	0.0000000E+000	0.0000000E+000	-5.8954689E+001	0.0000000E+000	0.0000000E+000	0.0000000E+000	-3.1045311E+001	0.0000000E+000	0.0000000E+000	0.0000000E+000	3.1045311E+001	1.6613022E+000	5.8954689E+001	-2.003557446433768E-006	-1.8212432E-006	4.2818480E+004
1.4685154E+001	1.6200163E+001	8.2984257E+000	1.8201899E+001	-2.7123493E+001	1.317603617248824E+001	2.7926752E-001	-5.4639513E-003	1.3060082E+003	2.7145880E+002	1.000000000000000E+000	11	4.6255938E-003	2.5412699E-004	0	-7.706267905120006E-005	4.8897423E-002	2.5047380E-002	5.4939322E-002	2.7123493E+001	2.7145884E+005	5.2994113E+005	5.9542213E+005	-6.2876507E+001	0.0000000E+000	0.0000000E+000	0.0000000E+000	6.2876507E+001	0.0000000E+000	0.0000000E+000	0.0000000E+000	-6.2876507E+001	0.0000000E+000	0.0000000E+000	0.0000000E+000	-2.7123493E+001	0.0000000E+000	0.0000000E+000	0.0000000E+000	2.7123493E+001	1.9521972E+000	6.2876511E+001	-1.040579375013789E-006	-1.5259042E-006	5.1110910E+004
