EC-Lab ASCII FILE
Nb header lines : 63                          

Potentio Electrochemical Impedance Spectroscopy

Run on channel : 1 (SN 66354)
User : 
CE vs. WE compliance from -10 V to 10 V
Electrode connection : standard
Potential control : Ewe
Ewe ctrl range : min = -10.00 V, max = 10.00 V
Safety Limits :
	Do not start on E overload
Acquisition started on : 09/22/2025 10:24:53.423
Loaded Setting File :  C:\Users\Celltest\OneDrive - store-dot.com\Documents\EC-Lab\Data\txt_done\14380_R229_UA592_SOC00_C01.mpr
Saved on :
	File : 17711_R287_UA663_SOC00_C01.mpr
	Directory : C:\Users\Celltest\OneDrive - store-dot.com\Documents\EC-Lab\Data\Charmaine\
	Host : 169.254.61.224
Device : VMP-3e (SN .003165)
Address : USB
EC-LAB for windows v11.62 (software)
Internet server v27.00 (firmware)
Command interpretor v12.03 (firmware)
Electrode material : 
Initial state : 
Electrolyte : 
Comments : 
Electrode surface area : 0.001 cm²
Characteristic mass : 0.001 g
Equivalent Weight : 0.000 g/eq.
Density : 0.000 g/cm3
Volume (V) : 0.001 cm³
Cycle Definition : Charge/Discharge alternance
Mode                Single sine         
E (V)               0.0000              
vs.                 Eoc                 
tE (h:m:s)          0:00:0.0000         
record              0                   
dI                  0.000               
unit dI             mA                  
dt (s)              0.000               
fi                  100.000             
unit fi             kHz                 
ff                  10.000              
unit ff             mHz                 
Nd                  6                   
Points              per decade          
spacing             Logarithmic         
Va (mV)             5.0                 
pw                  0.10                
Na                  2                   
corr                0                   
E range min (V)     -10.000             
E range max (V)     10.000              
I Range             Auto                
Bandwidth           5                   
nc cycles           0                   
goto Ns'            0                   
nr cycles           0                   
inc. cycle          0                   

freq/Hz	Re(Z)/Ohm	-Im(Z)/Ohm	|Z|/Ohm	Phase(Z)/deg	time/s	<Ewe>/V	<I>/mA	Cs/µF	Cp/µF	cycle number	I Range	|Ewe|/V	|I|/A	Ns	(Q-Qo)/mA.h	Re(Y)/Ohm-1	Im(Y)/Ohm-1	|Y|/Ohm-1	Phase(Y)/deg	Re(C)/nF	Im(C)/nF	|C|/nF	Phase(C)/deg	Re(M)	Im(M)	|M|	Phase(M)/deg	Re(Permittivity)	Im(Permittivity)	|Permittivity|	Phase(Permittivity)/deg	Re(Resistivity)/Ohm.cm	Im(Resistivity)/Ohm.cm	|Resistivity|/Ohm.cm	Phase(Resistivity)/deg	Re(Conductivity)/mS/cm	Im(Conductivity)/mS/cm	|Conductivity|/mS/cm	Phase(Conductivity)/deg	Tan(Delta)	Loss Angle(Delta)/deg	dq/mA.h	Pwe/W	Rwe/Ohm	
1.0000371E+005	1.0273665E+000	2.2193232E-001	1.0510641E+000	-1.2189761E+001	2.066477564774686E+000	2.6983404E-001	7.9216830E-002	7.1710615E+000	3.1971729E-001	1.000000000000000E+000	9	4.7817603E-003	4.5494465E-003	0	8.712170184253612E-006	9.2996573E-001	2.0089176E-001	9.5141673E-001	1.2189761E+001	3.1971722E+002	1.4800315E+003	1.5141705E+003	-7.7810242E+001	0.0000000E+000	0.0000000E+000	0.0000000E+000	7.7810242E+001	0.0000000E+000	0.0000000E+000	0.0000000E+000	-7.7810242E+001	0.0000000E+000	0.0000000E+000	0.0000000E+000	-1.2189761E+001	0.0000000E+000	0.0000000E+000	0.0000000E+000	1.2189761E+001	4.6291885E+000	7.7810242E+001	8.712170184253612E-006	2.1375397E-005	3.4062717E+003
6.8132047E+004	1.0780368E+000	2.4410158E-001	1.1053275E+000	-1.2758431E+001	2.503494812204735E+000	2.6982751E-001	7.9868793E-002	9.5696945E+000	4.6672100E-001	1.000000000000000E+000	9	5.4825339E-003	4.9600992E-003	0	1.726060986381748E-005	8.8237178E-001	1.9979686E-001	9.0470922E-001	1.2758431E+001	4.6672098E+002	2.0612009E+003	2.1133806E+003	-7.7241570E+001	0.0000000E+000	0.0000000E+000	0.0000000E+000	7.7241570E+001	0.0000000E+000	0.0000000E+000	0.0000000E+000	-7.7241570E+001	0.0000000E+000	0.0000000E+000	0.0000000E+000	-1.2758431E+001	0.0000000E+000	0.0000000E+000	0.0000000E+000	1.2758431E+001	4.4163451E+000	7.7241570E+001	8.548439679563872E-006	2.1550799E-005	3.3783848E+003
4.6420355E+004	1.1366391E+000	2.6872626E-001	1.1679736E+000	-1.3301725E+001	3.081497879669769E+000	2.6983094E-001	8.1601106E-002	1.2758557E+001	6.7539167E-001	1.000000000000000E+000	9	5.0416514E-003	4.3165800E-003	0	3.147946920230364E-005	8.3321398E-001	1.9698992E-001	8.5618371E-001	1.3301725E+001	6.7539178E+002	2.8567236E+003	2.9354768E+003	-7.6698273E+001	0.0000000E+000	0.0000000E+000	0.0000000E+000	7.6698273E+001	0.0000000E+000	0.0000000E+000	0.0000000E+000	-7.6698273E+001	0.0000000E+000	0.0000000E+000	0.0000000E+000	-1.3301725E+001	0.0000000E+000	0.0000000E+000	0.0000000E+000	1.3301725E+001	4.2297287E+000	7.6698273E+001	1.421885933848615E-005	2.2018503E-005	3.3067070E+003
3.1621139E+004	1.1995047E+000	3.0429170E-001	1.2374995E+000	-1.4234577E+001	3.659491347119911E+000	2.6983631E-001	8.1675604E-002	1.6540649E+001	1.0000983E+000	1.000000000000000E+000	9	5.1366375E-003	4.1508200E-003	0	4.145794778674220E-005	7.8327072E-001	1.9870101E-001	8.0808115E-001	1.4234577E+001	1.0000980E+003	3.9423442E+003	4.0672195E+003	-7.5765427E+001	0.0000000E+000	0.0000000E+000	0.0000000E+000	7.5765427E+001	0.0000000E+000	0.0000000E+000	0.0000000E+000	-7.5765427E+001	0.0000000E+000	0.0000000E+000	0.0000000E+000	-1.4234577E+001	0.0000000E+000	0.0000000E+000	0.0000000E+000	1.4234577E+001	3.9419568E+000	7.5765427E+001	9.978478584438564E-006	2.2039043E-005	3.3037566E+003
2.1544684E+004	1.2696683E+000	3.4457409E-001	1.3155946E+000	-1.5183729E+001	4.096479047875619E+000	2.6983461E-001	8.0129549E-002	2.1438648E+001	1.4706811E+000	1.000000000000000E+000	9	5.3825756E-003	4.0913634E-003	0	5.182130123765415E-005	7.3357773E-001	1.9908498E-001	7.6011258E-001	1.5183729E+001	1.4706813E+003	5.4190874E+003	5.6151055E+003	-7.4816269E+001	0.0000000E+000	0.0000000E+000	0.0000000E+000	7.4816269E+001	0.0000000E+000	0.0000000E+000	0.0000000E+000	-7.4816269E+001	0.0000000E+000	0.0000000E+000	0.0000000E+000	-1.5183729E+001	0.0000000E+000	0.0000000E+000	0.0000000E+000	1.5183729E+001	3.6847470E+000	7.4816269E+001	1.036335345091195E-005	2.1621725E-005	3.3674795E+003
1.4678594E+004	1.3425614E+000	3.8814363E-001	1.3975431E+000	-1.6124941E+001	4.392495035281172E+000	2.6982966E-001	7.9626583E-002	2.7934649E+001	2.1547542E+000	1.000000000000000E+000	9	4.6233442E-003	3.3081945E-003	0	6.085349478795089E-005	6.8739092E-001	1.9872938E-001	7.1554148E-001	1.6124941E+001	2.1547542E+003	7.4531431E+003	7.7583701E+003	-7.3875061E+001	0.0000000E+000	0.0000000E+000	0.0000000E+000	7.3875061E+001	0.0000000E+000	0.0000000E+000	0.0000000E+000	-7.3875061E+001	0.0000000E+000	0.0000000E+000	0.0000000E+000	-1.6124941E+001	0.0000000E+000	0.0000000E+000	0.0000000E+000	1.6124941E+001	3.4589293E+000	7.3875061E+001	9.032193550296746E-006	2.1485614E-005	3.3886882E+003
1.0002226E+004	1.4239254E+000	4.4372731E-001	1.4914615E+000	-1.7308214E+001	4.829478949337499E+000	2.6983342E-001	7.4429609E-002	3.5859756E+001	3.1740630E+000	1.000000000000000E+000	9	5.0103031E-003	3.3593245E-003	0	7.157938389860404E-005	6.4012259E-001	1.9947666E-001	6.7048329E-001	1.7308214E+001	3.1740627E+003	1.0185600E+004	1.0668698E+004	-7.2691788E+001	0.0000000E+000	0.0000000E+000	0.0000000E+000	7.2691788E+001	0.0000000E+000	0.0000000E+000	0.0000000E+000	-7.2691788E+001	0.0000000E+000	0.0000000E+000	0.0000000E+000	-1.7308214E+001	0.0000000E+000	0.0000000E+000	0.0000000E+000	1.7308214E+001	3.2090101E+000	7.2691788E+001	1.072588911065315E-005	2.0083595E-005	3.6253503E+003
6.8110674E+003	1.5166115E+000	5.2169496E-001	1.6038316E+000	-1.8982563E+001	5.207513873960124E+000	2.6962891E-001	-6.3243814E-002	4.4790749E+001	4.7391891E+000	1.000000000000000E+000	9	4.6796617E-003	2.9178010E-003	0	6.881338895381324E-005	5.8959907E-001	2.0281455E-001	6.2350684E-001	1.8982563E+001	4.7391880E+003	1.3777225E+004	1.4569551E+004	-7.1017441E+001	0.0000000E+000	0.0000000E+000	0.0000000E+000	7.1017441E+001	0.0000000E+000	0.0000000E+000	0.0000000E+000	-7.1017441E+001	0.0000000E+000	0.0000000E+000	0.0000000E+000	-1.8982563E+001	0.0000000E+000	0.0000000E+000	0.0000000E+000	1.8982563E+001	2.9070847E+000	7.1017441E+001	-2.765994944790799E-006	-1.7052360E-005	4.2633247E+003
4.6414854E+003	1.6127491E+000	6.1368197E-001	1.7255623E+000	-2.0832781E+001	5.678685763079557E+000	2.6978192E-001	8.8083312E-002	5.5875290E+001	7.0671644E+000	1.000000000000000E+000	9	4.5117969E-003	2.6146821E-003	0	8.102789480686705E-005	5.4163349E-001	2.0610195E-001	5.7952124E-001	2.0832781E+001	7.0671641E+003	1.8572428E+004	1.9871584E+004	-6.9167221E+001	0.0000000E+000	0.0000000E+000	0.0000000E+000	6.9167221E+001	0.0000000E+000	0.0000000E+000	0.0000000E+000	-6.9167221E+001	0.0000000E+000	0.0000000E+000	0.0000000E+000	-2.0832781E+001	0.0000000E+000	0.0000000E+000	0.0000000E+000	2.0832781E+001	2.6279883E+000	6.9167221E+001	1.221450585305381E-005	2.3763285E-005	3.0628040E+003
3.1610117E+003	1.7284614E+000	7.3742020E-001	1.8791933E+000	-2.3104736E+001	6.368678249185905E+000	2.6978025E-001	8.8623501E-002	6.8277718E+001	1.0513955E+001	1.000000000000000E+000	9	4.9365140E-003	2.6269325E-003	0	9.593539820401282E-005	4.8945951E-001	2.0882000E-001	5.3214324E-001	2.3104736E+001	1.0513956E+004	2.4643980E+004	2.6793078E+004	-6.6895264E+001	0.0000000E+000	0.0000000E+000	0.0000000E+000	6.6895264E+001	0.0000000E+000	0.0000000E+000	0.0000000E+000	-6.6895264E+001	0.0000000E+000	0.0000000E+000	0.0000000E+000	-2.3104736E+001	0.0000000E+000	0.0000000E+000	0.0000000E+000	2.3104736E+001	2.3439300E+000	6.6895264E+001	1.490750339714577E-005	2.3908869E-005	3.0441165E+003
2.1556899E+003	1.8609345E+000	9.0146393E-001	2.0677800E+000	-2.5846228E+001	6.835687818034785E+000	2.6977971E-001	8.7021567E-002	8.1900299E+001	1.5565874E+001	1.000000000000000E+000	9	4.8850435E-003	2.3624580E-003	0	1.054381915596831E-004	4.3523359E-001	2.1083353E-001	4.8361045E-001	2.5846228E+001	1.5565876E+004	3.2133367E+004	3.5705039E+004	-6.4153770E+001	0.0000000E+000	0.0000000E+000	0.0000000E+000	6.4153770E+001	0.0000000E+000	0.0000000E+000	0.0000000E+000	-6.4153770E+001	0.0000000E+000	0.0000000E+000	0.0000000E+000	-2.5846228E+001	0.0000000E+000	0.0000000E+000	0.0000000E+000	2.5846228E+001	2.0643473E+000	6.4153770E+001	9.502793355670294E-006	2.3476654E-005	3.1001477E+003
1.4685898E+003	2.0547750E+000	1.1366786E+000	2.3482203E+000	-2.8950876E+001	7.302932026883354E+000	2.6977995E-001	9.0225428E-002	9.5341492E+001	2.2339817E+001	1.000000000000000E+000	9	4.8899571E-003	2.0824098E-003	0	1.174478183461017E-004	3.7263754E-001	2.0613891E-001	4.2585441E-001	2.8950876E+001	2.2339814E+004	4.0383711E+004	4.6150965E+004	-6.1049126E+001	0.0000000E+000	0.0000000E+000	0.0000000E+000	6.1049126E+001	0.0000000E+000	0.0000000E+000	0.0000000E+000	-6.1049126E+001	0.0000000E+000	0.0000000E+000	0.0000000E+000	-2.8950876E+001	0.0000000E+000	0.0000000E+000	0.0000000E+000	2.8950876E+001	1.8077010E+000	6.1049126E+001	1.200962678641857E-005	2.4341012E-005	2.9900657E+003
1.0003202E+003	2.2255666E+000	1.4089876E+000	2.6340830E+000	-3.2337559E+001	7.771695355826523E+000	2.6978227E-001	8.9536205E-002	1.1292078E+002	3.2309433E+001	1.000000000000000E+000	9	4.8446353E-003	1.8392113E-003	0	1.276259294521943E-004	3.2076111E-001	2.0307118E-001	3.7963876E-001	3.2337559E+001	3.2309438E+004	5.1034375E+004	6.0402047E+004	-5.7662441E+001	0.0000000E+000	0.0000000E+000	0.0000000E+000	5.7662441E+001	0.0000000E+000	0.0000000E+000	0.0000000E+000	-5.7662441E+001	0.0000000E+000	0.0000000E+000	0.0000000E+000	-3.2337559E+001	0.0000000E+000	0.0000000E+000	0.0000000E+000	3.2337559E+001	1.5795501E+000	5.7662445E+001	1.017811110609264E-005	2.4155281E-005	3.0131082E+003
6.8108978E+002	2.4857104E+000	1.7789111E+000	3.0566781E+000	-3.5589596E+001	8.237427591258893E+000	2.6977006E-001	8.7934271E-002	1.3135951E+002	4.4490845E+001	1.000000000000000E+000	9	4.8370184E-003	1.5824429E-003	0	1.386210115844410E-004	2.6604256E-001	1.9039471E-001	3.2715255E-001	3.5589596E+001	4.4490840E+004	6.2167996E+004	7.6447984E+004	-5.4410404E+001	0.0000000E+000	0.0000000E+000	0.0000000E+000	5.4410404E+001	0.0000000E+000	0.0000000E+000	0.0000000E+000	-5.4410404E+001	0.0000000E+000	0.0000000E+000	0.0000000E+000	-3.5589596E+001	0.0000000E+000	0.0000000E+000	0.0000000E+000	3.5589596E+001	1.3973213E+000	5.4410400E+001	1.099508213224664E-005	2.3722034E-005	3.0678604E+003
4.6396069E+002	2.8538992E+000	2.2624836E+000	3.6419189E+000	-3.8406300E+001	8.960223598900484E+000	2.6979485E-001	-1.3879551E-002	1.5161894E+002	5.8514545E+001	1.000000000000000E+000	10	4.8870994E-003	1.3419023E-003	0	1.420167060526308E-004	2.1516822E-001	1.7057875E-001	2.7458054E-001	3.8406300E+001	5.8514551E+004	7.3810313E+004	9.4190844E+004	-5.1593700E+001	0.0000000E+000	0.0000000E+000	0.0000000E+000	5.1593700E+001	0.0000000E+000	0.0000000E+000	0.0000000E+000	-5.1593700E+001	0.0000000E+000	0.0000000E+000	0.0000000E+000	-3.8406300E+001	0.0000000E+000	0.0000000E+000	0.0000000E+000	3.8406300E+001	1.2614011E+000	5.1593704E+001	3.395694468189800E-006	-3.7446314E-006	1.9438299E+004
3.1631589E+002	3.3283350E+000	2.8527985E+000	4.3836370E+000	-4.0600697E+001	9.426924687752035E+000	2.6979262E-001	-1.4852287E-002	1.7637135E+002	7.4696640E+001	1.000000000000000E+000	10	4.8588645E-003	1.1084094E-003	0	1.399605990654349E-004	1.7320399E-001	1.4845742E-001	2.2812109E-001	4.0600697E+001	7.4696641E+004	8.7147922E+004	1.1477956E+005	-4.9399303E+001	0.0000000E+000	0.0000000E+000	0.0000000E+000	4.9399303E+001	0.0000000E+000	0.0000000E+000	0.0000000E+000	-4.9399303E+001	0.0000000E+000	0.0000000E+000	0.0000000E+000	-4.0600697E+001	0.0000000E+000	0.0000000E+000	0.0000000E+000	4.0600697E+001	1.1666913E+000	4.9399307E+001	-2.056106987195858E-006	-4.0070377E-006	1.8165055E+004
2.1534457E+002	3.9653921E+000	3.5583525E+000	5.3278708E+000	-4.1903278E+001	9.894418069947278E+000	2.6979303E-001	-1.5292068E-002	2.0770036E+002	9.2646240E+001	1.000000000000000E+000	10	4.8387335E-003	9.0819271E-004	0	1.388080133385503E-004	1.3969433E-001	1.2535498E-001	1.8769224E-001	4.1903278E+001	9.2646234E+004	1.0324402E+005	1.3871789E+005	-4.8096722E+001	0.0000000E+000	0.0000000E+000	0.0000000E+000	4.8096722E+001	0.0000000E+000	0.0000000E+000	0.0000000E+000	-4.8096722E+001	0.0000000E+000	0.0000000E+000	0.0000000E+000	-4.1903278E+001	0.0000000E+000	0.0000000E+000	0.0000000E+000	4.1903278E+001	1.1143899E+000	4.8096725E+001	-1.152585726884561E-006	-4.1256935E-006	1.7642678E+004
1.4673740E+002	4.7938938E+000	4.3840370E+000	6.4962449E+000	-4.2443050E+001	1.035736171857570E+001	2.6979551E-001	-1.5923794E-002	2.4740308E+002	1.1267531E+002	1.000000000000000E+000	10	4.8244675E-003	7.4265478E-004	0	1.370444465513574E-004	1.1359616E-001	1.0388418E-001	1.5393509E-001	4.2443050E+001	1.1267530E+005	1.2320916E+005	1.6696173E+005	-4.7556950E+001	0.0000000E+000	0.0000000E+000	0.0000000E+000	4.7556950E+001	0.0000000E+000	0.0000000E+000	0.0000000E+000	-4.7556950E+001	0.0000000E+000	0.0000000E+000	0.0000000E+000	-4.2443050E+001	0.0000000E+000	0.0000000E+000	0.0000000E+000	4.2443050E+001	1.0934885E+000	4.7556946E+001	-1.763566787192948E-006	-4.2961683E-006	1.6942916E+004
1.0003201E+002	5.9096279E+000	5.3126674E+000	7.9465799E+000	-4.1955070E+001	1.082571091421414E+001	2.6978698E-001	-1.5006970E-002	2.9948047E+002	1.3385458E+002	1.000000000000000E+000	10	4.8162327E-003	6.0607615E-004	0	1.352503836412571E-004	9.3583576E-002	8.4130242E-002	1.2584031E-001	4.1955070E+001	1.3385458E+005	1.4889520E+005	2.0021695E+005	-4.8044930E+001	0.0000000E+000	0.0000000E+000	0.0000000E+000	4.8044930E+001	0.0000000E+000	0.0000000E+000	0.0000000E+000	-4.8044930E+001	0.0000000E+000	0.0000000E+000	0.0000000E+000	-4.1955070E+001	0.0000000E+000	0.0000000E+000	0.0000000E+000	4.1955070E+001	1.1123655E+000	4.8044922E+001	-1.794062910100255E-006	-4.0486852E-006	1.7977445E+004
6.8103981E+001	7.3673387E+000	6.2883224E+000	9.6861076E+000	-4.0482101E+001	1.130430965693085E+001	2.6979470E-001	-1.1499922E-002	3.7163177E+002	1.5663321E+002	1.000000000000000E+000	10	4.8158211E-003	4.9718848E-004	0	1.338179647474204E-004	7.8525744E-002	6.7024909E-002	1.0324065E-001	4.0482101E+001	1.5663322E+005	1.8350998E+005	2.4126723E+005	-4.9517899E+001	0.0000000E+000	0.0000000E+000	0.0000000E+000	4.9517899E+001	0.0000000E+000	0.0000000E+000	0.0000000E+000	-4.9517899E+001	0.0000000E+000	0.0000000E+000	0.0000000E+000	-4.0482101E+001	0.0000000E+000	0.0000000E+000	0.0000000E+000	4.0482101E+001	1.1715904E+000	4.9517899E+001	-1.432418893836768E-006	-3.1026179E-006	2.3460568E+004
4.6441547E+001	9.2070417E+000	7.1889091E+000	1.1681183E+001	-3.7982914E+001	1.175953351854696E+001	2.6979181E-001	-1.8105924E-002	4.7670581E+002	1.8055220E+002	1.000000000000000E+000	10	4.8090238E-003	4.1168981E-004	0	1.319931207712600E-004	6.7475557E-002	5.2685283E-002	8.5607767E-002	3.7982914E+001	1.8055220E+005	2.3123838E+005	2.9337738E+005	-5.2017086E+001	0.0000000E+000	0.0000000E+000	0.0000000E+000	5.2017086E+001	0.0000000E+000	0.0000000E+000	0.0000000E+000	-5.2017086E+001	0.0000000E+000	0.0000000E+000	0.0000000E+000	-3.7982914E+001	0.0000000E+000	0.0000000E+000	0.0000000E+000	3.7982914E+001	1.2807287E+000	5.2017090E+001	-1.824843976160404E-006	-4.8848301E-006	1.4900748E+004
3.1629555E+001	1.1379500E+001	7.8814597E+000	1.3842342E+001	-3.4706535E+001	1.220542788636521E+001	2.6978800E-001	-2.0111023E-002	6.3844043E+002	2.0697339E+002	1.000000000000000E+000	10	4.8102220E-003	3.4750058E-004	0	1.298105915966314E-004	5.9388731E-002	4.1132730E-002	7.2242111E-002	3.4706535E+001	2.0697341E+005	2.9883472E+005	3.6351091E+005	-5.5293465E+001	0.0000000E+000	0.0000000E+000	0.0000000E+000	5.5293465E+001	0.0000000E+000	0.0000000E+000	0.0000000E+000	-5.5293465E+001	0.0000000E+000	0.0000000E+000	0.0000000E+000	-3.4706535E+001	0.0000000E+000	0.0000000E+000	0.0000000E+000	3.4706535E+001	1.4438316E+000	5.5293465E+001	-2.182529174628528E-006	-5.4257125E-006	1.3414932E+004
2.1551722E+001	1.3888988E+001	8.2659912E+000	1.6162630E+001	-3.0758869E+001	1.288534007864655E+001	2.6982832E-001	-7.3975930E-003	8.9339435E+002	2.3367326E+002	1.000000000000000E+000	11	4.8245611E-003	2.9850099E-004	0	1.279356992381808E-004	5.3167537E-002	3.1642504E-002	6.1871119E-002	3.0758869E+001	2.3367327E+005	3.9263109E+005	4.5690522E+005	-5.9241131E+001	0.0000000E+000	0.0000000E+000	0.0000000E+000	5.9241131E+001	0.0000000E+000	0.0000000E+000	0.0000000E+000	-5.9241131E+001	0.0000000E+000	0.0000000E+000	0.0000000E+000	-3.0758869E+001	0.0000000E+000	0.0000000E+000	0.0000000E+000	3.0758869E+001	1.6802568E+000	5.9241135E+001	-1.874892358450685E-006	-1.9960801E-006	3.6475152E+004
1.4685154E+001	1.6283476E+001	8.1717997E+000	1.8218943E+001	-2.6649612E+001	1.336306231471826E+001	2.6982260E-001	-6.3481950E-003	1.3262455E+003	2.6681668E+002	1.000000000000000E+000	11	4.8109717E-003	2.6406426E-004	0	1.274310188599451E-004	4.9056973E-002	2.4619056E-002	5.4887928E-002	2.6649612E+001	2.6681672E+005	5.3167025E+005	5.9486506E+005	-6.3350388E+001	0.0000000E+000	0.0000000E+000	0.0000000E+000	6.3350388E+001	0.0000000E+000	0.0000000E+000	0.0000000E+000	-6.3350388E+001	0.0000000E+000	0.0000000E+000	0.0000000E+000	-2.6649612E+001	0.0000000E+000	0.0000000E+000	0.0000000E+000	2.6649612E+001	1.9926425E+000	6.3350388E+001	-5.046803782356244E-007	-1.7128865E-006	4.2503828E+004
