EC-Lab ASCII FILE

Nb header lines : 63                          

Potentio Electrochemical Impedance Spectroscopy

Run on channel : 2 (SN 66139)
User : 
CE vs. WE compliance from -10 V to 10 V
Electrode connection : standard
Potential control : Ewe
Ewe ctrl range : min = -10.00 V, max = 10.00 V
Safety Limits :
	Do not start on E overload
Acquisition started on : 09/22/2025 08:11:08.830
Loaded Setting File :  C:\Users\Celltest\OneDrive - store-dot.com\Documents\EC-Lab\Data\Gyutae\17737_R277_UA674_SOC00_C01.mpr
Saved on :
	File : 17738_R277_UA674_SOC00_C02.mpr
	Directory : C:\Users\Celltest\OneDrive - store-dot.com\Documents\EC-Lab\Data\Gyutae\
	Host : 169.254.61.224
Device : VMP-3e (SN .003165)
Address : USB
EC-LAB for windows v11.62 (software)
Internet server v27.00 (firmware)
Command interpretor v12.03 (firmware)
Electrode material : 
Initial state : 
Electrolyte : 
Comments : 
Electrode surface area : 0.001 cm²
Characteristic mass : 0.001 g
Equivalent Weight : 0.000 g/eq.
Density : 0.000 g/cm3
Volume (V) : 0.001 cm³
Cycle Definition : Charge/Discharge alternance
Mode                Single sine         
E (V)               0.0000              
vs.                 Eoc                 
tE (h:m:s)          0:00:0.0000         
record              0                   
dI                  0.000               
unit dI             mA                  
dt (s)              0.000               
fi                  100.000             
unit fi             kHz                 
ff                  10.000              
unit ff             mHz                 
Nd                  6                   
Points              per decade          
spacing             Logarithmic         
Va (mV)             5.0                 
pw                  0.10                
Na                  2                   
corr                0                   
E range min (V)     -10.000             
E range max (V)     10.000              
I Range             Auto                
Bandwidth           5                   
nc cycles           0                   
goto Ns'            0                   
nr cycles           0                   
inc. cycle          0                   

freq/Hz	Re(Z)/Ohm	-Im(Z)/Ohm	|Z|/Ohm	Phase(Z)/deg	time/s	<Ewe>/V	<I>/mA	Cs/µF	Cp/µF	cycle number	I Range	|Ewe|/V	|I|/A	Ns	(Q-Qo)/mA.h	Re(Y)/Ohm-1	Im(Y)/Ohm-1	|Y|/Ohm-1	Phase(Y)/deg	Re(C)/nF	Im(C)/nF	|C|/nF	Phase(C)/deg	Re(M)	Im(M)	|M|	Phase(M)/deg	Re(Permittivity)	Im(Permittivity)	|Permittivity|	Phase(Permittivity)/deg	Re(Resistivity)/Ohm.cm	Im(Resistivity)/Ohm.cm	|Resistivity|/Ohm.cm	Phase(Resistivity)/deg	Re(Conductivity)/mS/cm	Im(Conductivity)/mS/cm	|Conductivity|/mS/cm	Phase(Conductivity)/deg	Tan(Delta)	Loss Angle(Delta)/deg	dq/mA.h	Pwe/W	Rwe/Ohm	
1.0000371E+005	9.9147230E-001	1.9540283E-001	1.0105442E+000	-1.1149167E+001	1.864477821887704E+000	2.7344087E-001	-1.5268466E-002	8.1446638E+000	3.0452591E-001	1.000000000000000E+000	9	4.7082491E-003	4.6591223E-003	0	-1.491164870554995E-005	9.7088987E-001	1.9134638E-001	9.8956585E-001	1.1149167E+001	3.0452600E+002	1.5451619E+003	1.5748845E+003	-7.8850830E+001	0.0000000E+000	0.0000000E+000	0.0000000E+000	7.8850830E+001	0.0000000E+000	0.0000000E+000	0.0000000E+000	-7.8850830E+001	0.0000000E+000	0.0000000E+000	0.0000000E+000	-1.1149167E+001	0.0000000E+000	0.0000000E+000	0.0000000E+000	1.1149167E+001	5.0739913E+000	7.8850830E+001	-1.491164870554995E-005	-4.1750227E-006	1.7908863E+004
6.8132047E+004	1.0367520E+000	2.1451844E-001	1.0587128E+000	-1.1690325E+001	2.442493129317882E+000	2.7343738E-001	-1.6367219E-002	1.0889403E+001	4.4707149E-001	1.000000000000000E+000	9	5.0375522E-003	4.7581857E-003	0	-1.836552014445947E-005	9.2495054E-001	1.9138516E-001	9.4454318E-001	1.1690325E+001	4.4707144E+002	2.1606641E+003	2.2064319E+003	-7.8309677E+001	0.0000000E+000	0.0000000E+000	0.0000000E+000	7.8309677E+001	0.0000000E+000	0.0000000E+000	0.0000000E+000	-7.8309677E+001	0.0000000E+000	0.0000000E+000	0.0000000E+000	-1.1690325E+001	0.0000000E+000	0.0000000E+000	0.0000000E+000	1.1690325E+001	4.8329272E+000	7.8309677E+001	-3.453871438909522E-006	-4.4754097E-006	1.6706404E+004
4.6420355E+004	1.0866985E+000	2.3699491E-001	1.1122411E+000	-1.2302834E+001	3.020493983436609E+000	2.7342901E-001	-1.4020737E-002	1.4466805E+001	6.5682971E-001	1.000000000000000E+000	9	5.0189928E-003	4.5125042E-003	0	-3.413743163872924E-005	8.7843812E-001	1.9157599E-001	8.9908558E-001	1.2302834E+001	6.5682965E+002	3.0117773E+003	3.0825684E+003	-7.7697166E+001	0.0000000E+000	0.0000000E+000	0.0000000E+000	7.7697166E+001	0.0000000E+000	0.0000000E+000	0.0000000E+000	-7.7697166E+001	0.0000000E+000	0.0000000E+000	0.0000000E+000	-1.2302834E+001	0.0000000E+000	0.0000000E+000	0.0000000E+000	1.2302834E+001	4.5853243E+000	7.7697166E+001	-1.577191149426977E-005	-3.8336761E-006	1.9501756E+004
3.1621139E+004	1.1428674E+000	2.7064350E-001	1.1744760E+000	-1.3322840E+001	3.598490837583086E+000	2.7342746E-001	-1.4542192E-002	1.8597092E+001	9.8753369E-001	1.000000000000000E+000	9	5.0745672E-003	4.3207072E-003	0	-4.673243931080732E-005	8.2852870E-001	1.9620465E-001	8.5144353E-001	1.3322840E+001	9.8753357E+002	4.1701357E+003	4.2854702E+003	-7.6677162E+001	0.0000000E+000	0.0000000E+000	0.0000000E+000	7.6677162E+001	0.0000000E+000	0.0000000E+000	0.0000000E+000	-7.6677162E+001	0.0000000E+000	0.0000000E+000	0.0000000E+000	-1.3322840E+001	0.0000000E+000	0.0000000E+000	0.0000000E+000	1.3322840E+001	4.2227778E+000	7.6677162E+001	-1.259500767207808E-005	-3.9762344E-006	1.8802355E+004
2.1544684E+004	1.2062517E+000	3.0573386E-001	1.2443941E+000	-1.4222551E+001	4.176481025031535E+000	2.7343100E-001	-1.2121231E-002	2.4162201E+001	1.4585043E+000	1.000000000000000E+000	9	5.0255926E-003	4.0385863E-003	0	-4.589577069731119E-005	7.7897245E-001	1.9743660E-001	8.0360395E-001	1.4222551E+001	1.4585042E+003	5.7544282E+003	5.9363857E+003	-7.5777451E+001	0.0000000E+000	0.0000000E+000	0.0000000E+000	7.5777451E+001	0.0000000E+000	0.0000000E+000	0.0000000E+000	-7.5777451E+001	0.0000000E+000	0.0000000E+000	0.0000000E+000	-1.4222551E+001	0.0000000E+000	0.0000000E+000	0.0000000E+000	1.4222551E+001	3.9454308E+000	7.5777451E+001	8.366686134961355E-007	-3.3143203E-006	2.2558021E+004
1.4678594E+004	1.2715819E+000	3.4508252E-001	1.3175745E+000	-1.5183271E+001	4.472475972404936E+000	2.7342597E-001	-1.0463795E-002	3.1420471E+001	2.1553028E+000	1.000000000000000E+000	9	4.8264829E-003	3.6631576E-003	0	-4.608906732848845E-005	7.3247701E-001	1.9877997E-001	7.5897038E-001	1.5183271E+001	2.1553032E+003	7.9419961E+003	8.2292549E+003	-7.4816727E+001	0.0000000E+000	0.0000000E+000	0.0000000E+000	7.4816727E+001	0.0000000E+000	0.0000000E+000	0.0000000E+000	-7.4816727E+001	0.0000000E+000	0.0000000E+000	0.0000000E+000	-1.5183271E+001	0.0000000E+000	0.0000000E+000	0.0000000E+000	1.5183271E+001	3.6848633E+000	7.4816727E+001	-1.932966311772659E-007	-2.8610732E-006	2.6130670E+004
1.0002226E+004	1.3506964E+000	3.9598319E-001	1.4075452E+000	-1.6339535E+001	4.909495539817726E+000	2.7342916E-001	-1.5063664E-002	4.0183407E+001	3.1803546E+000	1.000000000000000E+000	9	4.8586512E-003	3.4518614E-003	0	-5.053321836808593E-005	6.8176240E-001	1.9987202E-001	7.1045673E-001	1.6339535E+001	3.1803552E+003	1.0848172E+004	1.1304755E+004	-7.3660461E+001	0.0000000E+000	0.0000000E+000	0.0000000E+000	7.3660461E+001	0.0000000E+000	0.0000000E+000	0.0000000E+000	-7.3660461E+001	0.0000000E+000	0.0000000E+000	0.0000000E+000	-1.6339535E+001	0.0000000E+000	0.0000000E+000	0.0000000E+000	1.6339535E+001	3.4109943E+000	7.3660461E+001	-4.444151039597476E-006	-4.1188450E-006	1.8151570E+004
6.8110674E+003	1.4432541E+000	4.5437977E-001	1.5130907E+000	-1.7475569E+001	5.287491397786653E+000	2.7327579E-001	-1.2555367E-001	5.1426384E+001	4.6376076E+000	1.000000000000000E+000	9	4.5432667E-003	3.0026401E-003	0	-6.077469442031583E-005	6.3039517E-001	1.9846736E-001	6.6089892E-001	1.7475569E+001	4.6376079E+003	1.4730511E+004	1.5443295E+004	-7.2524429E+001	0.0000000E+000	0.0000000E+000	0.0000000E+000	7.2524429E+001	0.0000000E+000	0.0000000E+000	0.0000000E+000	-7.2524429E+001	0.0000000E+000	0.0000000E+000	0.0000000E+000	-1.7475569E+001	0.0000000E+000	0.0000000E+000	0.0000000E+000	1.7475569E+001	3.1763167E+000	7.2524429E+001	-1.024147605222990E-005	-3.4310779E-005	2.1765657E+003
4.6414854E+003	1.5453675E+000	5.2655238E-001	1.6326108E+000	-1.8815495E+001	5.981682444136823E+000	2.7337348E-001	-1.7186686E-002	6.5121078E+001	6.7739096E+000	1.000000000000000E+000	9	5.0153797E-003	3.0719996E-003	0	-6.577851360712924E-005	5.7978427E-001	1.9754966E-001	6.1251587E-001	1.8815495E+001	6.7739082E+003	1.9880605E+004	2.1002959E+004	-7.1184509E+001	0.0000000E+000	0.0000000E+000	0.0000000E+000	7.1184509E+001	0.0000000E+000	0.0000000E+000	0.0000000E+000	-7.1184509E+001	0.0000000E+000	0.0000000E+000	0.0000000E+000	-1.8815495E+001	0.0000000E+000	0.0000000E+000	0.0000000E+000	1.8815495E+001	2.9348788E+000	7.1184509E+001	-5.003819186813414E-006	-4.6983841E-006	1.5906119E+004
3.1610117E+003	1.6655970E+000	6.0890824E-001	1.7734098E+000	-2.0081381E+001	6.448687986317964E+000	2.7337530E-001	-1.2102623E-002	8.2687935E+001	9.7482719E+000	1.000000000000000E+000	9	4.9215099E-003	2.7751678E-003	0	-6.557821149635129E-005	5.2960455E-001	1.9361261E-001	5.6388545E-001	2.0081381E+001	9.7482734E+003	2.6665254E+004	2.8391277E+004	-6.9918617E+001	0.0000000E+000	0.0000000E+000	0.0000000E+000	6.9918617E+001	0.0000000E+000	0.0000000E+000	0.0000000E+000	-6.9918617E+001	0.0000000E+000	0.0000000E+000	0.0000000E+000	-2.0081381E+001	0.0000000E+000	0.0000000E+000	0.0000000E+000	2.0081381E+001	2.7353826E+000	6.9918617E+001	2.003021107779547E-007	-3.3085580E-006	2.2588105E+004
2.1556899E+003	1.7961055E+000	7.0379454E-001	1.9290727E+000	-2.1397470E+001	6.915695075163967E+000	2.7337441E-001	-1.7149452E-002	1.0490300E+002	1.3963121E+001	1.000000000000000E+000	9	4.8636543E-003	2.5212395E-003	0	-6.973884883823080E-005	4.8265254E-001	1.8912488E-001	5.1838374E-001	2.1397470E+001	1.3963121E+004	3.5634320E+004	3.8272359E+004	-6.8602531E+001	0.0000000E+000	0.0000000E+000	0.0000000E+000	6.8602531E+001	0.0000000E+000	0.0000000E+000	0.0000000E+000	-6.8602531E+001	0.0000000E+000	0.0000000E+000	0.0000000E+000	-2.1397470E+001	0.0000000E+000	0.0000000E+000	0.0000000E+000	2.1397470E+001	2.5520310E+000	6.8602531E+001	-4.160637341879509E-006	-4.6882215E-006	1.5940708E+004
1.4685898E+003	1.9419286E+000	8.2156754E-001	2.1085682E+000	-2.2931658E+001	7.382939870672999E+000	2.7337527E-001	-1.7726773E-002	1.3190958E+002	2.0025694E+001	1.000000000000000E+000	9	4.8390552E-003	2.2949483E-003	0	-7.121021899734882E-005	4.3677518E-001	1.8478553E-001	4.7425547E-001	2.2931658E+001	2.0025691E+004	4.7334477E+004	5.1396313E+004	-6.7068344E+001	0.0000000E+000	0.0000000E+000	0.0000000E+000	6.7068344E+001	0.0000000E+000	0.0000000E+000	0.0000000E+000	-6.7068344E+001	0.0000000E+000	0.0000000E+000	0.0000000E+000	-2.2931658E+001	0.0000000E+000	0.0000000E+000	0.0000000E+000	2.2931658E+001	2.3636870E+000	6.7068344E+001	-1.471370159118025E-006	-4.8460615E-006	1.5421604E+004
1.0003202E+003	2.1061556E+000	9.7442418E-001	2.3206451E+000	-2.4827875E+001	7.851682612956211E+000	2.7337202E-001	-9.7002937E-003	1.6328001E+002	2.8788013E+001	1.000000000000000E+000	9	4.8173182E-003	2.0758531E-003	0	-7.359586825573934E-005	3.9108664E-001	1.8093835E-001	4.3091467E-001	2.4827875E+001	2.8788010E+004	6.2223445E+004	6.8560242E+004	-6.5172127E+001	0.0000000E+000	0.0000000E+000	0.0000000E+000	6.5172127E+001	0.0000000E+000	0.0000000E+000	0.0000000E+000	-6.5172127E+001	0.0000000E+000	0.0000000E+000	0.0000000E+000	-2.4827875E+001	0.0000000E+000	0.0000000E+000	0.0000000E+000	2.4827875E+001	2.1614361E+000	6.5172127E+001	-2.385649258390511E-006	-2.6517889E-006	2.8181830E+004
6.8108978E+002	2.3144288E+000	1.1710432E+000	2.5938239E+000	-2.6838272E+001	8.317452661722200E+000	2.7336916E-001	-1.5473416E-002	1.9954594E+002	4.0673141E+001	1.000000000000000E+000	9	4.8081819E-003	1.8537040E-003	0	-7.466517398344715E-005	3.4400347E-001	1.7405717E-001	3.8553119E-001	2.6838272E+001	4.0673141E+004	8.0385664E+004	9.0089727E+004	-6.3161728E+001	0.0000000E+000	0.0000000E+000	0.0000000E+000	6.3161728E+001	0.0000000E+000	0.0000000E+000	0.0000000E+000	-6.3161728E+001	0.0000000E+000	0.0000000E+000	0.0000000E+000	-2.6838272E+001	0.0000000E+000	0.0000000E+000	0.0000000E+000	2.6838272E+001	1.9763821E+000	6.3161728E+001	-1.069305727707811E-006	-4.2299548E-006	1.7667021E+004
4.6396069E+002	2.5687568E+000	1.4186268E+000	2.9344528E+000	-2.8910204E+001	9.040188269369537E+000	2.7339700E-001	-3.8816508E-002	2.4180806E+002	5.6513580E+001	1.000000000000000E+000	10	4.8648142E-003	1.6578267E-003	0	-8.227250771272359E-005	2.9831064E-001	1.6474563E-001	3.4077904E-001	2.8910204E+001	5.6513582E+004	1.0233111E+005	1.1689927E+005	-6.1089798E+001	0.0000000E+000	0.0000000E+000	0.0000000E+000	6.1089798E+001	0.0000000E+000	0.0000000E+000	0.0000000E+000	-6.1089798E+001	0.0000000E+000	0.0000000E+000	0.0000000E+000	-2.8910204E+001	0.0000000E+000	0.0000000E+000	0.0000000E+000	2.8910204E+001	1.8107347E+000	6.1089798E+001	-7.607333729276443E-006	-1.0612317E-005	7.0433179E+003
3.1631589E+002	2.9119051E+000	1.7227503E+000	3.3833504E+000	-3.0609541E+001	9.506909651565365E+000	2.7340019E-001	-3.9770175E-002	2.9206317E+002	7.5722946E+001	1.000000000000000E+000	10	4.8418939E-003	1.4310945E-003	0	-8.714963349233020E-005	2.5438017E-001	1.5049720E-001	2.9556501E-001	3.0609541E+001	7.5722953E+004	1.2799186E+005	1.4871409E+005	-5.9390457E+001	0.0000000E+000	0.0000000E+000	0.0000000E+000	5.9390457E+001	0.0000000E+000	0.0000000E+000	0.0000000E+000	-5.9390457E+001	0.0000000E+000	0.0000000E+000	0.0000000E+000	-3.0609541E+001	0.0000000E+000	0.0000000E+000	0.0000000E+000	3.0609541E+001	1.6902653E+000	5.9390457E+001	-4.877125779606607E-006	-1.0873173E-005	6.8745029E+003
2.1534457E+002	3.3687432E+000	2.0507574E+000	3.9438605E+000	-3.1331400E+001	9.974429327092366E+000	2.7339938E-001	-3.8607910E-002	3.6038934E+002	9.7444519E+001	1.000000000000000E+000	10	4.8209867E-003	1.2224029E-003	0	-9.089721235837270E-005	2.1658322E-001	1.3184729E-001	2.5355867E-001	3.1331400E+001	9.7444508E+004	1.6007039E+005	1.8739788E+005	-5.8668602E+001	0.0000000E+000	0.0000000E+000	0.0000000E+000	5.8668602E+001	0.0000000E+000	0.0000000E+000	0.0000000E+000	-5.8668602E+001	0.0000000E+000	0.0000000E+000	0.0000000E+000	-3.1331400E+001	0.0000000E+000	0.0000000E+000	0.0000000E+000	3.1331400E+001	1.6426824E+000	5.8668602E+001	-3.747578866042506E-006	-1.0555379E-005	7.0814346E+003
1.4673740E+002	3.9596894E+000	2.3769414E+000	4.6183319E+000	-3.0975756E+001	1.043736457571504E+001	2.7339724E-001	-3.9049346E-002	4.5631088E+002	1.2087251E+002	1.000000000000000E+000	10	4.8098662E-003	1.0414727E-003	0	-9.591159226913522E-005	1.8564823E-001	1.1144183E-001	2.1652840E-001	3.0975756E+001	1.2087251E+005	2.0135859E+005	2.3485197E+005	-5.9024246E+001	0.0000000E+000	0.0000000E+000	0.0000000E+000	5.9024246E+001	0.0000000E+000	0.0000000E+000	0.0000000E+000	-5.9024246E+001	0.0000000E+000	0.0000000E+000	0.0000000E+000	-3.0975756E+001	0.0000000E+000	0.0000000E+000	0.0000000E+000	3.0975756E+001	1.6658759E+000	5.9024246E+001	-5.014379910762520E-006	-1.0675984E-005	7.0013271E+003
1.0003201E+002	4.6674881E+000	2.6495988E+000	5.3671055E+000	-2.9582331E+001	1.090569123801833E+001	2.7339709E-001	-3.7318990E-002	6.0048340E+002	1.4634605E+002	1.000000000000000E+000	10	4.8017125E-003	8.9465588E-004	0	-1.010342203812098E-004	1.6203281E-001	9.1981366E-002	1.8632017E-001	2.9582331E+001	1.4634603E+005	2.5780070E+005	2.9644284E+005	-6.0417671E+001	0.0000000E+000	0.0000000E+000	0.0000000E+000	6.0417671E+001	0.0000000E+000	0.0000000E+000	0.0000000E+000	-6.0417671E+001	0.0000000E+000	0.0000000E+000	0.0000000E+000	-2.9582331E+001	0.0000000E+000	0.0000000E+000	0.0000000E+000	2.9582331E+001	1.7615830E+000	6.0417671E+001	-5.122628112074582E-006	-1.0202903E-005	7.3259512E+003
6.8103981E+001	5.4821138E+000	2.7959321E+000	6.1539264E+000	-2.7022030E+001	1.138434131405666E+001	2.7340198E-001	-3.4547430E-002	8.3583588E+002	1.7253200E+002	1.000000000000000E+000	10	4.7914851E-003	7.7860616E-004	0	-1.057514605552440E-004	1.4475830E-001	7.3828153E-002	1.6249788E-001	2.7022030E+001	1.7253200E+005	3.3829150E+005	3.7974784E+005	-6.2977970E+001	0.0000000E+000	0.0000000E+000	0.0000000E+000	6.2977970E+001	0.0000000E+000	0.0000000E+000	0.0000000E+000	-6.2977970E+001	0.0000000E+000	0.0000000E+000	0.0000000E+000	-2.7022030E+001	0.0000000E+000	0.0000000E+000	0.0000000E+000	2.7022030E+001	1.9607464E+000	6.2977966E+001	-4.717240174034187E-006	-9.4453353E-006	7.9138154E+003
4.6441547E+001	6.3240514E+000	2.8289638E+000	6.9279623E+000	-2.4100595E+001	1.183954458896187E+001	2.7339435E-001	-3.9399531E-002	1.2113959E+003	2.0198997E+002	1.000000000000000E+000	10	4.7896011E-003	6.9134339E-004	0	-1.103509096715263E-004	1.3176024E-001	5.8940843E-002	1.4434259E-001	2.4100595E+001	2.0198995E+005	4.5154163E+005	4.9466128E+005	-6.5899406E+001	0.0000000E+000	0.0000000E+000	0.0000000E+000	6.5899406E+001	0.0000000E+000	0.0000000E+000	0.0000000E+000	-6.5899406E+001	0.0000000E+000	0.0000000E+000	0.0000000E+000	-2.4100595E+001	0.0000000E+000	0.0000000E+000	0.0000000E+000	2.4100595E+001	2.2354658E+000	6.5899406E+001	-4.599449116282305E-006	-1.0771609E-005	6.9390254E+003
3.1629555E+001	7.1449213E+000	2.7255554E+000	7.6471272E+000	-2.0880228E+001	1.228643783685402E+001	2.7338779E-001	-4.0952947E-002	1.8461714E+003	2.3452299E+002	1.000000000000000E+000	10	4.7885003E-003	6.2618288E-004	0	-1.152027084644780E-004	1.2218020E-001	4.6607777E-002	1.3076806E-001	2.0880228E+001	2.3452298E+005	6.1479156E+005	6.5800431E+005	-6.9119774E+001	0.0000000E+000	0.0000000E+000	0.0000000E+000	6.9119774E+001	0.0000000E+000	0.0000000E+000	0.0000000E+000	-6.9119774E+001	0.0000000E+000	0.0000000E+000	0.0000000E+000	-2.0880228E+001	0.0000000E+000	0.0000000E+000	0.0000000E+000	2.0880228E+001	2.6214552E+000	6.9119774E+001	-4.851798792951745E-006	-1.1196035E-005	6.6756563E+003
2.1551722E+001	7.8618584E+000	2.5137532E+000	8.2539549E+000	-1.7731174E+001	1.272536447105813E+001	2.7338099E-001	-4.3487955E-002	2.9377544E+003	2.7248123E+002	1.000000000000000E+000	10	4.7829500E-003	5.7947374E-004	0	-1.185442641678609E-004	1.1539873E-001	3.6897626E-002	1.2115404E-001	1.7731174E+001	2.7248119E+005	8.5219544E+005	8.9469719E+005	-7.2268829E+001	0.0000000E+000	0.0000000E+000	0.0000000E+000	7.2268829E+001	0.0000000E+000	0.0000000E+000	0.0000000E+000	-7.2268829E+001	0.0000000E+000	0.0000000E+000	0.0000000E+000	-1.7731174E+001	0.0000000E+000	0.0000000E+000	0.0000000E+000	1.7731174E+001	3.1275380E+000	7.2268829E+001	-3.341555703382853E-006	-1.1888780E-005	6.2863613E+003
1.4685154E+001	8.4991951E+000	2.2785940E+000	8.7993355E+000	-1.5007809E+001	1.320304926711833E+001	2.7340060E-001	-3.3550940E-002	4.7563594E+003	3.1893988E+002	1.000000000000000E+000	10	4.7861319E-003	5.4391968E-004	0	-1.231901498247979E-004	1.0976858E-001	2.9428435E-002	1.1364494E-001	1.5007809E+001	3.1893997E+005	1.1896513E+006	1.2316626E+006	-7.4992188E+001	0.0000000E+000	0.0000000E+000	0.0000000E+000	7.4992188E+001	0.0000000E+000	0.0000000E+000	0.0000000E+000	-7.4992188E+001	0.0000000E+000	0.0000000E+000	0.0000000E+000	-1.5007809E+001	0.0000000E+000	0.0000000E+000	0.0000000E+000	1.5007809E+001	3.7300172E+000	7.4992188E+001	-4.645885656937037E-006	-9.1728471E-006	8.1488208E+003
