EC-Lab ASCII FILE

Nb header lines : 63                          

Potentio Electrochemical Impedance Spectroscopy

Run on channel : 3 (SN 65921)
User : 
CE vs. WE compliance from -10 V to 10 V
Electrode connection : standard
Potential control : Ewe
Ewe ctrl range : min = -10.00 V, max = 10.00 V
Safety Limits :
	Do not start on E overload
Acquisition started on : 09/22/2025 08:11:20.123
Loaded Setting File :  C:\Users\Celltest\OneDrive - store-dot.com\Documents\EC-Lab\Data\Gyutae\17738_R277_UA674_SOC00_C02.mpr
Saved on :
	File : 17739_R277_UA674_SOC00_C03.mpr
	Directory : C:\Users\Celltest\OneDrive - store-dot.com\Documents\EC-Lab\Data\Gyutae\
	Host : 169.254.61.224
Device : VMP-3e (SN .003165)
Address : USB
EC-LAB for windows v11.62 (software)
Internet server v27.00 (firmware)
Command interpretor v12.03 (firmware)
Electrode material : 
Initial state : 
Electrolyte : 
Comments : 
Electrode surface area : 0.001 cm²
Characteristic mass : 0.001 g
Equivalent Weight : 0.000 g/eq.
Density : 0.000 g/cm3
Volume (V) : 0.001 cm³
Cycle Definition : Charge/Discharge alternance
Mode                Single sine         
E (V)               0.0000              
vs.                 Eoc                 
tE (h:m:s)          0:00:0.0000         
record              0                   
dI                  0.000               
unit dI             mA                  
dt (s)              0.000               
fi                  100.000             
unit fi             kHz                 
ff                  10.000              
unit ff             mHz                 
Nd                  6                   
Points              per decade          
spacing             Logarithmic         
Va (mV)             5.0                 
pw                  0.10                
Na                  2                   
corr                0                   
E range min (V)     -10.000             
E range max (V)     10.000              
I Range             Auto                
Bandwidth           5                   
nc cycles           0                   
goto Ns'            0                   
nr cycles           0                   
inc. cycle          0                   

freq/Hz	Re(Z)/Ohm	-Im(Z)/Ohm	|Z|/Ohm	Phase(Z)/deg	time/s	<Ewe>/V	<I>/mA	Cs/µF	Cp/µF	cycle number	I Range	|Ewe|/V	|I|/A	Ns	(Q-Qo)/mA.h	Re(Y)/Ohm-1	Im(Y)/Ohm-1	|Y|/Ohm-1	Phase(Y)/deg	Re(C)/nF	Im(C)/nF	|C|/nF	Phase(C)/deg	Re(M)	Im(M)	|M|	Phase(M)/deg	Re(Permittivity)	Im(Permittivity)	|Permittivity|	Phase(Permittivity)/deg	Re(Resistivity)/Ohm.cm	Im(Resistivity)/Ohm.cm	|Resistivity|/Ohm.cm	Phase(Resistivity)/deg	Re(Conductivity)/mS/cm	Im(Conductivity)/mS/cm	|Conductivity|/mS/cm	Phase(Conductivity)/deg	Tan(Delta)	Loss Angle(Delta)/deg	dq/mA.h	Pwe/W	Rwe/Ohm	
1.0000371E+005	1.1034583E+000	2.4759148E-001	1.1308942E+000	-1.2646444E+001	1.864497128553921E+000	2.7550068E-001	2.1940880E-002	6.4278879E+000	3.0810288E-001	1.000000000000000E+000	9	4.6201716E-003	4.0854146E-003	0	-6.311573832568683E-006	8.6280364E-001	1.9359393E-001	8.8425601E-001	1.2646444E+001	3.0810294E+002	1.3731438E+003	1.4072850E+003	-7.7353554E+001	0.0000000E+000	0.0000000E+000	0.0000000E+000	7.7353554E+001	0.0000000E+000	0.0000000E+000	0.0000000E+000	-7.7353554E+001	0.0000000E+000	0.0000000E+000	0.0000000E+000	-1.2646444E+001	0.0000000E+000	0.0000000E+000	0.0000000E+000	1.2646444E+001	4.4567699E+000	7.7353554E+001	-6.311573832568683E-006	6.0447273E-006	1.2556501E+004
6.8132047E+004	1.1640790E+000	2.7065742E-001	1.1951298E+000	-1.3089156E+001	2.301484695955878E+000	2.7547526E-001	1.9032015E-002	8.6307545E+000	4.4264799E-001	1.000000000000000E+000	9	5.5006631E-003	4.6025654E-003	0	-9.617393428977164E-006	8.1499004E-001	1.8949153E-001	8.3672923E-001	1.3089156E+001	4.4264798E+002	1.9037985E+003	1.9545807E+003	-7.6910843E+001	0.0000000E+000	0.0000000E+000	0.0000000E+000	7.6910843E+001	0.0000000E+000	0.0000000E+000	0.0000000E+000	-7.6910843E+001	0.0000000E+000	0.0000000E+000	0.0000000E+000	-1.3089156E+001	0.0000000E+000	0.0000000E+000	0.0000000E+000	1.3089156E+001	4.3009315E+000	7.6910843E+001	-3.305819596408481E-006	5.2428491E-006	1.4474310E+004
4.6420355E+004	1.2283163E+000	2.9815739E-001	1.2639853E+000	-1.3643901E+001	2.880479203449795E+000	2.7549252E-001	2.8168904E-002	1.1499160E+001	6.3984275E-001	1.000000000000000E+000	9	5.0631962E-003	4.0057399E-003	0	3.213803565336598E-007	7.6882273E-001	1.8662146E-001	7.9114848E-001	1.3643901E+001	6.3984259E+002	2.6359541E+003	2.7124993E+003	-7.6356102E+001	0.0000000E+000	0.0000000E+000	0.0000000E+000	7.6356102E+001	0.0000000E+000	0.0000000E+000	0.0000000E+000	-7.6356102E+001	0.0000000E+000	0.0000000E+000	0.0000000E+000	-1.3643901E+001	0.0000000E+000	0.0000000E+000	0.0000000E+000	1.3643901E+001	4.1196909E+000	7.6356102E+001	9.938773785510823E-006	7.7603227E-006	9.7800225E+003
3.1621139E+004	1.2943805E+000	3.3832106E-001	1.3378648E+000	-1.4648082E+001	3.458476457599318E+000	2.7547452E-001	2.7423026E-002	1.4876940E+001	9.5136517E-001	1.000000000000000E+000	9	5.0636828E-003	3.7848989E-003	0	9.622626740899351E-006	7.2316527E-001	1.8901862E-001	7.4745971E-001	1.4648082E+001	9.5136499E+002	3.6398225E+003	3.7621008E+003	-7.5351921E+001	0.0000000E+000	0.0000000E+000	0.0000000E+000	7.5351921E+001	0.0000000E+000	0.0000000E+000	0.0000000E+000	-7.5351921E+001	0.0000000E+000	0.0000000E+000	0.0000000E+000	-1.4648082E+001	0.0000000E+000	0.0000000E+000	0.0000000E+000	1.4648082E+001	3.8258941E+000	7.5351921E+001	9.301246384365692E-006	7.5543448E-006	1.0045373E+004
2.1544684E+004	1.3760917E+000	3.8330576E-001	1.4284788E+000	-1.5565001E+001	3.895499118341831E+000	2.7547044E-001	2.2164628E-002	1.9272350E+001	1.3876430E+000	1.000000000000000E+000	9	5.4415809E-003	3.8093536E-003	0	1.584461819183909E-005	6.7437232E-001	1.8784416E-001	7.0004535E-001	1.5565001E+001	1.3876431E+003	4.9817251E+003	5.1713770E+003	-7.4434998E+001	0.0000000E+000	0.0000000E+000	0.0000000E+000	7.4434998E+001	0.0000000E+000	0.0000000E+000	0.0000000E+000	-7.4434998E+001	0.0000000E+000	0.0000000E+000	0.0000000E+000	-1.5565001E+001	0.0000000E+000	0.0000000E+000	0.0000000E+000	1.5565001E+001	3.5900626E+000	7.4434998E+001	6.221991450939741E-006	6.1056999E-006	1.2428381E+004
1.4678594E+004	1.4616981E+000	4.3042597E-001	1.5237545E+000	-1.6408110E+001	4.332489432446891E+000	2.7546659E-001	2.4663314E-002	2.5190523E+001	2.0100374E+000	1.000000000000000E+000	9	5.0048502E-003	3.2845517E-003	0	2.489343735467022E-005	6.2954634E-001	1.8538238E-001	6.5627372E-001	1.6408110E+001	2.0100375E+003	6.8259536E+003	7.1157495E+003	-7.3591888E+001	0.0000000E+000	0.0000000E+000	0.0000000E+000	7.3591888E+001	0.0000000E+000	0.0000000E+000	0.0000000E+000	-7.3591888E+001	0.0000000E+000	0.0000000E+000	0.0000000E+000	-1.6408110E+001	0.0000000E+000	0.0000000E+000	0.0000000E+000	1.6408110E+001	3.3959336E+000	7.3591888E+001	9.048819162831126E-006	6.7939191E-006	1.1169082E+004
1.0002226E+004	1.5577706E+000	4.8936608E-001	1.6328284E+000	-1.7439857E+001	4.629477926500840E+000	2.7550244E-001	3.4396935E-002	3.2515438E+001	2.9206283E+000	1.000000000000000E+000	9	4.6602562E-003	2.8541004E-003	0	2.545531632949132E-005	5.8428192E-001	1.8354933E-001	6.1243427E-001	1.7439857E+001	2.9206282E+003	9.2970664E+003	9.7450254E+003	-7.2560143E+001	0.0000000E+000	0.0000000E+000	0.0000000E+000	7.2560143E+001	0.0000000E+000	0.0000000E+000	0.0000000E+000	-7.2560143E+001	0.0000000E+000	0.0000000E+000	0.0000000E+000	-1.7439857E+001	0.0000000E+000	0.0000000E+000	0.0000000E+000	1.7439857E+001	3.1832418E+000	7.2560143E+001	5.618789748211068E-007	9.4764400E-006	8.0095054E+003
6.8110674E+003	1.6733530E+000	5.6744945E-001	1.7669491E+000	-1.8732273E+001	5.184495979541680E+000	2.7528819E-001	-8.3115116E-002	4.1179184E+001	4.2470179E+000	1.000000000000000E+000	9	4.9795643E-003	2.8181709E-003	0	1.590916142375985E-005	5.3596878E-001	1.8175198E-001	5.6594729E-001	1.8732273E+001	4.2470171E+003	1.2524040E+004	1.3224551E+004	-7.1267731E+001	0.0000000E+000	0.0000000E+000	0.0000000E+000	7.1267731E+001	0.0000000E+000	0.0000000E+000	0.0000000E+000	-7.1267731E+001	0.0000000E+000	0.0000000E+000	0.0000000E+000	-1.8732273E+001	0.0000000E+000	0.0000000E+000	0.0000000E+000	1.8732273E+001	2.9489021E+000	7.1267731E+001	-9.546154905731478E-006	-2.2880609E-005	3.3121316E+003
4.6414854E+003	1.8026586E+000	6.4947623E-001	1.9160891E+000	-1.9813482E+001	5.655690801984747E+000	2.7545968E-001	4.6461388E-002	5.2795860E+001	6.0658970E+000	1.000000000000000E+000	9	4.8218626E-003	2.5165128E-003	0	2.328964456889985E-005	4.9100068E-001	1.7690165E-001	5.2189642E-001	1.9813482E+001	6.0658970E+003	1.6836244E+004	1.7895648E+004	-7.0186516E+001	0.0000000E+000	0.0000000E+000	0.0000000E+000	7.0186516E+001	0.0000000E+000	0.0000000E+000	0.0000000E+000	-7.0186516E+001	0.0000000E+000	0.0000000E+000	0.0000000E+000	-1.9813482E+001	0.0000000E+000	0.0000000E+000	0.0000000E+000	1.9813482E+001	2.7755575E+000	7.0186516E+001	7.380483145140005E-006	1.2798239E-005	5.9287871E+003
3.1610117E+003	1.9491360E+000	7.4767709E-001	2.0876188E+000	-2.0986519E+001	6.122695117504918E+000	2.7545094E-001	4.4522114E-002	6.7341057E+001	8.6378508E+000	1.000000000000000E+000	9	4.7440459E-003	2.2724674E-003	0	2.958553145518979E-005	4.4723907E-001	1.7155826E-001	4.7901464E-001	2.0986519E+001	8.6378506E+003	2.2518205E+004	2.4118086E+004	-6.9013481E+001	0.0000000E+000	0.0000000E+000	0.0000000E+000	6.9013481E+001	0.0000000E+000	0.0000000E+000	0.0000000E+000	-6.9013481E+001	0.0000000E+000	0.0000000E+000	0.0000000E+000	-2.0986519E+001	0.0000000E+000	0.0000000E+000	0.0000000E+000	2.0986519E+001	2.6069221E+000	6.9013481E+001	6.295886886289940E-006	1.2263658E-005	6.1868345E+003
2.1556899E+003	2.1163378E+000	8.6640257E-001	2.2868185E+000	-2.2263588E+001	6.589699859679968E+000	2.7546561E-001	4.1258916E-002	8.5214615E+001	1.2231794E+001	1.000000000000000E+000	9	4.6860813E-003	2.0491707E-003	0	3.372253507027765E-005	4.0468919E-001	1.6567476E-001	4.3728876E-001	2.2263588E+001	1.2231795E+004	2.9878270E+004	3.2285102E+004	-6.7736412E+001	0.0000000E+000	0.0000000E+000	0.0000000E+000	6.7736412E+001	0.0000000E+000	0.0000000E+000	0.0000000E+000	-6.7736412E+001	0.0000000E+000	0.0000000E+000	0.0000000E+000	-2.2263588E+001	0.0000000E+000	0.0000000E+000	0.0000000E+000	2.2263588E+001	2.4426725E+000	6.7736412E+001	4.137003615087858E-006	1.1365412E-005	6.6765107E+003
1.4685898E+003	2.3026457E+000	1.0094110E+000	2.5141773E+000	-2.3671207E+001	7.056944148527691E+000	2.7545205E-001	4.4018630E-002	1.0736224E+002	1.7305965E+001	1.000000000000000E+000	9	4.6556261E-003	1.8517494E-003	0	4.039457989071444E-005	3.6427999E-001	1.5968944E-001	3.9774442E-001	2.3671207E+001	1.7305963E+004	3.9477980E+004	4.3104609E+004	-6.6328796E+001	0.0000000E+000	0.0000000E+000	0.0000000E+000	6.6328796E+001	0.0000000E+000	0.0000000E+000	0.0000000E+000	-6.6328796E+001	0.0000000E+000	0.0000000E+000	0.0000000E+000	-2.3671207E+001	0.0000000E+000	0.0000000E+000	0.0000000E+000	2.3671207E+001	2.2811775E+000	6.6328796E+001	6.672044820436791E-006	1.2125021E-005	6.2576245E+003
1.0003202E+003	2.4986458E+000	1.1885834E+000	2.7669408E+000	-2.5440012E+001	7.525705930805998E+000	2.7546626E-001	4.6349466E-002	1.3386018E+002	2.4700798E+001	1.000000000000000E+000	9	4.6353750E-003	1.6752707E-003	0	4.458853899260025E-005	3.2636604E-001	1.5524939E-001	3.6140996E-001	2.5440012E+001	2.4700795E+004	5.1926141E+004	5.7501770E+004	-6.4559990E+001	0.0000000E+000	0.0000000E+000	0.0000000E+000	6.4559990E+001	0.0000000E+000	0.0000000E+000	0.0000000E+000	-6.4559990E+001	0.0000000E+000	0.0000000E+000	0.0000000E+000	-2.5440012E+001	0.0000000E+000	0.0000000E+000	0.0000000E+000	2.5440012E+001	2.1022048E+000	6.4559990E+001	4.193959101885814E-006	1.2767714E-005	5.9432456E+003
6.8108978E+002	2.7291026E+000	1.4181153E+000	3.0755572E+000	-2.7457603E+001	8.245416844933061E+000	2.7543581E-001	-2.1956271E-002	1.6477991E+002	3.5033192E+001	1.000000000000000E+000	10	4.7037653E-003	1.5294026E-003	0	4.534922091946161E-005	2.8851753E-001	1.4992149E-001	3.2514432E-001	2.7457603E+001	3.5033188E+004	6.7419883E+004	7.5978711E+004	-6.2542397E+001	0.0000000E+000	0.0000000E+000	0.0000000E+000	6.2542397E+001	0.0000000E+000	0.0000000E+000	0.0000000E+000	-6.2542397E+001	0.0000000E+000	0.0000000E+000	0.0000000E+000	-2.7457603E+001	0.0000000E+000	0.0000000E+000	0.0000000E+000	2.7457603E+001	1.9244576E+000	6.2542397E+001	7.606819268613529E-007	-6.0475431E-006	1.2544744E+004
4.6396069E+002	3.0175273E+000	1.7232707E+000	3.4749291E+000	-2.9730127E+001	8.714219213899923E+000	2.7545702E-001	-2.0252172E-002	1.9906065E+002	4.8955391E+001	1.000000000000000E+000	10	4.6695312E-003	1.3437774E-003	0	4.232693666290531E-005	2.4989600E-001	1.4271237E-001	2.8777567E-001	2.9730127E+001	4.8955387E+004	8.5723172E+004	9.8717234E+004	-6.0269875E+001	0.0000000E+000	0.0000000E+000	0.0000000E+000	6.0269875E+001	0.0000000E+000	0.0000000E+000	0.0000000E+000	-6.0269875E+001	0.0000000E+000	0.0000000E+000	0.0000000E+000	-2.9730127E+001	0.0000000E+000	0.0000000E+000	0.0000000E+000	2.9730127E+001	1.7510467E+000	6.0269875E+001	-3.022284256556301E-006	-5.5786031E-006	1.3601357E+004
3.1631589E+002	3.3950012E+000	2.1157446E+000	4.0003009E+000	-3.1930916E+001	9.180928622750798E+000	2.7545959E-001	-2.0694049E-002	2.3781317E+002	6.6523804E+001	1.000000000000000E+000	10	4.6459683E-003	1.1614048E-003	0	3.896216021701952E-005	2.1215564E-001	1.3221414E-001	2.4998119E-001	3.1930916E+001	6.6523797E+004	1.0674652E+005	1.2577852E+005	-5.8069084E+001	0.0000000E+000	0.0000000E+000	0.0000000E+000	5.8069084E+001	0.0000000E+000	0.0000000E+000	0.0000000E+000	-5.8069084E+001	0.0000000E+000	0.0000000E+000	0.0000000E+000	-3.1930916E+001	0.0000000E+000	0.0000000E+000	0.0000000E+000	3.1930916E+001	1.6046365E+000	5.8069084E+001	-3.364776445885787E-006	-5.7003740E-006	1.3311053E+004
2.1534457E+002	3.9004622E+000	2.5876143E+000	4.6807427E+000	-3.3560783E+001	9.648413338261889E+000	2.7544338E-001	-2.0915922E-002	2.8561871E+002	8.7288338E+001	1.000000000000000E+000	10	4.6272068E-003	9.8856247E-004	0	3.613663816466902E-005	1.7802726E-001	1.1810546E-001	2.1364130E-001	3.3560783E+001	8.7288336E+004	1.3157480E+005	1.5789611E+005	-5.6439217E+001	0.0000000E+000	0.0000000E+000	0.0000000E+000	5.6439217E+001	0.0000000E+000	0.0000000E+000	0.0000000E+000	-5.6439217E+001	0.0000000E+000	0.0000000E+000	0.0000000E+000	-3.3560783E+001	0.0000000E+000	0.0000000E+000	0.0000000E+000	3.3560783E+001	1.5073584E+000	5.6439217E+001	-2.825522052350501E-006	-5.7611519E-006	1.3169076E+004
1.4673740E+002	4.5919805E+000	3.1028626E+000	5.5420251E+000	-3.4047421E+001	1.011138901356026E+001	2.7543896E-001	-2.1434236E-002	3.4955600E+002	1.0957333E+002	1.000000000000000E+000	10	4.6207607E-003	8.3376752E-004	0	3.395721414275128E-005	1.4950752E-001	1.0102424E-001	1.8043946E-001	3.4047421E+001	1.0957335E+005	1.6215952E+005	1.9570903E+005	-5.5952579E+001	0.0000000E+000	0.0000000E+000	0.0000000E+000	5.5952579E+001	0.0000000E+000	0.0000000E+000	0.0000000E+000	-5.5952579E+001	0.0000000E+000	0.0000000E+000	0.0000000E+000	-3.4047421E+001	0.0000000E+000	0.0000000E+000	0.0000000E+000	3.4047421E+001	1.4799174E+000	5.5952576E+001	-2.179424021917737E-006	-5.9038239E-006	1.2850421E+004
1.0003201E+002	5.4876113E+000	3.6016002E+000	6.5639472E+000	-3.3277481E+001	1.057970268919598E+001	2.7546537E-001	-1.8714027E-002	4.4175925E+002	1.3299841E+002	1.000000000000000E+000	10	4.6178885E-003	7.0352311E-004	0	3.221934385730290E-005	1.2736590E-001	8.3592124E-002	1.5234736E-001	3.3277481E+001	1.3299842E+005	2.0264427E+005	2.4239075E+005	-5.6722519E+001	0.0000000E+000	0.0000000E+000	0.0000000E+000	5.6722519E+001	0.0000000E+000	0.0000000E+000	0.0000000E+000	-5.6722519E+001	0.0000000E+000	0.0000000E+000	0.0000000E+000	-3.3277481E+001	0.0000000E+000	0.0000000E+000	0.0000000E+000	3.3277481E+001	1.5236592E+000	5.6722519E+001	-1.737870285448382E-006	-5.1550664E-006	1.4719727E+004
6.8103981E+001	6.5688777E+000	4.0199919E+000	7.7013302E+000	-3.1465609E+001	1.105833033853560E+001	2.7543092E-001	-1.8950811E-002	5.8132965E+002	1.5839494E+002	1.000000000000000E+000	10	4.6064928E-003	5.9814251E-004	0	3.027804756944533E-005	1.1075407E-001	6.7778774E-002	1.2984771E-001	3.1465609E+001	1.5839494E+005	2.5882567E+005	3.0344634E+005	-5.8534393E+001	0.0000000E+000	0.0000000E+000	0.0000000E+000	5.8534393E+001	0.0000000E+000	0.0000000E+000	0.0000000E+000	-5.8534393E+001	0.0000000E+000	0.0000000E+000	0.0000000E+000	-3.1465609E+001	0.0000000E+000	0.0000000E+000	0.0000000E+000	3.1465609E+001	1.6340525E+000	5.8534393E+001	-1.941296287857564E-006	-5.2196392E-006	1.4533991E+004
4.6441547E+001	7.7883048E+000	4.2761035E+000	8.8849735E+000	-2.8768618E+001	1.151356313351425E+001	2.7545238E-001	-2.1648664E-002	8.0142938E+002	1.8563052E+002	1.000000000000000E+000	10	4.6019615E-003	5.1794882E-004	0	2.820992423937747E-005	9.8657623E-002	5.4167140E-002	1.1254957E-001	2.8768618E+001	1.8563050E+005	3.3809919E+005	3.8570681E+005	-6.1231384E+001	0.0000000E+000	0.0000000E+000	0.0000000E+000	6.1231384E+001	0.0000000E+000	0.0000000E+000	0.0000000E+000	-6.1231384E+001	0.0000000E+000	0.0000000E+000	0.0000000E+000	-2.8768618E+001	0.0000000E+000	0.0000000E+000	0.0000000E+000	2.8768618E+001	1.8213556E+000	6.1231384E+001	-2.068123330067870E-006	-5.9631761E-006	1.2723759E+004
3.1629555E+001	9.0683784E+000	4.3324580E+000	1.0050159E+001	-2.5536345E+001	1.196146574142040E+001	2.7542996E-001	-2.4532953E-002	1.1614291E+003	2.1583188E+002	1.000000000000000E+000	10	4.6019712E-003	4.5790034E-004	0	2.521313081624006E-005	8.9780875E-002	4.2893209E-002	9.9500917E-002	2.5536345E+001	2.1583189E+005	4.5176322E+005	5.0067297E+005	-6.4463654E+001	0.0000000E+000	0.0000000E+000	0.0000000E+000	6.4463654E+001	0.0000000E+000	0.0000000E+000	0.0000000E+000	-6.4463654E+001	0.0000000E+000	0.0000000E+000	0.0000000E+000	-2.5536345E+001	0.0000000E+000	0.0000000E+000	0.0000000E+000	2.5536345E+001	2.0931256E+000	6.4463654E+001	-2.996793423137408E-006	-6.7571104E-006	1.1226938E+004
2.1551722E+001	1.0313040E+001	4.1506414E+000	1.1116952E+001	-2.1923079E+001	1.240034840229782E+001	2.7541980E-001	-2.5888402E-002	1.7791924E+003	2.4801726E+002	1.000000000000000E+000	10	4.6015023E-003	4.1391762E-004	0	2.328760221176021E-005	8.3447866E-002	3.3584878E-002	8.9952715E-002	2.1923079E+001	2.4801731E+005	6.1624500E+005	6.6428194E+005	-6.8076920E+001	0.0000000E+000	0.0000000E+000	0.0000000E+000	6.8076920E+001	0.0000000E+000	0.0000000E+000	0.0000000E+000	-6.8076920E+001	0.0000000E+000	0.0000000E+000	0.0000000E+000	-2.1923079E+001	0.0000000E+000	0.0000000E+000	0.0000000E+000	2.1923079E+001	2.4846859E+000	6.8076920E+001	-1.925528604479849E-006	-7.1301783E-006	1.0638733E+004
1.4685154E+001	1.1423655E+001	3.8642747E+000	1.2059540E+001	-1.8689114E+001	1.287803162500495E+001	2.7543354E-001	-1.8723356E-002	2.8046174E+003	2.8797058E+002	1.000000000000000E+000	10	4.6046753E-003	3.8182846E-004	0	2.137827921823676E-005	7.8549534E-002	2.6570916E-002	8.2921907E-002	1.8689114E+001	2.8797066E+005	8.5130500E+005	8.9869200E+005	-7.1310883E+001	0.0000000E+000	0.0000000E+000	0.0000000E+000	7.1310883E+001	0.0000000E+000	0.0000000E+000	0.0000000E+000	-7.1310883E+001	0.0000000E+000	0.0000000E+000	0.0000000E+000	-1.8689114E+001	0.0000000E+000	0.0000000E+000	0.0000000E+000	1.8689114E+001	2.9562221E+000	7.1310883E+001	-1.909322993523449E-006	-5.1570401E-006	1.4710693E+004
