EC-Lab ASCII FILE
Nb header lines : 63                          

Potentio Electrochemical Impedance Spectroscopy

Run on channel : 1 (SN 66354)
User : 
CE vs. WE compliance from -10 V to 10 V
Electrode connection : standard
Potential control : Ewe
Ewe ctrl range : min = -10.00 V, max = 10.00 V
Safety Limits :
	Do not start on E overload
Acquisition started on : 09/22/2025 08:10:49.990
Loaded Setting File :  C:\Users\Celltest\OneDrive - store-dot.com\Documents\EC-Lab\Data\txt_done\14380_R229_UA592_SOC00_C01.mpr
Saved on :
	File : 17737_R277_UA674_SOC00_C01.mpr
	Directory : C:\Users\Celltest\OneDrive - store-dot.com\Documents\EC-Lab\Data\Gyutae\
	Host : 169.254.61.224
Device : VMP-3e (SN .003165)
Address : USB
EC-LAB for windows v11.62 (software)
Internet server v27.00 (firmware)
Command interpretor v12.03 (firmware)
Electrode material : 
Initial state : 
Electrolyte : 
Comments : 
Electrode surface area : 0.001 cm²
Characteristic mass : 0.001 g
Equivalent Weight : 0.000 g/eq.
Density : 0.000 g/cm3
Volume (V) : 0.001 cm³
Cycle Definition : Charge/Discharge alternance
Mode                Single sine         
E (V)               0.0000              
vs.                 Eoc                 
tE (h:m:s)          0:00:0.0000         
record              0                   
dI                  0.000               
unit dI             mA                  
dt (s)              0.000               
fi                  100.000             
unit fi             kHz                 
ff                  10.000              
unit ff             mHz                 
Nd                  6                   
Points              per decade          
spacing             Logarithmic         
Va (mV)             5.0                 
pw                  0.10                
Na                  2                   
corr                0                   
E range min (V)     -10.000             
E range max (V)     10.000              
I Range             Auto                
Bandwidth           5                   
nc cycles           0                   
goto Ns'            0                   
nr cycles           0                   
inc. cycle          0                   

freq/Hz	Re(Z)/Ohm	-Im(Z)/Ohm	|Z|/Ohm	Phase(Z)/deg	time/s	<Ewe>/V	<I>/mA	Cs/µF	Cp/µF	cycle number	I Range	|Ewe|/V	|I|/A	Ns	(Q-Qo)/mA.h	Re(Y)/Ohm-1	Im(Y)/Ohm-1	|Y|/Ohm-1	Phase(Y)/deg	Re(C)/nF	Im(C)/nF	|C|/nF	Phase(C)/deg	Re(M)	Im(M)	|M|	Phase(M)/deg	Re(Permittivity)	Im(Permittivity)	|Permittivity|	Phase(Permittivity)/deg	Re(Resistivity)/Ohm.cm	Im(Resistivity)/Ohm.cm	|Resistivity|/Ohm.cm	Phase(Resistivity)/deg	Re(Conductivity)/mS/cm	Im(Conductivity)/mS/cm	|Conductivity|/mS/cm	Phase(Conductivity)/deg	Tan(Delta)	Loss Angle(Delta)/deg	dq/mA.h	Pwe/W	Rwe/Ohm	
1.0000371E+005	1.0214660E+000	2.9592979E-001	1.0634694E+000	-1.6156878E+001	1.892493449879112E+000	2.7487710E-001	7.6962940E-002	5.3779321E+000	4.1643065E-001	1.000000000000000E+000	9	4.8073963E-003	4.5204838E-003	0	3.332443689455330E-006	9.0317911E-001	2.6166081E-001	9.4031852E-001	1.6156878E+001	4.1643063E+002	1.4374010E+003	1.4965079E+003	-7.3843124E+001	0.0000000E+000	0.0000000E+000	0.0000000E+000	7.3843124E+001	0.0000000E+000	0.0000000E+000	0.0000000E+000	-7.3843124E+001	0.0000000E+000	0.0000000E+000	0.0000000E+000	-1.6156878E+001	0.0000000E+000	0.0000000E+000	0.0000000E+000	1.6156878E+001	3.4517174E+000	7.3843124E+001	3.332443689455330E-006	2.1155351E-005	3.5715515E+003
6.8132047E+004	1.0920038E+000	3.2973593E-001	1.1407007E+000	-1.6801949E+001	2.329484030633466E+000	2.7487928E-001	7.7838428E-002	7.0843887E+000	5.9195888E-001	1.000000000000000E+000	9	5.5006281E-003	4.8221485E-003	0	2.238561469484638E-005	8.3922946E-001	2.5340948E-001	8.7665415E-001	1.6801949E+001	5.9195886E+002	1.9604214E+003	2.0478446E+003	-7.3198051E+001	0.0000000E+000	0.0000000E+000	0.0000000E+000	7.3198051E+001	0.0000000E+000	0.0000000E+000	0.0000000E+000	-7.3198051E+001	0.0000000E+000	0.0000000E+000	0.0000000E+000	-1.6801949E+001	0.0000000E+000	0.0000000E+000	0.0000000E+000	1.6801949E+001	3.3117526E+000	7.3198051E+001	1.905317100539105E-005	2.1396170E-005	3.5314084E+003
4.6420355E+004	1.1724964E+000	3.6605734E-001	1.2283102E+000	-1.7338539E+001	2.907478778070072E+000	2.7487475E-001	7.6124713E-002	9.3661814E+000	8.3184934E-001	1.000000000000000E+000	9	5.0402274E-003	4.1033830E-003	0	4.010103265091311E-005	7.7713311E-001	2.4262357E-001	8.1412655E-001	1.7338539E+001	8.3184930E+002	2.6644470E+003	2.7912813E+003	-7.2661461E+001	0.0000000E+000	0.0000000E+000	0.0000000E+000	7.2661461E+001	0.0000000E+000	0.0000000E+000	0.0000000E+000	-7.2661461E+001	0.0000000E+000	0.0000000E+000	0.0000000E+000	-1.7338539E+001	0.0000000E+000	0.0000000E+000	0.0000000E+000	1.7338539E+001	3.2030404E+000	7.2661461E+001	1.771541795606673E-005	2.0924761E-005	3.6108477E+003
3.1621139E+004	1.2597257E+000	4.1531828E-001	1.3264230E+000	-1.8246843E+001	3.485497845540522E+000	2.7487594E-001	7.9347193E-002	1.2118855E+001	1.1881180E+000	1.000000000000000E+000	9	4.9993088E-003	3.7690154E-003	0	3.806866941934762E-005	7.1599805E-001	2.3605703E-001	7.5390726E-001	1.8246843E+001	1.1881178E+003	3.6037488E+003	3.7945525E+003	-7.1753159E+001	0.0000000E+000	0.0000000E+000	0.0000000E+000	7.1753159E+001	0.0000000E+000	0.0000000E+000	0.0000000E+000	-7.1753159E+001	0.0000000E+000	0.0000000E+000	0.0000000E+000	-1.8246843E+001	0.0000000E+000	0.0000000E+000	0.0000000E+000	1.8246843E+001	3.0331573E+000	7.1753159E+001	-2.032363231565489E-006	2.1810634E-005	3.4642175E+003
2.1544684E+004	1.3582225E+000	4.6433643E-001	1.4354012E+000	-1.8874052E+001	3.923484079685295E+000	2.7487332E-001	7.7857010E-002	1.5909161E+001	1.6648158E+000	1.000000000000000E+000	9	5.3724106E-003	3.7427938E-003	0	4.712202828211917E-005	6.5921080E-001	2.2536482E-001	6.9666934E-001	1.8874052E+001	1.6648157E+003	4.8697236E+003	5.1464375E+003	-7.1125946E+001	0.0000000E+000	0.0000000E+000	0.0000000E+000	7.1125946E+001	0.0000000E+000	0.0000000E+000	0.0000000E+000	-7.1125946E+001	0.0000000E+000	0.0000000E+000	0.0000000E+000	-1.8874052E+001	0.0000000E+000	0.0000000E+000	0.0000000E+000	1.8874052E+001	2.9250827E+000	7.1125946E+001	9.053358862771547E-006	2.1400814E-005	3.5304890E+003
1.4678594E+004	1.4614431E+000	5.2313000E-001	1.5522503E+000	-1.9695051E+001	4.360500100388890E+000	2.7487564E-001	8.2793199E-002	2.0726503E+001	2.3540831E+000	1.000000000000000E+000	9	4.9124779E-003	3.1647461E-003	0	5.502643536756901E-005	6.0653859E-001	2.1711315E-001	6.4422601E-001	1.9695051E+001	2.3540835E+003	6.5764893E+003	6.9851211E+003	-7.0304947E+001	0.0000000E+000	0.0000000E+000	0.0000000E+000	7.0304947E+001	0.0000000E+000	0.0000000E+000	0.0000000E+000	-7.0304947E+001	0.0000000E+000	0.0000000E+000	0.0000000E+000	-1.9695051E+001	0.0000000E+000	0.0000000E+000	0.0000000E+000	1.9695051E+001	2.7936518E+000	7.0304947E+001	7.904407085449847E-006	2.2757833E-005	3.3200269E+003
1.0002226E+004	1.5819465E+000	5.9207988E-001	1.6891161E+000	-2.0519520E+001	4.797483961185208E+000	2.7488181E-001	8.0185391E-002	2.6874672E+001	3.3020587E+000	1.000000000000000E+000	9	4.9744193E-003	2.9449835E-003	0	6.541866214139413E-005	5.5446327E-001	2.0752066E-001	5.9202564E-001	2.0519520E+001	3.3020583E+003	8.8225938E+003	9.4202842E+003	-6.9480484E+001	0.0000000E+000	0.0000000E+000	0.0000000E+000	6.9480484E+001	0.0000000E+000	0.0000000E+000	0.0000000E+000	-6.9480484E+001	0.0000000E+000	0.0000000E+000	0.0000000E+000	-2.0519520E+001	0.0000000E+000	0.0000000E+000	0.0000000E+000	2.0519520E+001	2.6718464E+000	6.9480484E+001	1.039222677382511E-005	2.2041506E-005	3.4280784E+003
6.8110674E+003	1.7294352E+000	6.7805785E-001	1.8576083E+000	-2.1408604E+001	5.176495659194188E+000	2.7464563E-001	-7.0936836E-002	3.4461819E+001	4.5915933E+000	1.000000000000000E+000	9	4.6607233E-003	2.5089914E-003	0	5.929157151582209E-005	5.0118262E-001	1.9649814E-001	5.3832662E-001	2.1408604E+001	4.5915923E+003	1.1711188E+004	1.2579136E+004	-6.8591400E+001	0.0000000E+000	0.0000000E+000	0.0000000E+000	6.8591400E+001	0.0000000E+000	0.0000000E+000	0.0000000E+000	-6.8591400E+001	0.0000000E+000	0.0000000E+000	0.0000000E+000	-2.1408604E+001	0.0000000E+000	0.0000000E+000	0.0000000E+000	2.1408604E+001	2.5505717E+000	6.8591400E+001	-6.127090625572033E-006	-1.9482492E-005	3.8716926E+003
4.6414854E+003	1.8847408E+000	7.6971155E-001	2.0358546E+000	-2.2214672E+001	5.870697532198392E+000	2.7484176E-001	1.0861046E-001	4.4548710E+001	6.3679209E+000	1.000000000000000E+000	9	5.0000991E-003	2.4560199E-003	0	7.935502461148684E-005	4.5473474E-001	1.8570967E-001	4.9119422E-001	2.2214672E+001	6.3679214E+003	1.5592697E+004	1.6842881E+004	-6.7785324E+001	0.0000000E+000	0.0000000E+000	0.0000000E+000	6.7785324E+001	0.0000000E+000	0.0000000E+000	0.0000000E+000	-6.7785324E+001	0.0000000E+000	0.0000000E+000	0.0000000E+000	-2.2214672E+001	0.0000000E+000	0.0000000E+000	0.0000000E+000	2.2214672E+001	2.4486327E+000	6.7785324E+001	2.006345309566475E-005	2.9850689E-005	2.5305276E+003
3.1610117E+003	2.0743537E+000	8.7263697E-001	2.2504308E+000	-2.2815464E+001	6.337704354380548E+000	2.7482894E-001	1.1024965E-001	5.7697952E+001	8.6755352E+000	1.000000000000000E+000	9	4.9160537E-003	2.1844944E-003	0	9.087650594010160E-005	4.0959203E-001	1.7230673E-001	4.4435936E-001	2.2815464E+001	8.6755332E+003	2.0622701E+004	2.2373213E+004	-6.7184540E+001	0.0000000E+000	0.0000000E+000	0.0000000E+000	6.7184540E+001	0.0000000E+000	0.0000000E+000	0.0000000E+000	-6.7184540E+001	0.0000000E+000	0.0000000E+000	0.0000000E+000	-2.2815464E+001	0.0000000E+000	0.0000000E+000	0.0000000E+000	2.2815464E+001	2.3771095E+000	6.7184540E+001	1.152148132861476E-005	3.0299794E-005	2.4927876E+003
2.1556899E+003	2.2841606E+000	9.9005163E-001	2.4894962E+000	-2.3433945E+001	6.804696616563888E+000	2.7488157E-001	1.0663596E-001	7.4572037E+001	1.1794207E+001	1.000000000000000E+000	9	4.8758727E-003	1.9585781E-003	0	1.044327509045963E-004	3.6855614E-001	1.5974779E-001	4.0168768E-001	2.3433945E+001	1.1794205E+004	2.7210561E+004	2.9656666E+004	-6.6566055E+001	0.0000000E+000	0.0000000E+000	0.0000000E+000	6.6566055E+001	0.0000000E+000	0.0000000E+000	0.0000000E+000	-6.6566055E+001	0.0000000E+000	0.0000000E+000	0.0000000E+000	-2.3433945E+001	0.0000000E+000	0.0000000E+000	0.0000000E+000	2.3433945E+001	2.3071127E+000	6.6566055E+001	1.355624496449471E-005	2.9312259E-005	2.5777568E+003
1.4685898E+003	2.5161033E+000	1.1162971E+000	2.7526159E+000	-2.3924999E+001	7.271945198735921E+000	2.7484247E-001	1.0790260E-001	9.7082253E+001	1.5966444E+001	1.000000000000000E+000	9	4.8468066E-003	1.7608003E-003	0	1.165492974061053E-004	3.3207577E-001	1.4732911E-001	3.6329079E-001	2.3924999E+001	1.5966445E+004	3.5987926E+004	3.9370777E+004	-6.6074997E+001	0.0000000E+000	0.0000000E+000	0.0000000E+000	6.6074997E+001	0.0000000E+000	0.0000000E+000	0.0000000E+000	-6.6074997E+001	0.0000000E+000	0.0000000E+000	0.0000000E+000	-2.3924999E+001	0.0000000E+000	0.0000000E+000	0.0000000E+000	2.3924999E+001	2.2539728E+000	6.6074997E+001	1.211654650150902E-005	2.9656218E-005	2.5471348E+003
1.0003202E+003	2.8023007E+000	1.2683096E+000	3.0759549E+000	-2.4351309E+001	7.741667754402442E+000	2.7484217E-001	1.0732515E-001	1.2544570E+002	2.1327818E+001	1.000000000000000E+000	9	4.8274905E-003	1.5694282E-003	0	1.295516827927236E-004	2.9617938E-001	1.3404955E-001	3.2510230E-001	2.4351309E+001	2.1327822E+004	4.7123324E+004	5.1725078E+004	-6.5648689E+001	0.0000000E+000	0.0000000E+000	0.0000000E+000	6.5648689E+001	0.0000000E+000	0.0000000E+000	0.0000000E+000	-6.5648689E+001	0.0000000E+000	0.0000000E+000	0.0000000E+000	-2.4351309E+001	0.0000000E+000	0.0000000E+000	0.0000000E+000	2.4351309E+001	2.2094769E+000	6.5648689E+001	1.300238538661828E-005	2.9497478E-005	2.5608367E+003
6.8108978E+002	3.1268606E+000	1.4113091E+000	3.4306049E+000	-2.4292046E+001	8.461423121887492E+000	2.7482826E-001	-1.8855017E-002	1.6557457E+002	2.8021832E+001	1.000000000000000E+000	10	4.8775086E-003	1.4217634E-003	0	1.335975753508198E-004	2.6568502E-001	1.1991699E-001	2.9149377E-001	2.4292046E+001	2.8021830E+004	6.2084453E+004	6.8115359E+004	-6.5707954E+001	0.0000000E+000	0.0000000E+000	0.0000000E+000	6.5707954E+001	0.0000000E+000	0.0000000E+000	0.0000000E+000	-6.5707954E+001	0.0000000E+000	0.0000000E+000	0.0000000E+000	-2.4292046E+001	0.0000000E+000	0.0000000E+000	0.0000000E+000	2.4292046E+001	2.2155745E+000	6.5707954E+001	4.045892558096164E-006	-5.1818915E-006	1.4575869E+004
4.6396069E+002	3.5015621E+000	1.5768256E+000	3.8402236E+000	-2.4243019E+001	8.930222930823220E+000	2.7482858E-001	-1.9442013E-002	2.1754808E+002	3.6678333E+001	1.000000000000000E+000	10	4.8560430E-003	1.2645209E-003	0	1.319383972123550E-004	2.3743725E-001	1.0692289E-001	2.6040152E-001	2.4243019E+001	3.6678332E+004	8.1449375E+004	8.9326930E+004	-6.5756981E+001	0.0000000E+000	0.0000000E+000	0.0000000E+000	6.5756981E+001	0.0000000E+000	0.0000000E+000	0.0000000E+000	-6.5756981E+001	0.0000000E+000	0.0000000E+000	0.0000000E+000	-2.4243019E+001	0.0000000E+000	0.0000000E+000	0.0000000E+000	2.4243019E+001	2.2206399E+000	6.5756981E+001	-1.659178138464800E-006	-5.3432209E-006	1.4135810E+004
3.1631589E+002	3.9330776E+000	1.7255304E+000	4.2949452E+000	-2.3688150E+001	9.396926366345724E+000	2.7482995E-001	-1.8827068E-002	2.9159262E+002	4.7065910E+001	1.000000000000000E+000	10	4.8442320E-003	1.1278915E-003	0	1.300994399839094E-004	2.1321476E-001	9.3542144E-002	2.3283184E-001	2.3688150E+001	4.7065910E+004	1.0727942E+005	1.1714980E+005	-6.6311852E+001	0.0000000E+000	0.0000000E+000	0.0000000E+000	6.6311852E+001	0.0000000E+000	0.0000000E+000	0.0000000E+000	-6.6311852E+001	0.0000000E+000	0.0000000E+000	0.0000000E+000	-2.3688150E+001	0.0000000E+000	0.0000000E+000	0.0000000E+000	2.3688150E+001	2.2793441E+000	6.6311852E+001	-1.838957228445588E-006	-5.1742422E-006	1.4597598E+004
2.1534457E+002	4.4039917E+000	1.8577896E+000	4.7798038E+000	-2.2872072E+001	9.864447721833130E+000	2.7482840E-001	-1.8487921E-002	3.9782278E+002	6.0098358E+001	1.000000000000000E+000	10	4.8293010E-003	1.0103555E-003	0	1.272808381232834E-004	1.9276419E-001	8.1316076E-002	2.0921361E-001	2.2872072E+001	6.0098352E+004	1.4246642E+005	1.5462372E+005	-6.7127930E+001	0.0000000E+000	0.0000000E+000	0.0000000E+000	6.7127930E+001	0.0000000E+000	0.0000000E+000	0.0000000E+000	-6.7127930E+001	0.0000000E+000	0.0000000E+000	0.0000000E+000	-2.2872072E+001	0.0000000E+000	0.0000000E+000	0.0000000E+000	2.2872072E+001	2.3705544E+000	6.7127930E+001	-2.818601860625979E-006	-5.0810058E-006	1.4865295E+004
1.4673740E+002	4.9186554E+000	1.9593087E+000	5.2945313E+000	-2.1719486E+001	1.032738334385795E+001	2.7483222E-001	-1.9356295E-002	5.5357495E+002	7.5810112E+001	1.000000000000000E+000	10	4.8160725E-003	9.0963155E-004	0	1.250169640491173E-004	1.7546535E-001	6.9895275E-002	1.8887413E-001	2.1719486E+001	7.5810102E+004	1.9031398E+005	2.0485747E+005	-6.8280518E+001	0.0000000E+000	0.0000000E+000	0.0000000E+000	6.8280518E+001	0.0000000E+000	0.0000000E+000	0.0000000E+000	-6.8280518E+001	0.0000000E+000	0.0000000E+000	0.0000000E+000	-2.1719486E+001	0.0000000E+000	0.0000000E+000	0.0000000E+000	2.1719486E+001	2.5104034E+000	6.8280518E+001	-2.263874074166089E-006	-5.3197336E-006	1.4198596E+004
1.0003201E+002	5.4855313E+000	1.9928600E+000	5.8363128E+000	-1.9965773E+001	1.079568792612554E+001	2.7482980E-001	-1.8702224E-002	7.9837024E+002	9.3085236E+001	1.000000000000000E+000	10	4.8101470E-003	8.2417566E-004	0	1.228661525075570E-004	1.6104291E-001	5.8505900E-002	1.7134106E-001	1.9965773E+001	9.3085242E+004	2.5622572E+005	2.7261050E+005	-7.0034225E+001	0.0000000E+000	0.0000000E+000	0.0000000E+000	7.0034225E+001	0.0000000E+000	0.0000000E+000	0.0000000E+000	-7.0034225E+001	0.0000000E+000	0.0000000E+000	0.0000000E+000	-1.9965773E+001	0.0000000E+000	0.0000000E+000	0.0000000E+000	1.9965773E+001	2.7525926E+000	7.0034225E+001	-2.150811541560350E-006	-5.1399284E-006	1.4695033E+004
6.8103981E+001	6.0654254E+000	1.9482503E+000	6.3706408E+000	-1.7807323E+001	1.127631029559416E+001	2.7483347E-001	-1.4887704E-002	1.1995072E+003	1.1218276E+002	1.000000000000000E+000	10	4.8120073E-003	7.5534120E-004	0	1.211310473089009E-004	1.4944969E-001	4.8004121E-002	1.5697008E-001	1.7807323E+001	1.1218279E+005	3.4925500E+005	3.6682972E+005	-7.2192673E+001	0.0000000E+000	0.0000000E+000	0.0000000E+000	7.2192673E+001	0.0000000E+000	0.0000000E+000	0.0000000E+000	-7.2192673E+001	0.0000000E+000	0.0000000E+000	0.0000000E+000	-1.7807323E+001	0.0000000E+000	0.0000000E+000	0.0000000E+000	1.7807323E+001	3.1132681E+000	7.2192673E+001	-1.735105198656030E-006	-4.0916393E-006	1.8460434E+004
4.6441547E+001	6.6131916E+000	1.8329971E+000	6.8625202E+000	-1.5491928E+001	1.173153202384128E+001	2.7483404E-001	-2.0455753E-002	1.8696129E+003	1.3338530E+002	1.000000000000000E+000	10	4.8147570E-003	7.0160185E-004	0	1.183888497997961E-004	1.4042482E-001	3.8921945E-002	1.4571907E-001	1.5491928E+001	1.3338530E+005	4.8123509E+005	4.9937847E+005	-7.4508072E+001	0.0000000E+000	0.0000000E+000	0.0000000E+000	7.4508072E+001	0.0000000E+000	0.0000000E+000	0.0000000E+000	-7.4508072E+001	0.0000000E+000	0.0000000E+000	0.0000000E+000	-1.5491928E+001	0.0000000E+000	0.0000000E+000	0.0000000E+000	1.5491928E+001	3.6078572E+000	7.4508072E+001	-2.742197509104797E-006	-5.6219374E-006	1.3435537E+004
3.1629555E+001	7.0866747E+000	1.6692919E+000	7.2806244E+000	-1.3254608E+001	1.217744956506067E+001	2.7482644E-001	-2.2280091E-002	3.0143574E+003	1.5846088E+002	1.000000000000000E+000	10	4.8091095E-003	6.6053530E-004	0	1.158841514512379E-004	1.3369194E-001	3.1491622E-002	1.3735086E-001	1.3254608E+001	1.5846089E+005	6.7271681E+005	6.9112788E+005	-7.6745392E+001	0.0000000E+000	0.0000000E+000	0.0000000E+000	7.6745392E+001	0.0000000E+000	0.0000000E+000	0.0000000E+000	-7.6745392E+001	0.0000000E+000	0.0000000E+000	0.0000000E+000	-1.3254608E+001	0.0000000E+000	0.0000000E+000	0.0000000E+000	1.3254608E+001	4.2453179E+000	7.6745392E+001	-2.504698348558237E-006	-6.1231581E-006	1.2335067E+004
2.1551722E+001	7.4808993E+000	1.4880158E+000	7.6274533E+000	-1.1249796E+001	1.261633262588293E+001	2.7482808E-001	-2.3441032E-002	4.9628438E+003	1.8888025E+002	1.000000000000000E+000	10	4.8071938E-003	6.3024886E-004	0	1.113964577050388E-004	1.2858631E-001	2.5576929E-002	1.3110536E-001	1.1249796E+001	1.8888022E+005	9.4958281E+005	9.6818556E+005	-7.8750206E+001	0.0000000E+000	0.0000000E+000	0.0000000E+000	7.8750206E+001	0.0000000E+000	0.0000000E+000	0.0000000E+000	-7.8750206E+001	0.0000000E+000	0.0000000E+000	0.0000000E+000	-1.1249796E+001	0.0000000E+000	0.0000000E+000	0.0000000E+000	1.1249796E+001	5.0274329E+000	7.8750206E+001	-4.487693746199105E-006	-6.4422538E-006	1.1724231E+004
1.4685154E+001	7.8267832E+000	1.2924340E+000	7.9327750E+000	-9.3766165E+000	1.309406467527151E+001	2.7483168E-001	-1.5428114E-002	8.3855830E+003	2.2258696E+002	1.000000000000000E+000	10	4.8083789E-003	6.0614082E-004	0	1.098439013148858E-004	1.2437499E-001	2.0537997E-002	1.2605929E-001	9.3766165E+000	2.2258697E+005	1.3479526E+006	1.3662069E+006	-8.0623383E+001	0.0000000E+000	0.0000000E+000	0.0000000E+000	8.0623383E+001	0.0000000E+000	0.0000000E+000	0.0000000E+000	-8.0623383E+001	0.0000000E+000	0.0000000E+000	0.0000000E+000	-9.3766165E+000	0.0000000E+000	0.0000000E+000	0.0000000E+000	9.3766165E+000	6.0558476E+000	8.0623383E+001	-1.552556390152959E-006	-4.2401343E-006	1.7813693E+004
