EC-Lab ASCII FILE
Nb header lines : 63                          

Potentio Electrochemical Impedance Spectroscopy

Run on channel : 5 (SN 65912)
User : 
CE vs. WE compliance from -10 V to 10 V
Electrode connection : standard
Potential control : Ewe
Ewe ctrl range : min = -10.00 V, max = 10.00 V
Safety Limits :
	Do not start on E overload
Acquisition started on : 09/22/2025 08:11:46.788
Loaded Setting File :  C:\Users\Celltest\OneDrive - store-dot.com\Documents\EC-Lab\Data\Gyutae\17740_R277_UA674_SOC00_C04.mpr
Saved on :
	File : 17741_R277_UA674_SOC00_C05.mpr
	Directory : C:\Users\Celltest\OneDrive - store-dot.com\Documents\EC-Lab\Data\Gyutae\
	Host : 169.254.61.224
Device : VMP-3e (SN .003165)
Address : USB
EC-LAB for windows v11.62 (software)
Internet server v27.00 (firmware)
Command interpretor v12.03 (firmware)
Electrode material : 
Initial state : 
Electrolyte : 
Comments : 
Electrode surface area : 0.001 cm²
Characteristic mass : 0.001 g
Equivalent Weight : 0.000 g/eq.
Density : 0.000 g/cm3
Volume (V) : 0.001 cm³
Cycle Definition : Charge/Discharge alternance
Mode                Single sine         
E (V)               0.0000              
vs.                 Eoc                 
tE (h:m:s)          0:00:0.0000         
record              0                   
dI                  0.000               
unit dI             mA                  
dt (s)              0.000               
fi                  100.000             
unit fi             kHz                 
ff                  10.000              
unit ff             mHz                 
Nd                  6                   
Points              per decade          
spacing             Logarithmic         
Va (mV)             5.0                 
pw                  0.10                
Na                  2                   
corr                0                   
E range min (V)     -10.000             
E range max (V)     10.000              
I Range             Auto                
Bandwidth           5                   
nc cycles           0                   
goto Ns'            0                   
nr cycles           0                   
inc. cycle          0                   

freq/Hz	Re(Z)/Ohm	-Im(Z)/Ohm	|Z|/Ohm	Phase(Z)/deg	time/s	<Ewe>/V	<I>/mA	Cs/µF	Cp/µF	cycle number	I Range	|Ewe|/V	|I|/A	Ns	(Q-Qo)/mA.h	Re(Y)/Ohm-1	Im(Y)/Ohm-1	|Y|/Ohm-1	Phase(Y)/deg	Re(C)/nF	Im(C)/nF	|C|/nF	Phase(C)/deg	Re(M)	Im(M)	|M|	Phase(M)/deg	Re(Permittivity)	Im(Permittivity)	|Permittivity|	Phase(Permittivity)/deg	Re(Resistivity)/Ohm.cm	Im(Resistivity)/Ohm.cm	|Resistivity|/Ohm.cm	Phase(Resistivity)/deg	Re(Conductivity)/mS/cm	Im(Conductivity)/mS/cm	|Conductivity|/mS/cm	Phase(Conductivity)/deg	Tan(Delta)	Loss Angle(Delta)/deg	dq/mA.h	Pwe/W	Rwe/Ohm	
1.0000371E+005	1.5466158E+000	3.1477565E-001	1.5783232E+000	-1.1504023E+001	2.227498745749472E+000	2.8421044E-001	-4.3331414E-002	5.0559511E+000	2.0110053E-001	1.000000000000000E+000	9	4.9466309E-003	3.1341051E-003	0	-1.230938401829917E-005	6.2085551E-001	1.2635988E-001	6.3358378E-001	1.1504023E+001	2.0110049E+002	9.8808557E+002	1.0083425E+003	-7.8495979E+001	0.0000000E+000	0.0000000E+000	0.0000000E+000	7.8495979E+001	0.0000000E+000	0.0000000E+000	0.0000000E+000	-7.8495979E+001	0.0000000E+000	0.0000000E+000	0.0000000E+000	-1.1504023E+001	0.0000000E+000	0.0000000E+000	0.0000000E+000	1.1504023E+001	4.9133911E+000	7.8495979E+001	-1.230938401829917E-005	-1.2315240E-005	6.5589932E+003
6.8132047E+004	1.6272873E+000	3.5366115E-001	1.6652747E+000	-1.2261515E+001	2.805486106575700E+000	2.8420493E-001	-4.6683002E-002	6.6051297E+000	2.9790944E-001	1.000000000000000E+000	9	5.0669741E-003	3.0427256E-003	0	-2.029680923025202E-005	5.8680314E-001	1.2753095E-001	6.0050154E-001	1.2261515E+001	2.9790939E+002	1.3707590E+003	1.4027582E+003	-7.7738487E+001	0.0000000E+000	0.0000000E+000	0.0000000E+000	7.7738487E+001	0.0000000E+000	0.0000000E+000	0.0000000E+000	-7.7738487E+001	0.0000000E+000	0.0000000E+000	0.0000000E+000	-1.2261515E+001	0.0000000E+000	0.0000000E+000	0.0000000E+000	1.2261515E+001	4.6012611E+000	7.7738487E+001	-7.987425211952845E-006	-1.3267540E-005	6.0879746E+003
4.6420355E+004	1.7140685E+000	3.9864177E-001	1.7598143E+000	-1.3092565E+001	3.383482854027534E+000	2.8419900E-001	-4.4038974E-002	8.6006031E+000	4.4132733E-001	1.000000000000000E+000	9	5.0323103E-003	2.8595689E-003	0	-3.308143122456709E-005	5.5347055E-001	1.2872092E-001	5.6824178E-001	1.3092565E+001	4.4132739E+002	1.8976066E+003	1.9482506E+003	-7.6907433E+001	0.0000000E+000	0.0000000E+000	0.0000000E+000	7.6907433E+001	0.0000000E+000	0.0000000E+000	0.0000000E+000	-7.6907433E+001	0.0000000E+000	0.0000000E+000	0.0000000E+000	-1.3092565E+001	0.0000000E+000	0.0000000E+000	0.0000000E+000	1.3092565E+001	4.2997718E+000	7.6907433E+001	-1.278462199431508E-005	-1.2515832E-005	6.4533521E+003
3.1621139E+004	1.8006748E+000	4.5092750E-001	1.8562772E+000	-1.4058966E+001	3.820497888111277E+000	2.8420600E-001	-4.8489135E-002	1.1161843E+001	6.5866363E-001	1.000000000000000E+000	9	5.3973142E-003	2.9076014E-003	0	-3.806814628898994E-005	5.2257615E-001	1.3086425E-001	5.3871262E-001	1.4058966E+001	6.5866364E+002	2.6302207E+003	2.7114385E+003	-7.5941032E+001	0.0000000E+000	0.0000000E+000	0.0000000E+000	7.5941032E+001	0.0000000E+000	0.0000000E+000	0.0000000E+000	-7.5941032E+001	0.0000000E+000	0.0000000E+000	0.0000000E+000	-1.4058966E+001	0.0000000E+000	0.0000000E+000	0.0000000E+000	1.4058966E+001	3.9932690E+000	7.5941032E+001	-4.986715064422844E-006	-1.3780903E-005	5.8612305E+003
2.1544684E+004	1.9067106E+000	5.1262701E-001	1.9744194E+000	-1.5048365E+001	4.257496922189603E+000	2.8420985E-001	-4.1134268E-002	1.4410483E+001	9.7141033E-001	1.000000000000000E+000	9	5.2925576E-003	2.6805641E-003	0	-4.144817017252919E-005	4.8910937E-001	1.3149907E-001	5.0647801E-001	1.5048365E+001	9.7141010E+002	3.6131499E+003	3.7414556E+003	-7.4951637E+001	0.0000000E+000	0.0000000E+000	0.0000000E+000	7.4951637E+001	0.0000000E+000	0.0000000E+000	0.0000000E+000	-7.4951637E+001	0.0000000E+000	0.0000000E+000	0.0000000E+000	-1.5048365E+001	0.0000000E+000	0.0000000E+000	0.0000000E+000	1.5048365E+001	3.7194893E+000	7.4951637E+001	-3.380023883539255E-006	-1.1690764E-005	6.9093208E+003
1.4678594E+004	2.0277319E+000	5.7819349E-001	2.1085551E+000	-1.5915128E+001	4.694493449613219E+000	2.8420550E-001	-4.4448614E-002	1.8752644E+001	1.4100645E+000	1.000000000000000E+000	9	5.1151994E-003	2.4259263E-003	0	-4.345718638102213E-005	4.5607960E-001	1.3004789E-001	4.7425842E-001	1.5915128E+001	1.4100648E+003	4.9451143E+003	5.1422212E+003	-7.4084869E+001	0.0000000E+000	0.0000000E+000	0.0000000E+000	7.4084869E+001	0.0000000E+000	0.0000000E+000	0.0000000E+000	-7.4084869E+001	0.0000000E+000	0.0000000E+000	0.0000000E+000	-1.5915128E+001	0.0000000E+000	0.0000000E+000	0.0000000E+000	1.5915128E+001	3.5070126E+000	7.4084869E+001	-2.009016208492943E-006	-1.2632540E-005	6.3940239E+003
1.0002226E+004	2.1572545E+000	6.6320509E-001	2.2568979E+000	-1.7089006E+001	4.991477330360794E+000	2.8421041E-001	-4.5454089E-002	2.3992508E+001	2.0717986E+000	1.000000000000000E+000	9	5.4862010E-003	2.4308593E-003	0	-4.592234397966725E-005	4.2352355E-001	1.3020390E-001	4.4308606E-001	1.7089006E+001	2.0717981E+003	6.7390864E+003	7.0503643E+003	-7.2910995E+001	0.0000000E+000	0.0000000E+000	0.0000000E+000	7.2910995E+001	0.0000000E+000	0.0000000E+000	0.0000000E+000	-7.2910995E+001	0.0000000E+000	0.0000000E+000	0.0000000E+000	-1.7089006E+001	0.0000000E+000	0.0000000E+000	0.0000000E+000	1.7089006E+001	3.2527714E+000	7.2910995E+001	-2.465157598645117E-006	-1.2918525E-005	6.2526919E+003
6.8110674E+003	2.3124132E+000	7.6351291E-001	2.4352016E+000	-1.8272198E+001	5.546494770067511E+000	2.8414518E-001	-6.9417931E-002	3.0604729E+001	3.0085101E+000	1.000000000000000E+000	9	5.0125564E-003	2.0583742E-003	0	-5.859272453880921E-005	3.8993803E-001	1.2874980E-001	4.1064361E-001	1.8272198E+001	3.0085110E+003	9.1117236E+003	9.5955537E+003	-7.1727798E+001	0.0000000E+000	0.0000000E+000	0.0000000E+000	7.1727798E+001	0.0000000E+000	0.0000000E+000	0.0000000E+000	-7.1727798E+001	0.0000000E+000	0.0000000E+000	0.0000000E+000	-1.8272198E+001	0.0000000E+000	0.0000000E+000	0.0000000E+000	1.8272198E+001	3.0286498E+000	7.1727798E+001	-1.267038055914196E-005	-1.9724770E-005	4.0932534E+003
4.6414854E+003	2.4889724E+000	8.8031083E-001	2.6400626E+000	-1.9477896E+001	6.017681245844869E+000	2.8423858E-001	-1.1342450E-002	3.8951759E+001	4.3308263E+000	1.000000000000000E+000	9	4.9751732E-003	1.8844906E-003	0	-5.842340827349108E-005	3.5710147E-001	1.2630124E-001	3.7877890E-001	1.9477896E+001	4.3308267E+003	1.2244887E+004	1.2988199E+004	-7.0522102E+001	0.0000000E+000	0.0000000E+000	0.0000000E+000	7.0522102E+001	0.0000000E+000	0.0000000E+000	0.0000000E+000	-7.0522102E+001	0.0000000E+000	0.0000000E+000	0.0000000E+000	-1.9477896E+001	0.0000000E+000	0.0000000E+000	0.0000000E+000	1.9477896E+001	2.8273790E+000	7.0522102E+001	1.693162653181314E-007	-3.2239618E-006	2.5059717E+004
3.1610117E+003	2.6889403E+000	1.0063621E+000	2.8710911E+000	-2.0518852E+001	6.485685134743107E+000	2.8423959E-001	-1.4563691E-002	5.0031067E+001	6.1468744E+000	1.000000000000000E+000	9	4.9182260E-003	1.7130164E-003	0	-6.137313322843288E-005	3.2620245E-001	1.2208445E-001	3.4829965E-001	2.0518852E+001	6.1468750E+003	1.6424088E+004	1.7536668E+004	-6.9481148E+001	0.0000000E+000	0.0000000E+000	0.0000000E+000	6.9481148E+001	0.0000000E+000	0.0000000E+000	0.0000000E+000	-6.9481148E+001	0.0000000E+000	0.0000000E+000	0.0000000E+000	-2.0518852E+001	0.0000000E+000	0.0000000E+000	0.0000000E+000	2.0518852E+001	2.6719413E+000	6.9481148E+001	-2.949724954941803E-006	-4.1395774E-006	1.9517002E+004
2.1556899E+003	2.9238186E+000	1.1640506E+000	3.1470191E+000	-2.1708828E+001	6.952692223589111E+000	2.8423783E-001	-1.0411450E-002	6.3425220E+001	8.6777458E+000	1.000000000000000E+000	9	4.8667798E-003	1.5464729E-003	0	-6.216464088376637E-005	2.9522398E-001	1.1753659E-001	3.1776100E-001	2.1708828E+001	8.6777471E+003	2.1796436E+004	2.3460348E+004	-6.8291168E+001	0.0000000E+000	0.0000000E+000	0.0000000E+000	6.8291168E+001	0.0000000E+000	0.0000000E+000	0.0000000E+000	-6.8291168E+001	0.0000000E+000	0.0000000E+000	0.0000000E+000	-2.1708828E+001	0.0000000E+000	0.0000000E+000	0.0000000E+000	2.1708828E+001	2.5117624E+000	6.8291168E+001	-7.915076553334873E-007	-2.9593280E-006	2.7300504E+004
1.4685898E+003	3.1749926E+000	1.3287759E+000	3.4418342E+000	-2.2709948E+001	7.673965724505251E+000	2.8423154E-001	-1.5247635E-002	8.1558250E+001	1.2156022E+001	1.000000000000000E+000	10	4.9365261E-003	1.4342719E-003	0	-6.494911589862023E-005	2.6801729E-001	1.1216874E-001	2.9054275E-001	2.2709948E+001	1.2156020E+004	2.9045736E+004	3.1486881E+004	-6.7290054E+001	0.0000000E+000	0.0000000E+000	0.0000000E+000	6.7290054E+001	0.0000000E+000	0.0000000E+000	0.0000000E+000	-6.7290054E+001	0.0000000E+000	0.0000000E+000	0.0000000E+000	-2.2709948E+001	0.0000000E+000	0.0000000E+000	0.0000000E+000	2.2709948E+001	2.3894117E+000	6.7290054E+001	-2.784475014853860E-006	-4.3338587E-006	1.8641025E+004
1.0003202E+003	3.4739382E+000	1.5365827E+000	3.7985961E+000	-2.3860632E+001	8.142709373445541E+000	2.8422815E-001	-1.5525024E-002	1.0354404E+002	1.6943018E+001	1.000000000000000E+000	10	4.8787254E-003	1.2843496E-003	0	-6.595141340298061E-005	2.4075529E-001	1.0649021E-001	2.6325515E-001	2.3860632E+001	1.6943021E+004	3.8305129E+004	4.1884949E+004	-6.6139366E+001	0.0000000E+000	0.0000000E+000	0.0000000E+000	6.6139366E+001	0.0000000E+000	0.0000000E+000	0.0000000E+000	-6.6139366E+001	0.0000000E+000	0.0000000E+000	0.0000000E+000	-2.3860632E+001	0.0000000E+000	0.0000000E+000	0.0000000E+000	2.3860632E+001	2.2608209E+000	6.6139366E+001	-1.002297504360382E-006	-4.4126491E-006	1.8307742E+004
6.8108978E+002	3.8090539E+000	1.7786109E+000	4.2038493E+000	-2.5029892E+001	8.608439208852360E+000	2.8422350E-001	-1.5873156E-002	1.3138168E+002	2.3518112E+001	1.000000000000000E+000	10	4.8332992E-003	1.1497318E-003	0	-6.765959050436505E-005	2.1553750E-001	1.0064372E-001	2.3787722E-001	2.5029892E+001	2.3518113E+004	5.0366137E+004	5.5586414E+004	-6.4970108E+001	0.0000000E+000	0.0000000E+000	0.0000000E+000	6.4970108E+001	0.0000000E+000	0.0000000E+000	0.0000000E+000	-6.4970108E+001	0.0000000E+000	0.0000000E+000	0.0000000E+000	-2.5029892E+001	0.0000000E+000	0.0000000E+000	0.0000000E+000	2.5029892E+001	2.1415892E+000	6.4970108E+001	-1.708177101384438E-006	-4.5115239E-006	1.7905922E+004
4.6396069E+002	4.2078872E+000	2.0805793E+000	4.6941586E+000	-2.6309977E+001	9.077213524462422E+000	2.8422374E-001	-1.5739119E-002	1.6487494E+002	3.2389755E+001	1.000000000000000E+000	10	4.8147682E-003	1.0256936E-003	0	-6.951246887916285E-005	1.9096272E-001	9.4421029E-002	2.1303073E-001	2.6309977E+001	3.2389756E+004	6.5506977E+004	7.3077086E+004	-6.3690025E+001	0.0000000E+000	0.0000000E+000	0.0000000E+000	6.3690025E+001	0.0000000E+000	0.0000000E+000	0.0000000E+000	-6.3690025E+001	0.0000000E+000	0.0000000E+000	0.0000000E+000	-2.6309977E+001	0.0000000E+000	0.0000000E+000	0.0000000E+000	2.6309977E+001	2.0224595E+000	6.3690025E+001	-1.852878374797805E-006	-4.4734311E-006	1.8058428E+004
3.1631589E+002	4.6609821E+000	2.4542584E+000	5.2676501E+000	-2.7769224E+001	9.543929039995419E+000	2.8422737E-001	-1.5901092E-002	2.0501178E+002	4.4502621E+001	1.000000000000000E+000	10	4.7917566E-003	9.0965733E-004	0	-7.085446211319261E-005	1.6797458E-001	8.8447675E-002	1.8983796E-001	2.7769224E+001	4.4502621E+004	8.4516734E+004	9.5517336E+004	-6.2230774E+001	0.0000000E+000	0.0000000E+000	0.0000000E+000	6.2230774E+001	0.0000000E+000	0.0000000E+000	0.0000000E+000	-6.2230774E+001	0.0000000E+000	0.0000000E+000	0.0000000E+000	-2.7769224E+001	0.0000000E+000	0.0000000E+000	0.0000000E+000	2.7769224E+001	1.8991407E+000	6.2230774E+001	-1.341993234029758E-006	-4.5195256E-006	1.7874707E+004
2.1534457E+002	5.2295752E+000	2.9177947E+000	5.9884877E+000	-2.9158941E+001	1.001145351547166E+001	2.8422275E-001	-1.5642326E-002	2.5329784E+002	6.0132133E+001	1.000000000000000E+000	10	4.7794413E-003	7.9810485E-004	0	-7.218623072423119E-005	1.4582503E-001	8.1361771E-002	1.6698706E-001	2.9158941E+001	6.0132137E+004	1.0777506E+005	1.2341530E+005	-6.0841057E+001	0.0000000E+000	0.0000000E+000	0.0000000E+000	6.0841057E+001	0.0000000E+000	0.0000000E+000	0.0000000E+000	-6.0841057E+001	0.0000000E+000	0.0000000E+000	0.0000000E+000	-2.9158941E+001	0.0000000E+000	0.0000000E+000	0.0000000E+000	2.9158941E+001	1.7923040E+000	6.0841057E+001	-1.331768611038576E-006	-4.4459052E-006	1.8170107E+004
1.4673740E+002	5.9539399E+000	3.4481306E+000	6.8803349E+000	-3.0076601E+001	1.047437793746940E+001	2.8422907E-001	-1.5640471E-002	3.1455429E+002	7.9003052E+001	1.000000000000000E+000	10	4.7725942E-003	6.9365726E-004	0	-7.438921895208962E-005	1.2577240E-001	7.2839096E-002	1.4534177E-001	3.0076601E+001	7.9003047E+004	1.3641578E+005	1.5764120E+005	-5.9923401E+001	0.0000000E+000	0.0000000E+000	0.0000000E+000	5.9923401E+001	0.0000000E+000	0.0000000E+000	0.0000000E+000	-5.9923401E+001	0.0000000E+000	0.0000000E+000	0.0000000E+000	-3.0076601E+001	0.0000000E+000	0.0000000E+000	0.0000000E+000	3.0076601E+001	1.7267153E+000	5.9923401E+001	-2.202988227858435E-006	-4.4454764E-006	1.8172666E+004
1.0003201E+002	6.8578715E+000	4.0258660E+000	7.9522324E+000	-3.0414770E+001	1.094270955977117E+001	2.8422403E-001	-1.5074514E-002	3.9520444E+002	1.0128901E+002	1.000000000000000E+000	10	4.7633476E-003	5.9899502E-004	0	-7.685915066255256E-005	1.0844542E-001	6.3662134E-002	1.2575085E-001	3.0414770E+001	1.0128902E+005	1.7254102E+005	2.0007466E+005	-5.9585228E+001	0.0000000E+000	0.0000000E+000	0.0000000E+000	5.9585228E+001	0.0000000E+000	0.0000000E+000	0.0000000E+000	-5.9585228E+001	0.0000000E+000	0.0000000E+000	0.0000000E+000	-3.0414770E+001	0.0000000E+000	0.0000000E+000	0.0000000E+000	3.0414770E+001	1.7034525E+000	5.9585228E+001	-2.469931710462938E-006	-4.2845390E-006	1.8854607E+004
6.8103981E+001	7.9899387E+000	4.6066518E+000	9.2228174E+000	-2.9965881E+001	1.142130584912957E+001	2.8422856E-001	-1.4475047E-002	5.0729697E+002	1.2656271E+002	1.000000000000000E+000	10	4.7585848E-003	5.1595783E-004	0	-7.906905213500916E-005	9.3932576E-002	5.4157443E-002	1.0842673E-001	2.9965881E+001	1.2656272E+005	2.1951483E+005	2.5338683E+005	-6.0034119E+001	0.0000000E+000	0.0000000E+000	0.0000000E+000	6.0034119E+001	0.0000000E+000	0.0000000E+000	0.0000000E+000	-6.0034119E+001	0.0000000E+000	0.0000000E+000	0.0000000E+000	-2.9965881E+001	0.0000000E+000	0.0000000E+000	0.0000000E+000	2.9965881E+001	1.7344352E+000	6.0034119E+001	-2.209901472456597E-006	-4.1142216E-006	1.9635762E+004
4.6441547E+001	9.3743296E+000	5.0581136E+000	1.0651881E+001	-2.8350000E+001	1.187652869740850E+001	2.8422630E-001	-1.6079837E-002	6.7752435E+002	1.5277399E+002	1.000000000000000E+000	10	4.7619576E-003	4.4705320E-004	0	-8.121950713143775E-005	8.2620457E-002	4.4579580E-002	9.3880132E-002	2.8350000E+001	1.5277398E+005	2.8313988E+005	3.2172672E+005	-6.1650002E+001	0.0000000E+000	0.0000000E+000	0.0000000E+000	6.1650002E+001	0.0000000E+000	0.0000000E+000	0.0000000E+000	-6.1650002E+001	0.0000000E+000	0.0000000E+000	0.0000000E+000	-2.8350000E+001	0.0000000E+000	0.0000000E+000	0.0000000E+000	2.8350000E+001	1.8533252E+000	6.1650002E+001	-2.150454996428593E-006	-4.5703127E-006	1.7675943E+004
3.1629555E+001	1.0899981E+001	5.2908688E+000	1.2116224E+001	-2.5892012E+001	1.232244797193562E+001	2.8421921E-001	-1.7386757E-002	9.5104279E+002	1.8135078E+002	1.000000000000000E+000	10	4.7530350E-003	3.9228681E-004	0	-8.299239351415195E-005	7.4249096E-002	3.6040630E-002	8.2533963E-002	2.5892012E+001	1.8135081E+005	3.7360978E+005	4.1529794E+005	-6.4107986E+001	0.0000000E+000	0.0000000E+000	0.0000000E+000	6.4107986E+001	0.0000000E+000	0.0000000E+000	0.0000000E+000	-6.4107986E+001	0.0000000E+000	0.0000000E+000	0.0000000E+000	-2.5892012E+001	0.0000000E+000	0.0000000E+000	0.0000000E+000	2.5892012E+001	2.0601497E+000	6.4107986E+001	-1.772886382714198E-006	-4.9416503E-006	1.6346879E+004
2.1551722E+001	1.2511864E+001	5.2565446E+000	1.3571219E+001	-2.2788485E+001	1.276133103275788E+001	2.8422689E-001	-1.9486761E-002	1.4048754E+003	2.1076610E+002	1.000000000000000E+000	10	4.7608423E-003	3.5080430E-004	0	-8.551210030540662E-005	6.7933545E-002	2.8540568E-002	7.3685348E-002	2.2788485E+001	2.1076608E+005	5.0167497E+005	5.4415081E+005	-6.7211517E+001	0.0000000E+000	0.0000000E+000	0.0000000E+000	6.7211517E+001	0.0000000E+000	0.0000000E+000	0.0000000E+000	-6.7211517E+001	0.0000000E+000	0.0000000E+000	0.0000000E+000	-2.2788485E+001	0.0000000E+000	0.0000000E+000	0.0000000E+000	2.2788485E+001	2.3802450E+000	6.7211517E+001	-2.519706791254668E-006	-5.5386613E-006	1.4585641E+004
1.4685154E+001	1.4036097E+001	5.0089855E+000	1.4903085E+001	-1.9639681E+001	1.349802074779291E+001	2.8424183E-001	-9.3796970E-003	2.1636741E+003	2.4442130E+002	1.000000000000000E+000	11	4.7566844E-003	3.1917449E-004	0	-8.972552966104235E-005	6.3196644E-002	2.2552641E-002	6.7100205E-002	1.9639681E+001	2.4442127E+005	6.8491331E+005	7.2721938E+005	-7.0360321E+001	0.0000000E+000	0.0000000E+000	0.0000000E+000	7.0360321E+001	0.0000000E+000	0.0000000E+000	0.0000000E+000	-7.0360321E+001	0.0000000E+000	0.0000000E+000	0.0000000E+000	-1.9639681E+001	0.0000000E+000	0.0000000E+000	0.0000000E+000	1.9639681E+001	2.8021834E+000	7.0360321E+001	-4.213429355635730E-006	-2.6661023E-006	3.0303945E+004
