EC-Lab ASCII FILE

Nb header lines : 63                          

Potentio Electrochemical Impedance Spectroscopy

Run on channel : 4 (SN 66756)
User : 
CE vs. WE compliance from -10 V to 10 V
Electrode connection : standard
Potential control : Ewe
Ewe ctrl range : min = -10.00 V, max = 10.00 V
Safety Limits :
	Do not start on E overload
Acquisition started on : 09/22/2025 08:11:34.083
Loaded Setting File :  C:\Users\Celltest\OneDrive - store-dot.com\Documents\EC-Lab\Data\Gyutae\17739_R277_UA674_SOC00_C03.mpr
Saved on :
	File : 17740_R277_UA674_SOC00_C04.mpr
	Directory : C:\Users\Celltest\OneDrive - store-dot.com\Documents\EC-Lab\Data\Gyutae\
	Host : 169.254.61.224
Device : VMP-3e (SN .003165)
Address : USB
EC-LAB for windows v11.62 (software)
Internet server v27.00 (firmware)
Command interpretor v12.03 (firmware)
Electrode material : 
Initial state : 
Electrolyte : 
Comments : 
Electrode surface area : 0.001 cm²
Characteristic mass : 0.001 g
Equivalent Weight : 0.000 g/eq.
Density : 0.000 g/cm3
Volume (V) : 0.001 cm³
Cycle Definition : Charge/Discharge alternance
Mode                Single sine         
E (V)               0.0000              
vs.                 Eoc                 
tE (h:m:s)          0:00:0.0000         
record              0                   
dI                  0.000               
unit dI             mA                  
dt (s)              0.000               
fi                  100.000             
unit fi             kHz                 
ff                  10.000              
unit ff             mHz                 
Nd                  6                   
Points              per decade          
spacing             Logarithmic         
Va (mV)             5.0                 
pw                  0.10                
Na                  2                   
corr                0                   
E range min (V)     -10.000             
E range max (V)     10.000              
I Range             Auto                
Bandwidth           5                   
nc cycles           0                   
goto Ns'            0                   
nr cycles           0                   
inc. cycle          0                   

freq/Hz	Re(Z)/Ohm	-Im(Z)/Ohm	|Z|/Ohm	Phase(Z)/deg	time/s	<Ewe>/V	<I>/mA	Cs/µF	Cp/µF	cycle number	I Range	|Ewe|/V	|I|/A	Ns	(Q-Qo)/mA.h	Re(Y)/Ohm-1	Im(Y)/Ohm-1	|Y|/Ohm-1	Phase(Y)/deg	Re(C)/nF	Im(C)/nF	|C|/nF	Phase(C)/deg	Re(M)	Im(M)	|M|	Phase(M)/deg	Re(Permittivity)	Im(Permittivity)	|Permittivity|	Phase(Permittivity)/deg	Re(Resistivity)/Ohm.cm	Im(Resistivity)/Ohm.cm	|Resistivity|/Ohm.cm	Phase(Resistivity)/deg	Re(Conductivity)/mS/cm	Im(Conductivity)/mS/cm	|Conductivity|/mS/cm	Phase(Conductivity)/deg	Tan(Delta)	Loss Angle(Delta)/deg	dq/mA.h	Pwe/W	Rwe/Ohm	
1.0000371E+005	1.4110861E+000	2.2574423E-001	1.4290292E+000	-9.0891066E+000	2.077474338671891E+000	2.7771595E-001	-5.3933943E-003	7.0499711E+000	1.7592941E-001	1.000000000000000E+000	9	4.6962579E-003	3.2863275E-003	0	-3.916991682800775E-006	6.9098926E-001	1.1054381E-001	6.9977576E-001	9.0891066E+000	1.7592935E+002	1.0997028E+003	1.1136864E+003	-8.0910896E+001	0.0000000E+000	0.0000000E+000	0.0000000E+000	8.0910896E+001	0.0000000E+000	0.0000000E+000	0.0000000E+000	-8.0910896E+001	0.0000000E+000	0.0000000E+000	0.0000000E+000	-9.0891066E+000	0.0000000E+000	0.0000000E+000	0.0000000E+000	9.0891066E+000	6.2508178E+000	8.0910896E+001	-3.916991682800775E-006	-1.4978316E-006	5.1491867E+004
6.8132047E+004	1.4442067E+000	-4.4301015E-001	1.5106261E+000	1.7053387E+001	2.515482866117964E+000	2.7769879E-001	-3.4726614E-003	-5.2729664E+000	-4.5349073E-001	1.000000000000000E+000	9	7.5870357E-004	5.0224445E-004	0	-1.725160905386373E-006	6.3287133E-001	-1.9413318E-001	6.6197717E-001	-1.7053387E+001	-4.5349084E+002	1.4783732E+003	1.5463639E+003	-1.0705339E+002	0.0000000E+000	0.0000000E+000	0.0000000E+000	1.0705339E+002	0.0000000E+000	0.0000000E+000	0.0000000E+000	-1.0705339E+002	0.0000000E+000	0.0000000E+000	0.0000000E+000	1.7053387E+001	0.0000000E+000	0.0000000E+000	0.0000000E+000	-1.7053387E+001	3.2599857E+000	7.2946609E+001	2.191830777414402E-006	-9.6435383E-007	7.9967133E+004
4.6420355E+004	1.5704161E+000	-1.7144661E-001	1.5797470E+000	6.2304621E+000	2.952478326886194E+000	2.7769747E-001	-3.7337397E-003	-1.9997826E+001	-2.3554046E-001	1.000000000000000E+000	9	1.1539489E-003	7.3046441E-004	0	-2.561148937998547E-006	6.2927383E-001	-6.8699546E-002	6.3301277E-001	-6.2304621E+000	-2.3554042E+002	2.1575027E+003	2.1703218E+003	-9.6230461E+001	0.0000000E+000	0.0000000E+000	0.0000000E+000	9.6230461E+001	0.0000000E+000	0.0000000E+000	0.0000000E+000	-9.6230461E+001	0.0000000E+000	0.0000000E+000	0.0000000E+000	6.2304621E+000	0.0000000E+000	0.0000000E+000	0.0000000E+000	-6.2304621E+000	9.1597967E+000	8.3769539E+001	-8.359880326121737E-007	-1.0368501E-006	7.4375156E+004
3.1621139E+004	-1.0550106E-001	-9.2388816E-002	1.4023611E-001	1.3879089E+002	3.143600149342092E+000	2.7779469E-001	5.1803072E-003	-5.4478264E+001	-2.3645164E+001	1.000000000000000E+000	9	3.4512072E-005	2.4609975E-004	0	-2.659386337327305E-006	-5.3645973E+000	-4.6978559E+000	7.1308312E+000	-1.3879089E+002	-2.3645164E+004	-2.7000992E+004	3.5890770E+004	1.3120911E+002	0.0000000E+000	0.0000000E+000	0.0000000E+000	-1.3120911E+002	0.0000000E+000	0.0000000E+000	0.0000000E+000	1.3120911E+002	0.0000000E+000	0.0000000E+000	0.0000000E+000	1.3879089E+002	0.0000000E+000	0.0000000E+000	0.0000000E+000	-1.3879089E+002	1.1419245E+000	4.8790894E+001	-9.823739932875847E-008	1.4390619E-006	5.3625137E+004
2.1544684E+004	1.7006129E+000	4.9121585E-001	1.7701348E+000	-1.6111170E+001	4.252491908642696E+000	2.7767736E-001	-3.7375838E-002	1.5038609E+001	1.1580831E+000	1.000000000000000E+000	9	5.0751106E-003	2.8670758E-003	0	1.865634324669372E-004	5.4274118E-001	1.5676881E-001	5.6492871E-001	1.6111170E+001	1.1580830E+003	4.0093394E+003	4.1732432E+003	-7.3888832E+001	0.0000000E+000	0.0000000E+000	0.0000000E+000	7.3888832E+001	0.0000000E+000	0.0000000E+000	0.0000000E+000	-7.3888832E+001	0.0000000E+000	0.0000000E+000	0.0000000E+000	-1.6111170E+001	0.0000000E+000	0.0000000E+000	0.0000000E+000	1.6111170E+001	3.4620481E+000	7.3888832E+001	1.892228188042645E-004	-1.0378424E-005	7.4293281E+003
1.4678594E+004	1.8101652E+000	5.4639167E-001	1.8908310E+000	-1.6796246E+001	4.549479202745715E+000	2.7769163E-001	-3.4690443E-002	1.9844109E+001	1.6570450E+000	1.000000000000000E+000	9	4.9865358E-003	2.6372191E-003	0	1.854125926087856E-004	5.0630569E-001	1.5282650E-001	5.2886802E-001	1.6796246E+001	1.6570455E+003	5.4896982E+003	5.7343340E+003	-7.3203751E+001	0.0000000E+000	0.0000000E+000	0.0000000E+000	7.3203751E+001	0.0000000E+000	0.0000000E+000	0.0000000E+000	-7.3203751E+001	0.0000000E+000	0.0000000E+000	0.0000000E+000	-1.6796246E+001	0.0000000E+000	0.0000000E+000	0.0000000E+000	1.6796246E+001	3.3129444E+000	7.3203751E+001	-1.150839858151613E-006	-9.6332460E-006	8.0048452E+003
1.0002226E+004	1.9349995E+000	6.1907375E-001	2.0316188E+000	-1.7741285E+001	4.845500336814439E+000	2.7766880E-001	-3.8643960E-002	2.5702841E+001	2.3866098E+000	1.000000000000000E+000	9	4.7114003E-003	2.3190374E-003	0	1.841139545303174E-004	4.6880949E-001	1.4998849E-001	4.9221832E-001	1.7741285E+001	2.3866101E+003	7.4596743E+003	7.8321548E+003	-7.2258713E+001	0.0000000E+000	0.0000000E+000	0.0000000E+000	7.2258713E+001	0.0000000E+000	0.0000000E+000	0.0000000E+000	-7.2258713E+001	0.0000000E+000	0.0000000E+000	0.0000000E+000	-1.7741285E+001	0.0000000E+000	0.0000000E+000	0.0000000E+000	1.7741285E+001	3.1256363E+000	7.2258713E+001	-1.298638078468182E-006	-1.0730222E-005	7.1853091E+003
6.8110674E+003	2.0871205E+000	7.0989788E-001	2.2045469E+000	-1.8784847E+001	5.224508808139944E+000	2.7761492E-001	-8.9013964E-002	3.2916153E+001	3.4132030E+000	1.000000000000000E+000	9	4.5162891E-003	2.0486247E-003	0	1.775223807244458E-004	4.2944628E-001	1.4606871E-001	4.5360795E-001	1.8784847E+001	3.4132041E+003	1.0034917E+004	1.0599506E+004	-7.1215149E+001	0.0000000E+000	0.0000000E+000	0.0000000E+000	7.1215149E+001	0.0000000E+000	0.0000000E+000	0.0000000E+000	-7.1215149E+001	0.0000000E+000	0.0000000E+000	0.0000000E+000	-1.8784847E+001	0.0000000E+000	0.0000000E+000	0.0000000E+000	1.8784847E+001	2.9400294E+000	7.1215149E+001	-6.591573805871624E-006	-2.4711604E-005	3.1187795E+003
4.6414854E+003	2.2398310E+000	8.1253833E-001	2.3826585E+000	-1.9939137E+001	5.918703854476917E+000	2.7768192E-001	-6.1393729E-003	4.2200665E+001	4.9077611E+000	1.000000000000000E+000	9	4.9360981E-003	2.0716768E-003	0	1.750295318306631E-004	3.9454055E-001	1.4312658E-001	4.1969925E-001	1.9939137E+001	4.9077607E+003	1.3528662E+004	1.4391345E+004	-7.0060867E+001	0.0000000E+000	0.0000000E+000	0.0000000E+000	7.0060867E+001	0.0000000E+000	0.0000000E+000	0.0000000E+000	-7.0060867E+001	0.0000000E+000	0.0000000E+000	0.0000000E+000	-1.9939137E+001	0.0000000E+000	0.0000000E+000	0.0000000E+000	1.9939137E+001	2.7565851E+000	7.0060867E+001	-2.492848893782731E-006	-1.7047928E-006	4.5229688E+004
3.1610117E+003	2.4203100E+000	9.3733108E-001	2.5954750E+000	-2.1170254E+001	6.385692569994717E+000	2.7768362E-001	-7.5007319E-003	5.3715668E+001	7.0057292E+000	1.000000000000000E+000	9	4.8562624E-003	1.8710496E-003	0	1.735385621394170E-004	3.5928354E-001	1.3914235E-001	3.8528594E-001	2.1170254E+001	7.0057310E+003	1.8089699E+004	1.9398904E+004	-6.8829742E+001	0.0000000E+000	0.0000000E+000	0.0000000E+000	6.8829742E+001	0.0000000E+000	0.0000000E+000	0.0000000E+000	-6.8829742E+001	0.0000000E+000	0.0000000E+000	0.0000000E+000	-2.1170254E+001	0.0000000E+000	0.0000000E+000	0.0000000E+000	2.1170254E+001	2.5821292E+000	6.8829742E+001	-1.490969691246097E-006	-2.0828304E-006	3.7020871E+004
2.1556899E+003	2.6344628E+000	1.0683596E+000	2.8428483E+000	-2.2074142E+001	6.851679898791190E+000	2.7767017E-001	-9.3096551E-003	6.9106094E+001	9.7598677E+000	1.000000000000000E+000	9	4.8182416E-003	1.6948641E-003	0	1.709239454205526E-004	3.2597530E-001	1.3219351E-001	3.5175988E-001	2.2074142E+001	9.7598682E+003	2.4066811E+004	2.5970490E+004	-6.7925858E+001	0.0000000E+000	0.0000000E+000	0.0000000E+000	6.7925858E+001	0.0000000E+000	0.0000000E+000	0.0000000E+000	-6.7925858E+001	0.0000000E+000	0.0000000E+000	0.0000000E+000	-2.2074142E+001	0.0000000E+000	0.0000000E+000	0.0000000E+000	2.2074142E+001	2.4658952E+000	6.7925858E+001	-2.614616718864358E-006	-2.5850136E-006	2.9826043E+004
1.4685898E+003	2.8673859E+000	1.2256320E+000	3.1183450E+000	-2.3143742E+001	7.318925894302083E+000	2.7767396E-001	-6.6056075E-003	8.8421837E+001	1.3659392E+001	1.000000000000000E+000	9	4.7873333E-003	1.5352160E-003	0	1.695566147211422E-004	2.9487491E-001	1.2604097E-001	3.2068291E-001	2.3143742E+001	1.3659389E+004	3.1956369E+004	3.4753250E+004	-6.6856262E+001	0.0000000E+000	0.0000000E+000	0.0000000E+000	6.6856262E+001	0.0000000E+000	0.0000000E+000	0.0000000E+000	-6.6856262E+001	0.0000000E+000	0.0000000E+000	0.0000000E+000	-2.3143742E+001	0.0000000E+000	0.0000000E+000	0.0000000E+000	2.3143742E+001	2.3395162E+000	6.6856262E+001	-1.367330699410458E-006	-1.8342051E-006	4.2036098E+004
1.0003202E+003	3.1581285E+000	1.4305488E+000	3.4670227E+000	-2.4369270E+001	8.041696061984112E+000	2.7773067E-001	-1.6816001E-002	1.1121885E+002	1.8935223E+001	1.000000000000000E+000	10	4.8663714E-003	1.4036169E-003	0	1.668945287660220E-004	2.6273409E-001	1.1901160E-001	2.8843191E-001	2.4369270E+001	1.8935223E+004	4.1802047E+004	4.5890672E+004	-6.5630730E+001	0.0000000E+000	0.0000000E+000	0.0000000E+000	6.5630730E+001	0.0000000E+000	0.0000000E+000	0.0000000E+000	-6.5630730E+001	0.0000000E+000	0.0000000E+000	0.0000000E+000	-2.4369270E+001	0.0000000E+000	0.0000000E+000	0.0000000E+000	2.4369270E+001	2.2076342E+000	6.5630730E+001	-2.662085955120147E-006	-4.6703194E-006	1.6515857E+004
6.8108978E+002	3.4668095E+000	1.6741133E+000	3.8498602E+000	-2.5775776E+001	8.507450750708813E+000	2.7765211E-001	-1.6579134E-002	1.3958249E+002	2.6394335E+001	1.000000000000000E+000	10	4.8253685E-003	1.2533880E-003	0	1.656313361522108E-004	2.3390529E-001	1.1295225E-001	2.5974968E-001	2.5775776E+001	2.6394330E+004	5.4658266E+004	6.0697500E+004	-6.4224228E+001	0.0000000E+000	0.0000000E+000	0.0000000E+000	6.4224228E+001	0.0000000E+000	0.0000000E+000	0.0000000E+000	-6.4224228E+001	0.0000000E+000	0.0000000E+000	0.0000000E+000	-2.5775776E+001	0.0000000E+000	0.0000000E+000	0.0000000E+000	2.5775776E+001	2.0708332E+000	6.4224228E+001	-1.263192613811231E-006	-4.6032319E-006	1.6747082E+004
4.6396069E+002	3.8219628E+000	1.9854916E+000	4.3069220E+000	-2.7451664E+001	8.976221279677702E+000	2.7766562E-001	-1.6357187E-002	1.7277101E+002	3.6717491E+001	1.000000000000000E+000	10	4.7967811E-003	1.1137377E-003	0	1.630978120659970E-004	2.0604043E-001	1.0703703E-001	2.3218438E-001	2.7451664E+001	3.6717492E+004	7.0679164E+004	7.9647461E+004	-6.2548336E+001	0.0000000E+000	0.0000000E+000	0.0000000E+000	6.2548336E+001	0.0000000E+000	0.0000000E+000	0.0000000E+000	-6.2548336E+001	0.0000000E+000	0.0000000E+000	0.0000000E+000	-2.7451664E+001	0.0000000E+000	0.0000000E+000	0.0000000E+000	2.7451664E+001	1.9249454E+000	6.2548340E+001	-2.533524086213837E-006	-4.5418283E-006	1.6975145E+004
3.1631589E+002	4.2633381E+000	2.3619368E+000	4.8738894E+000	-2.8986940E+001	9.442924555187346E+000	2.7765691E-001	-1.6588461E-002	2.1302515E+002	5.0028336E+001	1.000000000000000E+000	10	4.7731590E-003	9.7933260E-004	0	1.604979104407798E-004	1.7947271E-001	9.9429876E-002	2.0517494E-001	2.8986940E+001	5.0028332E+004	9.0302039E+004	1.0323416E+005	-6.1013062E+001	0.0000000E+000	0.0000000E+000	0.0000000E+000	6.1013062E+001	0.0000000E+000	0.0000000E+000	0.0000000E+000	-6.1013062E+001	0.0000000E+000	0.0000000E+000	0.0000000E+000	-2.8986940E+001	0.0000000E+000	0.0000000E+000	0.0000000E+000	2.8986940E+001	1.8050178E+000	6.1013062E+001	-2.599901625217161E-006	-4.6059008E-006	1.6737955E+004
2.1534457E+002	4.8360562E+000	2.8102753E+000	5.5933075E+000	-3.0161251E+001	9.910437564045424E+000	2.7768511E-001	-1.7103231E-002	2.6298886E+002	6.6389236E+001	1.000000000000000E+000	10	4.7574216E-003	8.5055607E-004	0	1.585814654241355E-004	1.5458024E-001	8.9827940E-002	1.7878509E-001	3.0161251E+001	6.6389227E+004	1.1424577E+005	1.3213488E+005	-5.9838749E+001	0.0000000E+000	0.0000000E+000	0.0000000E+000	5.9838749E+001	0.0000000E+000	0.0000000E+000	0.0000000E+000	-5.9838749E+001	0.0000000E+000	0.0000000E+000	0.0000000E+000	-3.0161251E+001	0.0000000E+000	0.0000000E+000	0.0000000E+000	3.0161251E+001	1.7208478E+000	5.9838745E+001	-1.916445016644303E-006	-4.7493122E-006	1.6235828E+004
1.4673740E+002	5.5822668E+000	3.3316791E+000	6.5009069E+000	-3.0830132E+001	1.037336713270633E+001	2.7766219E-001	-1.7116301E-002	3.2554883E+002	8.5505608E+001	1.000000000000000E+000	10	4.7620437E-003	7.3251990E-004	0	1.567432672436440E-004	1.3208780E-001	7.8834310E-002	1.5382469E-001	3.0830132E+001	8.5505609E+004	1.4326564E+005	1.6684200E+005	-5.9169868E+001	0.0000000E+000	0.0000000E+000	0.0000000E+000	5.9169868E+001	0.0000000E+000	0.0000000E+000	0.0000000E+000	-5.9169868E+001	0.0000000E+000	0.0000000E+000	0.0000000E+000	-3.0830132E+001	0.0000000E+000	0.0000000E+000	0.0000000E+000	3.0830132E+001	1.6755116E+000	5.9169868E+001	-1.838198180491513E-006	-4.7525496E-006	1.6222091E+004
1.0003201E+002	6.4723988E+000	3.8560390E+000	7.5339885E+000	-3.0785072E+001	1.084166584831110E+001	2.7765495E-001	-1.6137127E-002	4.1260995E+002	1.0808680E+002	1.000000000000000E+000	10	4.7485903E-003	6.3028903E-004	0	1.550238454209434E-004	1.1402902E-001	6.7934677E-002	1.3273183E-001	3.0785072E+001	1.0808680E+005	1.8142473E+005	2.1118166E+005	-5.9214928E+001	0.0000000E+000	0.0000000E+000	0.0000000E+000	5.9214928E+001	0.0000000E+000	0.0000000E+000	0.0000000E+000	-5.9214928E+001	0.0000000E+000	0.0000000E+000	0.0000000E+000	-3.0785072E+001	0.0000000E+000	0.0000000E+000	0.0000000E+000	3.0785072E+001	1.6785096E+000	5.9214928E+001	-1.719421822700618E-006	-4.4805529E-006	1.7205971E+004
6.8103981E+001	7.5940928E+000	4.2553501E+000	8.7050705E+000	-2.9264091E+001	1.132031251097214E+001	2.7771831E-001	-1.3815097E-002	5.4917700E+002	1.3123157E+002	1.000000000000000E+000	10	4.7343825E-003	5.4386491E-004	0	1.535671767155905E-004	1.0021468E-001	5.6155294E-002	1.1487558E-001	2.9264091E+001	1.3123158E+005	2.3419572E+005	2.6845738E+005	-6.0735909E+001	0.0000000E+000	0.0000000E+000	0.0000000E+000	6.0735909E+001	0.0000000E+000	0.0000000E+000	0.0000000E+000	-6.0735909E+001	0.0000000E+000	0.0000000E+000	0.0000000E+000	-2.9264091E+001	0.0000000E+000	0.0000000E+000	0.0000000E+000	2.9264091E+001	1.7845988E+000	6.0735909E+001	-1.456668705352858E-006	-3.8367052E-006	2.0102523E+004
4.6441547E+001	8.9049330E+000	4.5748816E+000	1.0011362E+001	-2.7191692E+001	1.177553855927545E+001	2.7765763E-001	-1.8233491E-002	7.4908929E+002	1.5642529E+002	1.000000000000000E+000	10	4.7519905E-003	4.7465976E-004	0	1.517639137728806E-004	8.8847317E-002	4.5645032E-002	9.9886507E-002	2.7191692E+001	1.5642530E+005	3.0447931E+005	3.4231056E+005	-6.2808308E+001	0.0000000E+000	0.0000000E+000	0.0000000E+000	6.2808308E+001	0.0000000E+000	0.0000000E+000	0.0000000E+000	-6.2808308E+001	0.0000000E+000	0.0000000E+000	0.0000000E+000	-2.7191692E+001	0.0000000E+000	0.0000000E+000	0.0000000E+000	2.7191692E+001	1.9464839E+000	6.2808304E+001	-1.803262942709906E-006	-5.0626677E-006	1.5227892E+004
3.1629555E+001	1.0277452E+001	4.6668344E+000	1.1287399E+001	-2.4422073E+001	1.222145970046404E+001	2.7765173E-001	-1.9889692E-002	1.0782133E+003	1.8431541E+002	1.000000000000000E+000	10	4.7469535E-003	4.2055335E-004	0	1.493236289481623E-004	8.0667339E-002	3.6629807E-002	8.8594370E-002	2.4422073E+001	1.8431541E+005	4.0590531E+005	4.4579288E+005	-6.5577927E+001	0.0000000E+000	0.0000000E+000	0.0000000E+000	6.5577927E+001	0.0000000E+000	0.0000000E+000	0.0000000E+000	-6.5577927E+001	0.0000000E+000	0.0000000E+000	0.0000000E+000	-2.4422073E+001	0.0000000E+000	0.0000000E+000	0.0000000E+000	2.4422073E+001	2.2022321E+000	6.5577927E+001	-2.440284824718319E-006	-5.5224073E-006	1.3959579E+004
2.1551722E+001	1.1610131E+001	4.5395861E+000	1.2466073E+001	-2.1355604E+001	1.266034188130288E+001	2.7765232E-001	-2.1489939E-002	1.6267540E+003	2.1572231E+002	1.000000000000000E+000	10	4.7426438E-003	3.8044408E-004	0	1.481707845968146E-004	7.4709840E-002	2.9211706E-002	8.0217727E-002	2.1355604E+001	2.1572233E+005	5.5171644E+005	5.9239106E+005	-6.8644394E+001	0.0000000E+000	0.0000000E+000	0.0000000E+000	6.8644394E+001	0.0000000E+000	0.0000000E+000	0.0000000E+000	-6.8644394E+001	0.0000000E+000	0.0000000E+000	0.0000000E+000	-2.1355604E+001	0.0000000E+000	0.0000000E+000	0.0000000E+000	2.1355604E+001	2.5575309E+000	6.8644394E+001	-1.152844351347688E-006	-5.9667314E-006	1.2920107E+004
1.4685154E+001	1.2923374E+001	4.2776833E+000	1.3612942E+001	-1.8314730E+001	1.339604122293531E+001	2.7768767E-001	-5.3481059E-003	2.5335706E+003	2.5017636E+002	1.000000000000000E+000	11	4.7434196E-003	3.4844928E-004	0	1.454367624573222E-004	6.9738396E-002	2.3083661E-002	7.3459506E-002	1.8314730E+001	2.5017636E+005	7.5581169E+005	7.9614038E+005	-7.1685272E+001	0.0000000E+000	0.0000000E+000	0.0000000E+000	7.1685272E+001	0.0000000E+000	0.0000000E+000	0.0000000E+000	-7.1685272E+001	0.0000000E+000	0.0000000E+000	0.0000000E+000	-1.8314730E+001	0.0000000E+000	0.0000000E+000	0.0000000E+000	1.8314730E+001	3.0211153E+000	7.1685272E+001	-2.734022139492392E-006	-1.4851031E-006	5.1922621E+004
