EC-Lab ASCII FILE
Nb header lines : 3                           
freq/Hz	Re(Z)/Ohm	-Im(Z)/Ohm	|Z|/Ohm	Phase(Z)/deg	time/s	<Ewe>/V	<I>/mA	Cs/µF	Cp/µF	cycle number	I Range	|Ewe|/V	|I|/A	Ns	(Q-Qo)/mA.h	<Ece>/V	|Ece|/V	Phase(Zce)/deg	|Zce|/Ohm	Re(Zce)/Ohm	-Im(Zce)/Ohm	Phase(Zwe-ce)/deg	|Zwe-ce|/Ohm	Re(Zwe-ce)/Ohm	-Im(Zwe-ce)/Ohm	Re(Y)/Ohm-1	Im(Y)/Ohm-1	|Y|/Ohm-1	Phase(Y)/deg	Re(C)/nF	Im(C)/nF	|C|/nF	Phase(C)/deg	Re(M)	Im(M)	|M|	Phase(M)/deg	Re(Permittivity)	Im(Permittivity)	|Permittivity|	Phase(Permittivity)/deg	Re(Resistivity)/Ohm.cm	Im(Resistivity)/Ohm.cm	|Resistivity|/Ohm.cm	Phase(Resistivity)/deg	Re(Conductivity)/mS/cm	Im(Conductivity)/mS/cm	|Conductivity|/mS/cm	Phase(Conductivity)/deg	Tan(Delta)	Loss Angle(Delta)/deg	dq/mA.h	Pwe/W	Pce/W	Pwe-ce/W	<Ewe-Ece>/V	Rwe/Ohm	Rce/Ohm	Rwe-ce/Ohm		Ewe-Ece/V
1.0000186E+006	9.7549552E-001	-4.0897268E-001	1.0577571E+000	2.2745678E+001	2.693527114548488E+000	3.9748116E+000	2.3960836E-002	-3.8915068E-001	-5.8174737E-002	1.000000000000000E+000	9	2.3067179E-004	2.1807633E-004	0	4.837331784264986E-006	2.8606877E-005	1.9358689E-004	-7.1003228E-002	8.8770247E-001	8.8770181E-001	1.1000762E-003	1.2347838E+001	1.9073186E+000	1.8631973E+000	-4.0787262E-001	8.7187326E-001	-3.6552945E-001	9.4539660E-001	-2.2745678E+001	-5.8174747E+001	1.3876036E+002	1.5046175E+002	-1.1274568E+002	0.0000000E+000	0.0000000E+000	0.0000000E+000	1.1274568E+002	0.0000000E+000	0.0000000E+000	0.0000000E+000	-1.1274568E+002	0.0000000E+000	0.0000000E+000	0.0000000E+000	2.2745678E+001	0.0000000E+000	0.0000000E+000	0.0000000E+000	-2.2745678E+001	2.3852339E+000	6.7254318E+001	4.837331784264986E-006	9.5239811E-005	6.8544470E-010	9.5239120E-005	3.9747829E+000	1.6588784E+005	1.1939014E+000	1.6588666E+005
7.9433269E+005	1.0190301E+000	-1.5720607E-001	1.0310849E+000	8.7699003E+000	3.076514892774867E+000	3.9739642E+000	-1.7263627E-002	-1.2745250E+000	-2.9627716E-002	1.000000000000000E+000	9	2.6136806E-004	2.5348840E-004	0	3.403138350941542E-006	1.0497174E-004	1.4359773E-004	-5.3779297E+001	5.6648642E-001	3.3473524E-001	4.5701113E-001	-1.2487191E+001	1.3865654E+000	1.3537654E+000	2.9980505E-001	9.5851338E-001	-1.4787014E-001	9.6985227E-001	-8.7699003E+000	-2.9627707E+001	1.9205069E+002	1.9432259E+002	-9.8769897E+001	0.0000000E+000	0.0000000E+000	0.0000000E+000	9.8769897E+001	0.0000000E+000	0.0000000E+000	0.0000000E+000	-9.8769897E+001	0.0000000E+000	0.0000000E+000	0.0000000E+000	8.7699003E+000	0.0000000E+000	0.0000000E+000	0.0000000E+000	-8.7699003E+000	6.4821291E+000	8.1230103E+001	-1.434193433323445E-006	-6.8605033E-005	-1.8121930E-009	-6.8603222E-005	3.9738593E+000	2.3019289E+005	6.0805149E+000	2.3018681E+005
6.3095681E+005	1.1042677E+000	-1.8830907E-001	1.1202087E+000	9.6774702E+000	3.459547204285627E+000	3.9736331E+000	-4.3405969E-002	-1.3395202E+000	-3.7852436E-002	1.000000000000000E+000	9	4.1238786E-004	3.6813485E-004	0	-7.093381103590622E-007	-4.7757989E-005	1.0321613E-004	-1.0707421E+002	2.8037587E-001	-8.2321189E-002	2.6801836E-001	-4.4598989E+000	1.0250504E+000	1.0219465E+000	7.9709291E-002	8.7998748E-001	-1.5006290E-001	8.9269078E-001	-9.6774702E+000	-3.7852421E+001	2.2197136E+002	2.2517569E+002	-9.9677467E+001	0.0000000E+000	0.0000000E+000	0.0000000E+000	9.9677467E+001	0.0000000E+000	0.0000000E+000	0.0000000E+000	-9.9677467E+001	0.0000000E+000	0.0000000E+000	0.0000000E+000	9.6774702E+000	0.0000000E+000	0.0000000E+000	0.0000000E+000	-9.6774702E+000	5.8641238E+000	8.0322533E+001	-4.112476461300604E-006	-1.7247940E-004	2.0729818E-009	-1.7248146E-004	3.9736807E+000	9.1545773E+004	1.1002631E+000	9.1546875E+004
5.0120622E+005	1.3052882E+000	-7.3574506E-002	1.3073602E+000	3.2261477E+000	3.842563995829551E+000	3.9735057E+000	-5.0258078E-002	-4.3159494E+000	-1.3669119E-002	1.000000000000000E+000	9	8.0000807E-004	6.1192631E-004	0	-6.461223365970202E-006	-9.5755549E-006	6.8350746E-005	-1.4268372E+002	1.1169767E-001	-8.8833295E-002	6.7712739E-002	2.7609071E-001	1.2164689E+000	1.2164549E+000	-5.8617666E-003	7.6368791E-001	-4.3046400E-002	7.6490015E-001	-3.2261477E+000	-1.3669130E+001	2.4250438E+002	2.4288931E+002	-9.3226151E+001	0.0000000E+000	0.0000000E+000	0.0000000E+000	9.3226151E+001	0.0000000E+000	0.0000000E+000	0.0000000E+000	-9.3226151E+001	0.0000000E+000	0.0000000E+000	0.0000000E+000	3.2261477E+000	0.0000000E+000	0.0000000E+000	0.0000000E+000	-3.2261477E+000	1.7741039E+001	8.6773849E+001	-5.751885255611140E-006	-1.9970076E-004	4.8124899E-010	-1.9970124E-004	3.9735153E+000	7.9062031E+004	1.9052768E-001	7.9062219E+004
3.9810347E+005	1.4376997E+000	7.4926928E-002	1.4396508E+000	-2.9833186E+000	4.225551694020396E+000	3.9734042E+000	-5.5397157E-002	5.3356366E+000	1.4452660E-002	1.000000000000000E+000	9	1.4716616E-003	1.0222351E-003	0	-1.209315032422051E-005	-1.4321407E-004	4.5825342E-005	1.7347569E+002	4.4828571E-002	-4.4538252E-002	-5.0936290E-003	-2.8695939E+000	1.3949106E+000	1.3931614E+000	6.9833301E-002	6.9367152E-001	3.6151275E-002	6.9461292E-001	2.9833186E+000	1.4452677E+001	2.7731799E+002	2.7769434E+002	-8.7016678E+001	0.0000000E+000	0.0000000E+000	0.0000000E+000	8.7016678E+001	0.0000000E+000	0.0000000E+000	0.0000000E+000	-8.7016678E+001	0.0000000E+000	0.0000000E+000	0.0000000E+000	-2.9833186E+000	0.0000000E+000	0.0000000E+000	0.0000000E+000	2.9833186E+000	1.9188025E+001	8.7016678E+001	-5.631926958250308E-006	-2.2011530E-004	7.9336520E-009	-2.2012323E-004	3.9735475E+000	7.1725781E+004	2.5852242E+000	7.1728367E+004
3.1622997E+005	1.5222349E+000	2.0119350E-001	1.5354732E+000	-7.5291328E+000	4.608537685504416E+000	3.9733095E+000	-5.8078405E-002	2.5015154E+000	4.2948358E-002	1.000000000000000E+000	9	2.5908686E-003	1.6873421E-003	0	-1.755726158362813E-005	-1.0503164E-004	4.8537255E-005	6.1445637E+001	2.8765509E-002	1.3749694E-002	-2.5266588E-002	-6.5340075E+000	1.5460268E+000	1.5359846E+000	1.7592691E-001	6.4565003E-001	8.5335448E-002	6.5126503E-001	7.5291328E+000	4.2948334E+001	3.2494830E+002	3.2777426E+002	-8.2470871E+001	0.0000000E+000	0.0000000E+000	0.0000000E+000	8.2470871E+001	0.0000000E+000	0.0000000E+000	0.0000000E+000	-8.2470871E+001	0.0000000E+000	0.0000000E+000	0.0000000E+000	-7.5291328E+000	0.0000000E+000	0.0000000E+000	0.0000000E+000	7.5291328E+000	7.5660243E+000	8.2470871E+001	-5.464111259407622E-006	-2.3076347E-004	6.1000698E-009	-2.3076958E-004	3.9734147E+000	6.8412859E+004	1.8084456E+000	6.8414664E+004
2.5120620E+005	1.5667021E+000	3.2767573E-001	1.6006020E+000	-1.1813127E+001	4.994516290520551E+000	3.9731767E+000	-6.6010460E-002	1.9335059E+000	8.1034005E-002	1.000000000000000E+000	9	4.3711970E-003	2.7309705E-003	0	-2.408810586522385E-005	1.0497174E-004	5.4073564E-005	9.6613487E+001	1.9800127E-002	-2.2803987E-003	-1.9668370E-002	-1.1138083E+001	1.5944542E+000	1.5644218E+000	3.0800736E-001	6.1153275E-001	1.2790206E-001	6.2476492E-001	1.1813127E+001	8.1034004E+001	3.8744449E+002	3.9582791E+002	-7.8186874E+001	0.0000000E+000	0.0000000E+000	0.0000000E+000	7.8186874E+001	0.0000000E+000	0.0000000E+000	0.0000000E+000	-7.8186874E+001	0.0000000E+000	0.0000000E+000	0.0000000E+000	-1.1813127E+001	0.0000000E+000	0.0000000E+000	0.0000000E+000	1.1813127E+001	4.7812576E+000	7.8186874E+001	-6.530844281595719E-006	-2.6227123E-004	-6.9292327E-009	-2.6226431E-004	3.9730718E+000	6.0190109E+004	1.5902289E+000	6.0188516E+004
1.9954350E+005	1.6275986E+000	4.2593011E-001	1.6824071E+000	-1.4665004E+001	5.377532042068196E+000	3.9730420E+000	-6.0201041E-002	1.8725965E+000	1.2002140E-001	1.000000000000000E+000	9	5.1770918E-003	3.0771932E-003	0	-2.746015714465951E-005	-1.4321407E-004	4.8407859E-005	9.9689392E+001	1.5731173E-002	-2.6476642E-003	-1.5506762E-002	-1.4175061E+001	1.6759813E+000	1.6249510E+000	4.1042334E-001	5.7502288E-001	1.5047909E-001	5.9438646E-001	1.4665004E+001	1.2002139E+002	4.5863550E+002	4.7407980E+002	-7.5334999E+001	0.0000000E+000	0.0000000E+000	0.0000000E+000	7.5334999E+001	0.0000000E+000	0.0000000E+000	0.0000000E+000	-7.5334999E+001	0.0000000E+000	0.0000000E+000	0.0000000E+000	-1.4665004E+001	0.0000000E+000	0.0000000E+000	0.0000000E+000	1.4665004E+001	3.8212810E+000	7.5334999E+001	-3.372051279435658E-006	-2.3918126E-004	8.6216358E-009	-2.3918989E-004	3.9731853E+000	6.5996234E+004	2.3789301E+000	6.5998609E+004
1.5848613E+005	1.7065344E+000	5.1090324E-001	1.7813708E+000	-1.6666677E+001	5.762550140352687E+000	3.9729915E+000	-5.4689556E-002	1.9655777E+000	1.6168097E-001	1.000000000000000E+000	9	5.3841849E-003	3.0224954E-003	0	-2.880382143610364E-005	1.2406295E-004	4.8017922E-005	9.4576073E+001	1.5886847E-002	-1.2674946E-003	-1.5836203E-002	-1.6188883E+001	1.7756763E+000	1.7052668E+000	4.9506703E-001	5.3778213E-001	1.6100152E-001	5.6136543E-001	1.6666677E+001	1.6168098E+002	5.4005164E+002	5.6373444E+002	-7.3333321E+001	0.0000000E+000	0.0000000E+000	0.0000000E+000	7.3333321E+001	0.0000000E+000	0.0000000E+000	0.0000000E+000	-7.3333321E+001	0.0000000E+000	0.0000000E+000	0.0000000E+000	-1.6666677E+001	0.0000000E+000	0.0000000E+000	0.0000000E+000	1.6666677E+001	3.3402302E+000	7.3333321E+001	-1.343664291444132E-006	-2.1728114E-004	-6.7849477E-009	-2.1727436E-004	3.9728675E+000	7.2646258E+004	2.2684944E+000	7.2643984E+004
1.2590930E+005	1.7844456E+000	5.9600228E-001	1.8813466E+000	-1.8469244E+001	6.145529145229375E+000	3.9729571E+000	-4.7129884E-002	2.1208718E+000	2.1284950E-001	1.000000000000000E+000	9	5.4223752E-003	2.8821777E-003	0	-2.810154437470353E-005	-4.7757989E-005	4.1234733E-005	1.0139571E+002	1.4306798E-002	-2.8267947E-003	-1.4024753E-002	-1.8089968E+001	1.8742634E+000	1.7816188E+000	5.8197755E-001	5.0415689E-001	1.6838767E-001	5.3153419E-001	1.8469244E+001	2.1284952E+002	6.3727673E+002	6.7188281E+002	-7.1530754E+001	0.0000000E+000	0.0000000E+000	0.0000000E+000	7.1530754E+001	0.0000000E+000	0.0000000E+000	0.0000000E+000	-7.1530754E+001	0.0000000E+000	0.0000000E+000	0.0000000E+000	-1.8469244E+001	0.0000000E+000	0.0000000E+000	0.0000000E+000	1.8469244E+001	2.9940248E+000	7.1530754E+001	7.022770614001093E-007	-1.8724501E-004	2.2508284E-009	-1.8724726E-004	3.9730048E+000	8.4298047E+004	1.0133271E+000	8.4299063E+004
1.0000371E+005	1.8701178E+000	6.8285674E-001	1.9908878E+000	-2.0059212E+001	6.528516790043795E+000	3.9729428E+000	-5.3982005E-002	2.3306355E+000	2.7418271E-001	1.000000000000000E+000	9	5.4449374E-003	2.7349293E-003	0	-3.973418431249189E-005	9.5156611E-006	3.6745500E-005	9.0319572E+001	1.3435630E-002	-7.4938289E-005	-1.3435422E-002	-1.9695900E+001	1.9862490E+000	1.8700428E+000	6.6942132E-001	4.7181898E-001	1.7228046E-001	5.0228846E-001	2.0059212E+001	2.7418271E+002	7.5089539E+002	7.9938727E+002	-6.9940788E+001	0.0000000E+000	0.0000000E+000	0.0000000E+000	6.9940788E+001	0.0000000E+000	0.0000000E+000	0.0000000E+000	-6.9940788E+001	0.0000000E+000	0.0000000E+000	0.0000000E+000	-2.0059212E+001	0.0000000E+000	0.0000000E+000	0.0000000E+000	2.0059212E+001	2.7386677E+000	6.9940788E+001	-1.163263993778835E-005	-2.1446742E-004	-5.1367444E-010	-2.1446690E-004	3.9729333E+000	7.3597539E+004	1.7627469E-001	7.3597367E+004
7.9433273E+004	1.9767550E+000	7.7289373E-001	2.1224809E+000	-2.1355059E+001	6.911552968231263E+000	3.9729426E+000	-4.8284307E-002	2.5923755E+000	3.4375569E-001	1.000000000000000E+000	9	5.4813791E-003	2.5825340E-003	0	-4.353805671054741E-005	-2.8666771E-005	3.1584950E-005	8.7803314E+001	1.2230217E-002	4.6878494E-004	-1.2221229E-002	-2.1042606E+001	2.1184986E+000	1.9772238E+000	7.6067251E-001	4.3879864E-001	1.7156638E-001	4.7114676E-001	2.1355059E+001	3.4375568E+002	8.7919049E+002	9.4400415E+002	-6.8644943E+001	0.0000000E+000	0.0000000E+000	0.0000000E+000	6.8644943E+001	0.0000000E+000	0.0000000E+000	0.0000000E+000	-6.8644943E+001	0.0000000E+000	0.0000000E+000	0.0000000E+000	-2.1355059E+001	0.0000000E+000	0.0000000E+000	0.0000000E+000	2.1355059E+001	2.5576026E+000	6.8644943E+001	-3.803872398055520E-006	-1.9183078E-004	1.3841551E-009	-1.9183217E-004	3.9729712E+000	8.2282273E+004	5.9370780E-001	8.2282867E+004
6.3093824E+004	2.0834396E+000	8.7580949E-001	2.2600360E+000	-2.2800283E+001	7.294535626453580E+000	3.9729369E+000	-4.5528568E-002	2.8802066E+000	4.3252599E-001	1.000000000000000E+000	9	5.4983981E-003	2.4328807E-003	0	-4.912023803360191E-005	9.5156611E-006	2.7131198E-005	9.8712944E+001	1.1151882E-002	-1.6893337E-003	-1.1023185E-002	-2.2558640E+001	2.2542269E+000	2.0817502E+000	8.6478633E-001	4.0789670E-001	1.7146635E-001	4.4247082E-001	2.2800283E+001	4.3252603E+002	1.0289244E+003	1.1161381E+003	-6.7199715E+001	0.0000000E+000	0.0000000E+000	0.0000000E+000	6.7199715E+001	0.0000000E+000	0.0000000E+000	0.0000000E+000	-6.7199715E+001	0.0000000E+000	0.0000000E+000	0.0000000E+000	-2.2800283E+001	0.0000000E+000	0.0000000E+000	0.0000000E+000	2.2800283E+001	2.3788731E+000	6.7199715E+001	-5.582181323054507E-006	-1.8088213E-004	-4.3323442E-010	-1.8088169E-004	3.9729273E+000	8.7262500E+004	2.0900418E-001	8.7262297E+004
5.0122477E+004	2.2243257E+000	9.7871977E-001	2.4301269E+000	-2.3749849E+001	7.801545223832363E+000	3.9729567E+000	-4.5789272E-002	3.2443614E+000	5.2624512E-001	1.000000000000000E+000	9	5.0135236E-003	2.0630707E-003	0	-6.222546078586795E-005	1.8133660E-004	1.8345227E-005	5.2872738E+001	8.8921953E-003	5.3672176E-003	-7.0897192E-003	-2.3546057E+001	2.4321997E+000	2.2296929E+000	9.7163004E-001	3.7665215E-001	1.6572973E-001	4.1150114E-001	2.3749849E+001	5.2624500E+002	1.1959913E+003	1.3066481E+003	-6.6250153E+001	0.0000000E+000	0.0000000E+000	0.0000000E+000	6.6250153E+001	0.0000000E+000	0.0000000E+000	0.0000000E+000	-6.6250153E+001	0.0000000E+000	0.0000000E+000	0.0000000E+000	-2.3749849E+001	0.0000000E+000	0.0000000E+000	0.0000000E+000	2.3749849E+001	2.2726891E+000	6.6250153E+001	-1.310522275226604E-005	-1.8191879E-004	-8.3032710E-009	-1.8191049E-004	3.9727752E+000	8.6766102E+004	3.9602420E+000	8.6762141E+004
3.9814059E+004	2.3566785E+000	1.0849267E+000	2.5944171E+000	-2.4719576E+001	8.184526548691792E+000	3.9729464E+000	-4.2028051E-002	3.6845400E+000	6.4432424E-001	1.000000000000000E+000	9	5.3949179E-003	2.0794335E-003	0	-6.194318455889394E-005	1.2406295E-004	1.3714192E-005	1.4022188E+001	6.5951580E-003	6.3986355E-003	-1.5979911E-003	-2.4628607E+001	2.5995643E+000	2.3630772E+000	1.0833287E+000	3.5012311E-001	1.6118358E-001	3.8544303E-001	2.4719576E+001	6.4432428E+002	1.3996018E+003	1.5407916E+003	-6.5280426E+001	0.0000000E+000	0.0000000E+000	0.0000000E+000	6.5280426E+001	0.0000000E+000	0.0000000E+000	0.0000000E+000	-6.5280426E+001	0.0000000E+000	0.0000000E+000	0.0000000E+000	-2.4719576E+001	0.0000000E+000	0.0000000E+000	0.0000000E+000	2.4719576E+001	2.1722007E+000	6.5280426E+001	2.822762269740148E-007	-1.6697519E-004	-5.2141238E-009	-1.6696999E-004	3.9728224E+000	9.4530828E+004	2.9519083E+000	9.4527875E+004
3.1621139E+004	2.5225821E+000	1.2028564E+000	2.7946885E+000	-2.5493460E+001	8.567561100266175E+000	3.9729373E+000	-4.1134302E-002	4.1843581E+000	7.7515692E-001	1.000000000000000E+000	9	5.2842246E-003	1.8908099E-003	0	-6.130894093430187E-005	-2.5776136E-004	8.9933283E-006	2.5334465E+001	4.7563366E-003	4.2988975E-003	-2.0352441E-003	-2.5417942E+001	2.7976954E+000	2.5268810E+000	1.2008212E+000	3.2298213E-001	1.5400933E-001	3.5782164E-001	2.5493460E+001	7.7515698E+002	1.6256278E+003	1.8009814E+003	-6.4506538E+001	0.0000000E+000	0.0000000E+000	0.0000000E+000	6.4506538E+001	0.0000000E+000	0.0000000E+000	0.0000000E+000	-6.4506538E+001	0.0000000E+000	0.0000000E+000	0.0000000E+000	-2.5493460E+001	0.0000000E+000	0.0000000E+000	0.0000000E+000	2.5493460E+001	2.0971596E+000	6.4506538E+001	6.342436245920655E-007	-1.6342400E-004	1.0602833E-008	-1.6343461E-004	3.9731951E+000	9.6584531E+004	6.2663364E+000	9.6590797E+004
2.5116910E+004	2.6972921E+000	1.3244572E+000	3.0049245E+000	-2.6152523E+001	8.826526019227458E+000	3.9729435E+000	-4.2959042E-002	4.7842731E+000	9.2944711E-001	1.000000000000000E+000	9	4.8848693E-003	1.6256213E-003	0	-6.384233063645661E-005	-4.7757989E-005	3.5404089E-006	-7.7185448E+001	2.1778804E-003	4.8304553E-004	2.1236360E-003	-2.6184795E+001	3.0062945E+000	2.6977751E+000	1.3265808E+000	2.9871762E-001	1.4667997E-001	3.3278707E-001	2.6152523E+001	9.2944720E+002	1.8928439E+003	2.1087271E+003	-6.3847477E+001	0.0000000E+000	0.0000000E+000	0.0000000E+000	6.3847477E+001	0.0000000E+000	0.0000000E+000	0.0000000E+000	-6.3847477E+001	0.0000000E+000	0.0000000E+000	0.0000000E+000	-2.6152523E+001	0.0000000E+000	0.0000000E+000	0.0000000E+000	2.6152523E+001	2.0365264E+000	6.3847473E+001	-2.533389702154740E-006	-1.7067385E-004	2.0516375E-009	-1.7067591E-004	3.9729912E+000	9.2482125E+004	1.1117098E+000	9.2483234E+004
1.9948785E+004	2.9092441E+000	1.4416895E+000	3.2468708E+000	-2.6360931E+001	9.209514144080458E+000	3.9729550E+000	-4.3964516E-002	5.5339084E+000	1.0910519E+000	1.000000000000000E+000	9	4.8573515E-003	1.4960101E-003	0	-6.899406468049468E-005	2.0042782E-004	6.8630766E-006	-2.8598240E+001	4.5875870E-003	4.0278905E-003	2.1959168E-003	-2.6364088E+001	3.2514548E+000	2.9132719E+000	1.4438854E+000	2.7596256E-001	1.3675454E-001	3.0798885E-001	2.6360931E+001	1.0910519E+003	2.2016780E+003	2.4571895E+003	-6.3639069E+001	0.0000000E+000	0.0000000E+000	0.0000000E+000	6.3639069E+001	0.0000000E+000	0.0000000E+000	0.0000000E+000	-6.3639069E+001	0.0000000E+000	0.0000000E+000	0.0000000E+000	-2.6360931E+001	0.0000000E+000	0.0000000E+000	0.0000000E+000	2.6360931E+001	2.0179408E+000	6.3639069E+001	-5.151734044038069E-006	-1.7466904E-004	-8.8117122E-009	-1.7466024E-004	3.9727545E+000	9.0367305E+004	4.5588541E+000	9.0362750E+004
1.5847683E+004	3.1124897E+000	1.5457972E+000	3.4752095E+000	-2.6410988E+001	9.592556188901654E+000	3.9729354E+000	-4.2623881E-002	6.4968352E+000	1.2854196E+000	1.000000000000000E+000	9	5.0861645E-003	1.4635562E-003	0	-7.259994532887100E-005	-8.5940424E-005	7.2960843E-006	8.4679901E+001	4.9851756E-003	4.6222497E-004	-4.9637007E-003	-2.6334261E+001	3.4734187E+000	3.1129520E+000	1.5408335E+000	2.5771871E-001	1.2799428E-001	2.8775245E-001	2.6410988E+001	1.2854198E+003	2.5882148E+003	2.8898374E+003	-6.3589012E+001	0.0000000E+000	0.0000000E+000	0.0000000E+000	6.3589012E+001	0.0000000E+000	0.0000000E+000	0.0000000E+000	-6.3589012E+001	0.0000000E+000	0.0000000E+000	0.0000000E+000	-2.6410988E+001	0.0000000E+000	0.0000000E+000	0.0000000E+000	2.6410988E+001	2.0135174E+000	6.3589012E+001	-3.605880648376315E-006	-1.6934193E-004	3.6631145E-009	-1.6934559E-004	3.9730213E+000	9.3209141E+004	2.0162506E+000	9.3211156E+004
1.2590930E+004	3.3555329E+000	1.6589522E+000	3.7432237E+000	-2.6307472E+001	9.853550387982978E+000	3.9729276E+000	-5.1710397E-002	7.6195350E+000	1.4965963E+000	1.000000000000000E+000	9	4.8533338E-003	1.2965653E-003	0	-7.578686268323670E-005	-2.8666771E-005	5.6321201E-006	3.3621613E+001	4.3438771E-003	3.6172005E-003	-2.4052295E-003	-2.6249964E+001	3.7454021E+000	3.3591502E+000	1.6565470E+000	2.3948039E-001	1.1839744E-001	2.6714942E-001	2.6307472E+001	1.4965961E+003	3.0271382E+003	3.3768870E+003	-6.3692528E+001	0.0000000E+000	0.0000000E+000	0.0000000E+000	6.3692528E+001	0.0000000E+000	0.0000000E+000	0.0000000E+000	-6.3692528E+001	0.0000000E+000	0.0000000E+000	0.0000000E+000	-2.6307472E+001	0.0000000E+000	0.0000000E+000	0.0000000E+000	2.6307472E+001	2.0226820E+000	6.3692528E+001	-3.186917354365708E-006	-2.0544167E-004	1.4823701E-009	-2.0544314E-004	3.9729562E+000	7.6830344E+004	5.5437154E-001	7.6830898E+004
