EC-Lab ASCII FILE
Nb header lines : 3                           
freq/Hz	Re(Z)/Ohm	-Im(Z)/Ohm	|Z|/Ohm	Phase(Z)/deg	time/s	<Ewe>/V	<I>/mA	Cs/µF	Cp/µF	cycle number	I Range	|Ewe|/V	|I|/A	Ns	(Q-Qo)/mA.h	<Ece>/V	|Ece|/V	Phase(Zce)/deg	|Zce|/Ohm	Re(Zce)/Ohm	-Im(Zce)/Ohm	Phase(Zwe-ce)/deg	|Zwe-ce|/Ohm	Re(Zwe-ce)/Ohm	-Im(Zwe-ce)/Ohm	Re(Y)/Ohm-1	Im(Y)/Ohm-1	|Y|/Ohm-1	Phase(Y)/deg	Re(C)/nF	Im(C)/nF	|C|/nF	Phase(C)/deg	Re(M)	Im(M)	|M|	Phase(M)/deg	Re(Permittivity)	Im(Permittivity)	|Permittivity|	Phase(Permittivity)/deg	Re(Resistivity)/Ohm.cm	Im(Resistivity)/Ohm.cm	|Resistivity|/Ohm.cm	Phase(Resistivity)/deg	Re(Conductivity)/mS/cm	Im(Conductivity)/mS/cm	|Conductivity|/mS/cm	Phase(Conductivity)/deg	Tan(Delta)	Loss Angle(Delta)/deg	dq/mA.h	Pwe/W	Pce/W	Pwe-ce/W	<Ewe-Ece>/V	Rwe/Ohm	Rce/Ohm	Rwe-ce/Ohm		Ewe-Ece/V
1.0000186E+006	2.6498346E+000	3.1444976E+000	4.1121149E+000	-4.9879520E+001	2.233559439395322E+000	3.9758291E+000	-1.0461136E-002	5.0612852E-002	2.9595990E-002	1.000000000000000E+000	10	2.2672163E-004	5.5135046E-005	0	-1.022577173869326E-005	2.9494459E-004	2.0236721E-004	-6.3088989E+001	3.6703916E+000	1.6612415E+000	3.2729270E+000	-5.6107716E+001	7.7310228E+000	4.3110762E+000	6.4174247E+000	1.5670696E-001	1.8596055E-001	2.4318387E-001	4.9879520E+001	2.9595989E+001	2.4940222E+001	3.8703194E+001	-4.0120480E+001	0.0000000E+000	0.0000000E+000	0.0000000E+000	4.0120480E+001	0.0000000E+000	0.0000000E+000	0.0000000E+000	-4.0120480E+001	0.0000000E+000	0.0000000E+000	0.0000000E+000	-4.9879520E+001	0.0000000E+000	0.0000000E+000	0.0000000E+000	4.9879520E+001	8.4268934E-001	4.0120483E+001	-1.022577173869326E-005	-4.1591687E-005	-3.0854554E-009	-4.1588602E-005	3.9755342E+000	3.8005713E+005	2.8194319E+001	3.8002894E+005
7.9433269E+005	8.8037735E-001	-1.8955848E-001	9.0055352E-001	1.2151132E+001	3.019515050080372E+000	3.9755969E+000	3.5604063E-002	-1.0569987E+000	-4.6831906E-002	1.000000000000000E+000	9	1.9967569E-004	2.2172551E-004	0	-7.857914039159368E-006	-8.7016146E-005	1.5573177E-004	-3.5191883E+001	7.0236290E-001	5.7398963E-001	4.0478337E-001	-8.4178371E+000	1.4702058E+000	1.4543669E+000	2.1522489E-001	1.0855500E+000	-2.3373522E-001	1.1104282E+000	-1.2151132E+001	-4.6831905E+001	2.1750414E+002	2.2248882E+002	-1.0215113E+002	0.0000000E+000	0.0000000E+000	0.0000000E+000	1.0215113E+002	0.0000000E+000	0.0000000E+000	0.0000000E+000	-1.0215113E+002	0.0000000E+000	0.0000000E+000	0.0000000E+000	1.2151132E+001	0.0000000E+000	0.0000000E+000	0.0000000E+000	-1.2151132E+001	4.6443577E+000	7.7848869E+001	2.367857699533893E-006	1.4154741E-004	-3.0981284E-009	1.4155050E-004	3.9756839E+000	1.1166133E+005	2.4439948E+000	1.1166377E+005
6.3095681E+005	9.6557796E-001	-3.3193496E-001	1.0210395E+000	1.8971338E+001	3.402523254888365E+000	3.9756098E+000	3.3443566E-002	-7.5991940E-001	-8.0313474E-002	1.000000000000000E+000	9	2.9879253E-004	2.9263561E-004	0	-4.113576326014785E-006	-1.0623993E-005	1.1415103E-004	-8.9746544E+001	3.9007908E-001	1.7255847E-003	3.9007527E-001	-3.4396558E+000	9.6904927E-001	9.6730357E-001	5.8140308E-002	9.2619467E-001	-3.1839624E-001	9.7939408E-001	-1.8971338E+001	-8.0313469E+001	2.3362686E+002	2.4704608E+002	-1.0897134E+002	0.0000000E+000	0.0000000E+000	0.0000000E+000	1.0897134E+002	0.0000000E+000	0.0000000E+000	0.0000000E+000	-1.0897134E+002	0.0000000E+000	0.0000000E+000	0.0000000E+000	1.8971338E+001	0.0000000E+000	0.0000000E+000	0.0000000E+000	-1.8971338E+001	2.9089372E+000	7.1028664E+001	3.744337713144583E-006	1.3295856E-004	-3.5530423E-010	1.3295893E-004	3.9756205E+000	1.1887517E+005	3.1766927E-001	1.1887549E+005
5.0120622E+005	1.3005139E+000	-2.4487576E-001	1.3233671E+000	1.0663461E+001	3.785538766445825E+000	3.9756696E+000	4.2234555E-002	-1.2967548E+000	-4.4400595E-002	1.000000000000000E+000	9	6.2165532E-004	4.6975273E-004	0	1.064878386655538E-006	1.0396423E-004	5.9438946E-005	-1.4185577E+002	1.2653241E-001	-9.9512488E-002	7.8151867E-002	7.9033313E+000	1.2125186E+000	1.2010014E+000	-1.6672389E-001	7.4259889E-001	-1.3982509E-001	7.5564820E-001	-1.0663461E+001	-4.4400597E+001	2.3580772E+002	2.3995145E+002	-1.0066346E+002	0.0000000E+000	0.0000000E+000	0.0000000E+000	1.0066346E+002	0.0000000E+000	0.0000000E+000	0.0000000E+000	-1.0066346E+002	0.0000000E+000	0.0000000E+000	0.0000000E+000	1.0663461E+001	0.0000000E+000	0.0000000E+000	0.0000000E+000	-1.0663461E+001	5.3109131E+000	7.9336540E+001	5.178454712670322E-006	1.6791064E-004	4.3908828E-009	1.6790624E-004	3.9755657E+000	9.4133102E+004	2.4615917E+000	9.4130641E+004
3.9810347E+005	1.4528500E+000	-2.9427126E-002	1.4531480E+000	1.1603535E+000	4.170551878080005E+000	3.9757020E+000	4.6965312E-002	-1.3585522E+001	-5.5712461E-003	1.000000000000000E+000	9	1.1857827E-003	8.1600959E-004	0	6.337904492473172E-006	-4.8820068E-005	2.6658048E-005	1.3207777E+002	3.2668792E-002	-2.1892622E-002	-2.4247950E-002	2.1481524E+000	1.4319637E+000	1.4309573E+000	-5.3675078E-002	6.8801999E-001	-1.3935680E-002	6.8816113E-001	-1.1603535E+000	-5.5712509E+000	2.7505859E+002	2.7511502E+002	-9.1160355E+001	0.0000000E+000	0.0000000E+000	0.0000000E+000	9.1160355E+001	0.0000000E+000	0.0000000E+000	0.0000000E+000	-9.1160355E+001	0.0000000E+000	0.0000000E+000	0.0000000E+000	1.1603535E+000	0.0000000E+000	0.0000000E+000	0.0000000E+000	-1.1603535E+000	4.9371113E+001	8.8839645E+001	5.273026105817634E-006	1.8672009E-004	-2.2928497E-009	1.8672238E-004	3.9757509E+000	8.4651883E+004	1.0394920E+000	8.4652922E+004
3.1622997E+005	1.5408740E+000	1.6594186E-001	1.5497837E+000	-6.1466837E+000	4.553535522922175E+000	3.9756701E+000	4.2718835E-002	3.0329213E+000	3.4772098E-002	1.000000000000000E+000	9	2.1079213E-003	1.3601390E-003	0	1.120857193958687E-005	-1.4431027E-004	3.4003751E-005	4.5234203E+001	2.5000203E-002	1.7605405E-002	-1.7749926E-002	-5.4317822E+000	1.5655092E+000	1.5584794E+000	1.4819194E-001	6.4154178E-001	6.9089778E-002	6.4525133E-001	6.1466837E+000	3.4772091E+001	3.2288068E+002	3.2474765E+002	-8.3853317E+001	0.0000000E+000	0.0000000E+000	0.0000000E+000	8.3853317E+001	0.0000000E+000	0.0000000E+000	0.0000000E+000	-8.3853317E+001	0.0000000E+000	0.0000000E+000	0.0000000E+000	-6.1466837E+000	0.0000000E+000	0.0000000E+000	0.0000000E+000	6.1466837E+000	9.2856255E+000	8.3853317E+001	4.870667447113697E-006	1.6983600E-004	-6.1647665E-009	1.6984215E-004	3.9758143E+000	9.3065977E+004	3.3781414E+000	9.3069352E+004
2.5120620E+005	1.5926411E+000	2.7274406E-001	1.6158265E+000	-9.7177887E+000	4.936513754451880E+000	3.9755979E+000	3.8956605E-002	2.3229213E+000	6.6184402E-002	1.000000000000000E+000	9	3.6051511E-003	2.2311499E-003	0	1.635221543457980E-005	-6.7918110E-005	8.0683945E-005	6.6845505E+001	3.6162492E-002	1.4219519E-002	-3.3249527E-002	-8.4772444E+000	1.6246103E+000	1.6068606E+000	2.3949453E-001	6.0999811E-001	1.0446382E-001	6.1887830E-001	9.7177887E+000	6.6184402E+001	3.8647220E+002	3.9209839E+002	-8.0282211E+001	0.0000000E+000	0.0000000E+000	0.0000000E+000	8.0282211E+001	0.0000000E+000	0.0000000E+000	0.0000000E+000	-8.0282211E+001	0.0000000E+000	0.0000000E+000	0.0000000E+000	-9.7177887E+000	0.0000000E+000	0.0000000E+000	0.0000000E+000	9.7177887E+000	5.8393245E+000	8.0282211E+001	5.143643494992929E-006	1.5487580E-004	-2.6458591E-009	1.5487843E-004	3.9756658E+000	1.0205196E+005	1.7434299E+000	1.0205370E+005
1.9954350E+005	1.6525162E+000	3.8797727E-001	1.6974499E+000	-1.3212589E+001	5.319561665965011E+000	3.9755464E+000	4.5624387E-002	2.0557783E+000	1.0739768E-001	1.000000000000000E+000	9	5.0689275E-003	2.9862016E-003	0	1.907770919973134E-005	-1.8250634E-004	7.9982368E-005	6.4795410E+001	2.6783982E-002	1.1406007E-002	-2.4233958E-002	-1.2331210E+001	1.7032166E+000	1.6639223E+000	3.6374331E-001	5.7352430E-001	1.3465185E-001	5.8911902E-001	1.3212589E+001	1.0739765E+002	4.5744022E+002	4.6987851E+002	-7.6787415E+001	0.0000000E+000	0.0000000E+000	0.0000000E+000	7.6787415E+001	0.0000000E+000	0.0000000E+000	0.0000000E+000	-7.6787415E+001	0.0000000E+000	0.0000000E+000	0.0000000E+000	-1.3212589E+001	0.0000000E+000	0.0000000E+000	0.0000000E+000	1.3212589E+001	4.2593122E+000	7.6787415E+001	2.725493765151543E-006	1.8138187E-004	-8.3267393E-009	1.8139019E-004	3.9757288E+000	8.7136438E+004	4.0001926E+000	8.7140438E+004
1.5848613E+005	1.7133828E+000	4.8831457E-001	1.7816093E+000	-1.5907567E+001	5.702557044132845E+000	3.9755039E+000	3.7950892E-002	2.0565023E+000	1.5449116E-001	1.000000000000000E+000	9	5.3597963E-003	3.0084017E-003	0	1.923251058685128E-005	8.4866188E-005	7.3324205E-005	8.1803604E+001	2.4373142E-002	3.4747976E-003	-2.4124175E-002	-1.5129444E+001	1.7785031E+000	1.7168577E+000	4.6419039E-001	5.3979570E-001	1.5384193E-001	5.6129026E-001	1.5907567E+001	1.5449120E+002	5.4207373E+002	5.6365900E+002	-7.4092430E+001	0.0000000E+000	0.0000000E+000	0.0000000E+000	7.4092430E+001	0.0000000E+000	0.0000000E+000	0.0000000E+000	-7.4092430E+001	0.0000000E+000	0.0000000E+000	0.0000000E+000	-1.5907567E+001	0.0000000E+000	0.0000000E+000	0.0000000E+000	1.5907567E+001	3.5087686E+000	7.4092430E+001	1.548013871199355E-007	1.5087392E-004	3.2207474E-009	1.5087071E-004	3.9754190E+000	1.0475390E+005	2.2362106E+000	1.0475166E+005
1.2590930E+005	1.7933415E+000	5.6742507E-001	1.8809692E+000	-1.7557714E+001	6.085536475671688E+000	3.9754860E+000	3.7764639E-002	2.2276852E+000	2.0272510E-001	1.000000000000000E+000	9	5.4192357E-003	2.8810869E-003	0	2.943217325420119E-005	1.4216029E-004	5.2019408E-005	8.1398216E+001	1.8055480E-002	2.7004872E-003	-1.7852386E-002	-1.7013639E+001	1.8782431E+000	1.7960420E+000	5.4957271E-001	5.0687355E-001	1.6037814E-001	5.3164083E-001	1.7557714E+001	2.0272511E+002	6.4071075E+002	6.7201764E+002	-7.2442284E+001	0.0000000E+000	0.0000000E+000	0.0000000E+000	7.2442284E+001	0.0000000E+000	0.0000000E+000	0.0000000E+000	-7.2442284E+001	0.0000000E+000	0.0000000E+000	0.0000000E+000	-1.7557714E+001	0.0000000E+000	0.0000000E+000	0.0000000E+000	1.7557714E+001	3.1604905E+000	7.2442284E+001	1.019966266734991E-005	1.5013279E-004	5.3686322E-009	1.5012742E-004	3.9753439E+000	1.0527007E+005	3.7643759E+000	1.0526630E+005
1.0000371E+005	1.8800453E+000	6.6558379E-001	1.9943851E+000	-1.9495256E+001	6.468528387224069E+000	3.9754825E+000	3.7466627E-002	2.3911192E+000	2.6631075E-001	1.000000000000000E+000	9	5.3920895E-003	2.7036350E-003	0	3.270412366815597E-005	2.7572081E-005	4.2985401E-005	7.0470749E+001	1.5899114E-002	5.3148838E-003	-1.4984453E-002	-1.9038511E+001	1.9944578E+000	1.8853601E+000	6.5059936E-001	4.7266155E-001	1.6733420E-001	5.0140768E-001	1.9495256E+001	2.6631073E+002	7.5223627E+002	7.9798547E+002	-7.0504745E+001	0.0000000E+000	0.0000000E+000	0.0000000E+000	7.0504745E+001	0.0000000E+000	0.0000000E+000	0.0000000E+000	-7.0504745E+001	0.0000000E+000	0.0000000E+000	0.0000000E+000	-1.9495256E+001	0.0000000E+000	0.0000000E+000	0.0000000E+000	1.9495256E+001	2.8246560E+000	7.0504745E+001	3.271950413954778E-006	1.4894792E-004	1.0330329E-009	1.4894689E-004	3.9754548E+000	1.0610730E+005	7.3591042E-001	1.0610656E+005
7.9433273E+004	1.9535048E+000	7.6073647E-001	2.0964019E+000	-2.1277000E+001	6.851516432041535E+000	3.9754810E+000	3.4374878E-002	2.6338038E+000	3.4681895E-001	1.000000000000000E+000	9	5.3158659E-003	2.5357094E-003	0	3.778313477769391E-005	-4.8820068E-005	2.9965202E-005	4.8625156E+001	1.1817286E-002	7.8110187E-003	-8.8677071E-003	-2.0974283E+001	2.1004920E+000	1.9613159E+000	7.5186878E-001	4.4449347E-001	1.7309524E-001	4.7700778E-001	2.1277000E+001	3.4681894E+002	8.9060071E+002	9.5574738E+002	-6.8723000E+001	0.0000000E+000	0.0000000E+000	0.0000000E+000	6.8723000E+001	0.0000000E+000	0.0000000E+000	0.0000000E+000	-6.8723000E+001	0.0000000E+000	0.0000000E+000	0.0000000E+000	-2.1277000E+001	0.0000000E+000	0.0000000E+000	0.0000000E+000	2.1277000E+001	2.5679126E+000	6.8723000E+001	5.079011109537942E-006	1.3665667E-004	-1.6781838E-009	1.3665836E-004	3.9755299E+000	1.1565077E+005	1.4202251E+000	1.1565219E+005
6.3093824E+004	2.0740488E+000	8.6125606E-001	2.2457604E+000	-2.2550840E+001	7.234549356944626E+000	3.9754703E+000	4.1526861E-002	2.9288762E+000	4.3076333E-001	1.000000000000000E+000	9	5.2912440E-003	2.3561034E-003	0	3.705850380224486E-005	-1.0623993E-005	2.3891711E-005	4.4892467E+001	1.0140349E-002	7.1837544E-003	-7.1568396E-003	-2.2312336E+001	2.2496698E+000	2.0812325E+000	8.5409921E-001	4.1123691E-001	1.7076758E-001	4.4528347E-001	2.2550840E+001	4.3076334E+002	1.0373502E+003	1.1232330E+003	-6.7449158E+001	0.0000000E+000	0.0000000E+000	0.0000000E+000	6.7449158E+001	0.0000000E+000	0.0000000E+000	0.0000000E+000	-6.7449158E+001	0.0000000E+000	0.0000000E+000	0.0000000E+000	-2.2550840E+001	0.0000000E+000	0.0000000E+000	0.0000000E+000	2.2550840E+001	2.4081674E+000	6.7449158E+001	-7.246309754490495E-007	1.6508880E-004	-4.4118109E-010	1.6508925E-004	3.9754810E+000	9.5732500E+004	2.5583425E-001	9.5732758E+004
5.0122477E+004	2.1950357E+000	9.7291648E-001	2.4009891E+000	-2.3904593E+001	7.617548255104339E+000	3.9754782E+000	3.8062602E-002	3.2637136E+000	5.3589880E-001	1.000000000000000E+000	9	5.2586505E-003	2.1902018E-003	0	4.323662874195725E-005	1.6125833E-004	2.2661628E-005	3.1019659E+001	1.0346822E-002	8.8671288E-003	-5.3320504E-003	-2.3703024E+001	2.4069498E+000	2.2039027E+000	9.6758443E-001	3.8076869E-001	1.6876997E-001	4.1649503E-001	2.3904593E+001	5.3589886E+002	1.2090627E+003	1.3225054E+003	-6.6095406E+001	0.0000000E+000	0.0000000E+000	0.0000000E+000	6.6095406E+001	0.0000000E+000	0.0000000E+000	0.0000000E+000	-6.6095406E+001	0.0000000E+000	0.0000000E+000	0.0000000E+000	-2.3904593E+001	0.0000000E+000	0.0000000E+000	0.0000000E+000	2.3904593E+001	2.2561400E+000	6.6095406E+001	6.178124939712385E-006	1.5131704E-004	6.1379115E-009	1.5131090E-004	3.9753170E+000	1.0444578E+005	4.2366605E+000	1.0444155E+005
3.9814059E+004	2.3323393E+000	1.0961281E+000	2.5770726E+000	-2.5172089E+001	8.000533579994226E+000	3.9754834E+000	3.9813347E-002	3.6468875E+000	6.5976864E-001	1.000000000000000E+000	9	5.2391198E-003	2.0329733E-003	0	4.895884978154208E-005	2.7572081E-005	1.7388240E-005	-6.0883598E+000	8.5531073E-003	8.5048638E-003	9.0716017E-004	-2.5110111E+001	2.5851572E+000	2.3408442E+000	1.0970353E+000	3.5118699E-001	1.6504714E-001	3.8803717E-001	2.5172089E+001	6.5976862E+002	1.4038545E+003	1.5511615E+003	-6.4827911E+001	0.0000000E+000	0.0000000E+000	0.0000000E+000	6.4827911E+001	0.0000000E+000	0.0000000E+000	0.0000000E+000	-6.4827911E+001	0.0000000E+000	0.0000000E+000	0.0000000E+000	-2.5172089E+001	0.0000000E+000	0.0000000E+000	0.0000000E+000	2.5172089E+001	2.1277981E+000	6.4827911E+001	5.722221039584840E-006	1.5827730E-004	1.0977368E-009	1.5827621E-004	3.9754558E+000	9.9853031E+004	6.9253361E-001	9.9852336E+004
3.1621139E+004	2.4893446E+000	1.2206687E+000	2.7725203E+000	-2.6121365E+001	8.385547704907367E+000	3.9754679E+000	3.5827603E-002	4.1232991E+000	7.9926533E-001	1.000000000000000E+000	9	5.2316696E-003	1.8869725E-003	0	5.095055129915838E-005	-1.0623993E-005	1.4441630E-005	-1.8625996E+001	7.6533337E-003	7.2524794E-003	2.4443928E-003	-2.6100792E+001	2.7801085E+000	2.4965971E+000	1.2231131E+000	3.2384378E-001	1.5879920E-001	3.6068267E-001	2.6121365E+001	7.9926526E+002	1.6299647E+003	1.8153815E+003	-6.3878635E+001	0.0000000E+000	0.0000000E+000	0.0000000E+000	6.3878635E+001	0.0000000E+000	0.0000000E+000	0.0000000E+000	-6.3878635E+001	0.0000000E+000	0.0000000E+000	0.0000000E+000	-2.6121365E+001	0.0000000E+000	0.0000000E+000	0.0000000E+000	2.6121365E+001	2.0393286E+000	6.3878632E+001	1.991701517616297E-006	1.4243148E-004	-3.8063222E-010	1.4243186E-004	3.9754786E+000	1.1096103E+005	2.9653096E-001	1.1096133E+005
2.5116910E+004	2.6885171E+000	1.3319826E+000	3.0003836E+000	-2.6355375E+001	8.768564443133073E+000	3.9754677E+000	3.4523852E-002	4.7572432E+000	9.3755960E-001	1.000000000000000E+000	9	5.1988317E-003	1.7327224E-003	0	5.849029018321178E-005	-1.4431027E-004	1.2510777E-005	-1.0701033E+001	7.2203008E-003	7.0947357E-003	1.3406967E-003	-2.6318260E+001	3.0073366E+000	2.6956117E+000	1.3333234E+000	2.9864776E-001	1.4796023E-001	3.3329073E-001	2.6355375E+001	9.3755957E+002	1.8924008E+003	2.1119182E+003	-6.3644623E+001	0.0000000E+000	0.0000000E+000	0.0000000E+000	6.3644623E+001	0.0000000E+000	0.0000000E+000	0.0000000E+000	-6.3644623E+001	0.0000000E+000	0.0000000E+000	0.0000000E+000	-2.6355375E+001	0.0000000E+000	0.0000000E+000	0.0000000E+000	2.6355375E+001	2.0184326E+000	6.3644623E+001	7.539738884053399E-006	1.3724845E-004	-4.9821463E-009	1.3725345E-004	3.9756119E+000	1.1515134E+005	4.1800165E+000	1.1515552E+005
1.9948785E+004	2.8967772E+000	1.4474850E+000	3.2382913E+000	-2.6550753E+001	9.153546248067869E+000	3.9754734E+000	4.0260337E-002	5.5117517E+000	1.1012501E+000	1.000000000000000E+000	9	5.1869894E-003	1.6017674E-003	0	6.162640181311225E-005	8.4740441E-006	1.7433324E-005	-3.1962873E+001	1.0883805E-002	9.2337253E-003	5.7615563E-003	-2.6568853E+001	3.2491267E+000	2.9060109E+000	1.4532465E+000	2.7623791E-001	1.3803279E-001	3.0880484E-001	2.6550753E+001	1.1012500E+003	2.2038750E+003	2.4636997E+003	-6.3449249E+001	0.0000000E+000	0.0000000E+000	0.0000000E+000	6.3449249E+001	0.0000000E+000	0.0000000E+000	0.0000000E+000	-6.3449249E+001	0.0000000E+000	0.0000000E+000	0.0000000E+000	-2.6550753E+001	0.0000000E+000	0.0000000E+000	0.0000000E+000	2.6550753E+001	2.0012486E+000	6.3449249E+001	3.136111629900471E-006	1.6005390E-004	3.4116787E-010	1.6005356E-004	3.9754648E+000	9.8744164E+004	2.1048120E-001	9.8743953E+004
1.5847683E+004	3.0991585E+000	1.5546525E+000	3.4672363E+000	-2.6640036E+001	9.536543359601637E+000	3.9754710E+000	3.6609843E-002	6.4598289E+000	1.2987357E+000	1.000000000000000E+000	9	5.1697376E-003	1.4910254E-003	0	6.296775855572196E-005	4.6670117E-005	8.2502938E-006	-3.1335625E+001	5.5333017E-003	4.7261901E-003	2.8775951E-003	-2.6647509E+001	3.4727511E+000	3.1038847E+000	1.5575300E+000	2.5779644E-001	1.2932022E-001	2.8841415E-001	2.6640036E+001	1.2987360E+003	2.5889954E+003	2.8964827E+003	-6.3359962E+001	0.0000000E+000	0.0000000E+000	0.0000000E+000	6.3359962E+001	0.0000000E+000	0.0000000E+000	0.0000000E+000	-6.3359962E+001	0.0000000E+000	0.0000000E+000	0.0000000E+000	-2.6640036E+001	0.0000000E+000	0.0000000E+000	0.0000000E+000	2.6640036E+001	1.9934735E+000	6.3359962E+001	1.341356742609709E-006	1.4554137E-004	1.7085857E-009	1.4553966E-004	3.9754243E+000	1.0859022E+005	1.2747970E+000	1.0858895E+005
1.2590930E+004	3.3388941E+000	1.6923343E+000	3.7432885E+000	-2.6878387E+001	9.921563431242248E+000	3.9754834E+000	4.0223084E-002	7.4692364E+000	1.5266585E+000	1.000000000000000E+000	9	5.0330702E-003	1.3445584E-003	0	6.672814820479188E-005	-2.7799653E-004	9.7674156E-006	-1.3038100E+001	7.2644041E-003	7.0771296E-003	1.6388418E-003	-2.6851839E+001	3.7503426E+000	3.3459713E+000	1.6939732E+000	2.3828462E-001	1.2077569E-001	2.6714477E-001	2.6878387E+001	1.5266584E+003	3.0120234E+003	3.3768286E+003	-6.3121613E+001	0.0000000E+000	0.0000000E+000	0.0000000E+000	6.3121613E+001	0.0000000E+000	0.0000000E+000	0.0000000E+000	-6.3121613E+001	0.0000000E+000	0.0000000E+000	0.0000000E+000	-2.6878387E+001	0.0000000E+000	0.0000000E+000	0.0000000E+000	2.6878387E+001	1.9729519E+000	6.3121613E+001	3.760389649069918E-006	1.5990621E-004	-1.1181878E-008	1.5991738E-004	3.9757614E+000	9.8835867E+004	6.9113679E+000	9.8842781E+004
