EC-Lab ASCII FILE
Nb header lines : 3                           
freq/Hz	Re(Z)/Ohm	-Im(Z)/Ohm	|Z|/Ohm	Phase(Z)/deg	time/s	<Ewe>/V	<I>/mA	Cs/µF	Cp/µF	cycle number	I Range	|Ewe|/V	|I|/A	Ns	(Q-Qo)/mA.h	<Ece>/V	|Ece|/V	Phase(Zce)/deg	|Zce|/Ohm	Re(Zce)/Ohm	-Im(Zce)/Ohm	Phase(Zwe-ce)/deg	|Zwe-ce|/Ohm	Re(Zwe-ce)/Ohm	-Im(Zwe-ce)/Ohm	Re(Y)/Ohm-1	Im(Y)/Ohm-1	|Y|/Ohm-1	Phase(Y)/deg	Re(C)/nF	Im(C)/nF	|C|/nF	Phase(C)/deg	Re(M)	Im(M)	|M|	Phase(M)/deg	Re(Permittivity)	Im(Permittivity)	|Permittivity|	Phase(Permittivity)/deg	Re(Resistivity)/Ohm.cm	Im(Resistivity)/Ohm.cm	|Resistivity|/Ohm.cm	Phase(Resistivity)/deg	Re(Conductivity)/mS/cm	Im(Conductivity)/mS/cm	|Conductivity|/mS/cm	Phase(Conductivity)/deg	Tan(Delta)	Loss Angle(Delta)/deg	dq/mA.h	Pwe/W	Pce/W	Pwe-ce/W	<Ewe-Ece>/V	Rwe/Ohm	Rce/Ohm	Rwe-ce/Ohm		Ewe-Ece/V
1.0000186E+006	2.6674628E+000	2.5033243E+000	3.6581402E+000	-4.3181847E+001	2.233526319410885E+000	3.9711955E+000	-3.8497679E-002	6.3576259E-002	2.9772032E-002	1.000000000000000E+000	10	2.4287311E-004	6.6392509E-005	0	-1.999149677397872E-005	1.7643157E-004	2.0166871E-004	-6.3091995E+001	3.0375221E+000	1.3746589E+000	2.7086627E+000	-5.2204872E+001	6.5957227E+000	4.0421219E+000	5.2119870E+000	1.9933231E-001	1.8706667E-001	2.7336296E-001	4.3181847E+001	2.9772032E+001	3.1724131E+001	4.3506256E+001	-4.6818153E+001	0.0000000E+000	0.0000000E+000	0.0000000E+000	4.6818153E+001	0.0000000E+000	0.0000000E+000	0.0000000E+000	-4.6818153E+001	0.0000000E+000	0.0000000E+000	0.0000000E+000	-4.3181847E+001	0.0000000E+000	0.0000000E+000	0.0000000E+000	4.3181847E+001	1.0655682E+000	4.6818146E+001	-1.999149677397872E-005	-1.5288181E-004	-6.7922059E-009	-1.5287501E-004	3.9710190E+000	1.0315416E+005	4.5829144E+000	1.0314957E+005
7.9433269E+005	9.7109038E-001	-6.5146506E-002	9.7327316E-001	3.8379900E+000	3.021520490146941E+000	3.9707179E+000	-7.6373830E-002	-3.0755768E+000	-1.3779686E-002	1.000000000000000E+000	9	2.3553531E-004	2.4200328E-004	0	-3.279796240555394E-005	-1.0988928E-004	1.6078955E-004	-5.6749851E+001	6.6441065E-001	3.6429334E-001	5.5563647E-001	-2.0168417E+001	1.4226137E+000	1.3353837E+000	4.9048996E-001	1.0251565E+000	-6.8773583E-002	1.0274608E+000	-3.8379900E+000	-1.3779685E+001	2.0540352E+002	2.0586520E+002	-9.3837990E+001	0.0000000E+000	0.0000000E+000	0.0000000E+000	9.3837990E+001	0.0000000E+000	0.0000000E+000	0.0000000E+000	-9.3837990E+001	0.0000000E+000	0.0000000E+000	0.0000000E+000	3.8379900E+000	0.0000000E+000	0.0000000E+000	0.0000000E+000	-3.8379900E+000	1.4906254E+001	8.6162010E+001	-1.280646563157522E-005	-3.0325894E-004	8.3926652E-009	-3.0326733E-004	3.9708278E+000	5.1990555E+004	1.4388342E+000	5.1991996E+004
6.3095681E+005	1.0008312E+000	-1.0055599E-001	1.0058701E+000	5.7373948E+000	3.406541921751341E+000	3.9707258E+000	-7.5146161E-002	-2.5084910E+000	-2.5069442E-002	1.000000000000000E+000	9	3.4179201E-004	3.3979738E-004	0	-3.941930301937060E-005	2.1460767E-004	1.1857710E-004	-1.0732369E+002	3.4896415E-001	-1.0391093E-001	3.3313435E-001	-1.4537057E+001	9.2658448E-001	8.9692032E-001	2.3257837E-001	9.8918396E-001	-9.9385761E-002	9.9416417E-001	-5.7373948E+000	-2.5069448E+001	2.4951553E+002	2.5077176E+002	-9.5737396E+001	0.0000000E+000	0.0000000E+000	0.0000000E+000	9.5737396E+001	0.0000000E+000	0.0000000E+000	0.0000000E+000	-9.5737396E+001	0.0000000E+000	0.0000000E+000	0.0000000E+000	5.7373948E+000	0.0000000E+000	0.0000000E+000	0.0000000E+000	-5.7373948E+000	9.9529743E+000	8.4262604E+001	-6.621340613816655E-006	-2.9838481E-004	-1.6126943E-008	-2.9836866E-004	3.9705112E+000	5.2840035E+004	2.8558700E+000	5.2837180E+004
5.0120622E+005	1.1314979E+000	-3.0919777E-003	1.1315020E+000	1.5656842E-001	3.789559913304402E+000	3.9707859E+000	-7.0830695E-002	-1.0269926E+002	-7.6688343E-004	1.000000000000000E+000	9	6.6010136E-004	5.8338506E-004	0	-4.514052929619599E-005	1.1916739E-004	7.4150710E-005	-1.5243936E+002	1.2710424E-001	-1.1268066E-001	5.8809500E-002	-3.1302986E+000	1.0203396E+000	1.0188172E+000	5.5717524E-002	8.8377774E-001	-2.4150475E-003	8.8378102E-001	-1.5656842E-001	-7.6689321E-001	2.8063815E+002	2.8063919E+002	-9.0156570E+001	0.0000000E+000	0.0000000E+000	0.0000000E+000	9.0156570E+001	0.0000000E+000	0.0000000E+000	0.0000000E+000	-9.0156570E+001	0.0000000E+000	0.0000000E+000	0.0000000E+000	1.5656842E-001	0.0000000E+000	0.0000000E+000	0.0000000E+000	-1.5656842E-001	3.6594632E+002	8.9843430E+001	-5.721226276825390E-006	-2.8125351E-004	-8.4407095E-009	-2.8124507E-004	3.9706666E+000	5.6060242E+004	1.6824259E+000	5.6058559E+004
3.9810347E+005	1.2478217E+000	1.2335531E-001	1.2539041E+000	-5.6457181E+000	4.172519211511826E+000	3.9708204E+000	-6.6031605E-002	3.2409050E+000	3.1365585E-002	1.000000000000000E+000	9	1.2368953E-003	9.8643533E-004	0	-5.056105595402834E-005	6.1903229E-005	5.7245292E-005	1.5936389E+002	5.8032483E-002	-5.4308977E-002	-2.0452479E-002	-4.9277682E+000	1.1979405E+000	1.1935127E+000	1.0290284E-001	7.9364061E-001	7.8456551E-002	7.9750913E-001	5.6457181E+000	3.1365601E+001	3.1728391E+002	3.1883047E+002	-8.4354279E+001	0.0000000E+000	0.0000000E+000	0.0000000E+000	8.4354279E+001	0.0000000E+000	0.0000000E+000	0.0000000E+000	-8.4354279E+001	0.0000000E+000	0.0000000E+000	0.0000000E+000	-5.6457181E+000	0.0000000E+000	0.0000000E+000	0.0000000E+000	5.6457181E+000	1.0115670E+001	8.4354279E+001	-5.420526657832348E-006	-2.6219964E-004	-4.0875694E-009	-2.6219556E-004	3.9707584E+000	6.0135148E+004	9.3747878E-001	6.0134211E+004
3.1622997E+005	1.3287907E+000	2.4708632E-001	1.3515681E+000	-1.0533742E+001	4.555523256334709E+000	3.9707868E+000	-6.9416992E-002	2.0368938E+000	6.8075359E-002	1.000000000000000E+000	9	2.2139994E-003	1.6380969E-003	0	-5.491213076640593E-005	-2.8168180E-004	5.3959026E-005	8.6480072E+001	3.2940071E-002	2.0223791E-003	-3.2877930E-002	-9.1439304E+000	1.3479424E+000	1.3308131E+000	2.1420839E-001	7.2741240E-001	1.3526107E-001	7.3988134E-001	1.0533742E+001	6.8075371E+001	3.6609839E+002	3.7237384E+002	-7.9466255E+001	0.0000000E+000	0.0000000E+000	0.0000000E+000	7.9466255E+001	0.0000000E+000	0.0000000E+000	0.0000000E+000	-7.9466255E+001	0.0000000E+000	0.0000000E+000	0.0000000E+000	-1.0533742E+001	0.0000000E+000	0.0000000E+000	0.0000000E+000	1.0533742E+001	5.3778400E+000	7.9466255E+001	-4.351074812377592E-006	-2.7564008E-004	1.9553504E-008	-2.7565964E-004	3.9710684E+000	5.7201941E+004	4.0578222E+000	5.7206000E+004
2.5120620E+005	1.3671627E+000	3.6235908E-001	1.4143684E+000	-1.4844614E+001	4.938536901230691E+000	3.9707239E+000	-6.9937788E-002	1.7484396E+000	1.1476351E-001	1.000000000000000E+000	9	3.7972557E-003	2.6847713E-003	0	-5.969065151393362E-005	3.1004794E-004	7.9358033E-005	9.0804329E+001	2.9558582E-002	-4.1493357E-004	-2.9555669E-002	-1.3685208E+001	1.4066832E+000	1.3667477E+000	3.3280340E-001	6.8343174E-001	1.8113987E-001	7.0702940E-001	1.4844614E+001	1.1476350E+002	4.3299698E+002	4.4794760E+002	-7.5155388E+001	0.0000000E+000	0.0000000E+000	0.0000000E+000	7.5155388E+001	0.0000000E+000	0.0000000E+000	0.0000000E+000	-7.5155388E+001	0.0000000E+000	0.0000000E+000	0.0000000E+000	-1.4844614E+001	0.0000000E+000	0.0000000E+000	0.0000000E+000	1.4844614E+001	3.7729502E+000	7.5155388E+001	-4.778520747527687E-006	-2.7770366E-004	-2.1684066E-008	-2.7768195E-004	3.9704139E+000	5.6775086E+004	4.4331961E+000	5.6770652E+004
1.9954350E+005	1.4280205E+000	4.6467009E-001	1.5017192E+000	-1.8024607E+001	5.321514546085382E+000	3.9706631E+000	-7.3285982E-002	1.7164763E+000	1.6434246E-001	1.000000000000000E+000	9	5.1089316E-003	3.4020550E-003	0	-7.291810784843336E-005	-2.4350568E-004	7.9040619E-005	9.4385643E+001	2.3233198E-002	-1.7766224E-003	-2.3165170E-002	-1.7200319E+001	1.4930165E+000	1.4262439E+000	4.4150493E-001	6.3322335E-001	2.0604745E-001	6.6590345E-001	1.8024607E+001	1.6434244E+002	5.0505594E+002	5.3112140E+002	-7.1975395E+001	0.0000000E+000	0.0000000E+000	0.0000000E+000	7.1975395E+001	0.0000000E+000	0.0000000E+000	0.0000000E+000	-7.1975395E+001	0.0000000E+000	0.0000000E+000	0.0000000E+000	-1.8024607E+001	0.0000000E+000	0.0000000E+000	0.0000000E+000	1.8024607E+001	3.0731921E+000	7.1975395E+001	-1.322745633449974E-005	-2.9099395E-004	1.7845553E-008	-2.9101179E-004	3.9709065E+000	5.4180391E+004	3.3226774E+000	5.4183711E+004
1.5848613E+005	1.5024830E+000	5.5725026E-001	1.6024928E+000	-2.0349123E+001	5.704542377585312E+000	3.9706554E+000	-6.0190797E-002	1.8020989E+000	2.1791492E-001	1.000000000000000E+000	9	5.3441608E-003	3.3349048E-003	0	-7.492897332930524E-005	1.5734350E-004	6.4359112E-005	8.8856667E+001	1.9298635E-002	3.8507863E-004	-1.9294793E-002	-1.9694958E+001	1.5962483E+000	1.5028681E+000	5.3795546E-001	5.8508295E-001	2.1699919E-001	6.2402779E-001	2.0349123E+001	2.1791492E+002	5.8755200E+002	6.2666119E+002	-6.9650879E+001	0.0000000E+000	0.0000000E+000	0.0000000E+000	6.9650879E+001	0.0000000E+000	0.0000000E+000	0.0000000E+000	-6.9650879E+001	0.0000000E+000	0.0000000E+000	0.0000000E+000	-2.0349123E+001	0.0000000E+000	0.0000000E+000	0.0000000E+000	2.0349123E+001	2.6962447E+000	6.9650879E+001	-2.010865480871882E-006	-2.3899692E-004	-9.4706305E-009	-2.3898744E-004	3.9704981E+000	6.5967820E+004	2.6140790E+000	6.5965203E+004
1.2590930E+005	1.5875944E+000	6.4564204E-001	1.7138581E+000	-2.2130566E+001	6.087564342451515E+000	3.9706767E+000	-5.5242904E-002	1.9578100E+000	2.7784616E-001	1.000000000000000E+000	9	5.4179225E-003	3.1612434E-003	0	-8.814618297464525E-005	1.5734350E-004	4.5958430E-005	9.8320343E+001	1.4538086E-002	-2.1037699E-003	-1.4385065E-002	-2.1709785E+001	1.7065362E+000	1.5854906E+000	6.3125700E-001	5.4049271E-001	2.1980728E-001	5.8347887E-001	2.2130566E+001	2.7784622E+002	6.8320679E+002	7.3754327E+002	-6.7869431E+001	0.0000000E+000	0.0000000E+000	0.0000000E+000	6.7869431E+001	0.0000000E+000	0.0000000E+000	0.0000000E+000	-6.7869431E+001	0.0000000E+000	0.0000000E+000	0.0000000E+000	-2.2130566E+001	0.0000000E+000	0.0000000E+000	0.0000000E+000	2.2130566E+001	2.4589391E+000	6.7869431E+001	-1.321720964534001E-005	-2.1935171E-004	-8.6921119E-009	-2.1934301E-004	3.9705193E+000	7.1876680E+004	2.8482120E+000	7.1873836E+004
1.0000371E+005	1.6793106E+000	7.3817402E-001	1.8343896E+000	-2.3728836E+001	6.470525347307557E+000	3.9706559E+000	-5.2378330E-002	2.1559825E+000	3.4912392E-001	1.000000000000000E+000	9	5.4341275E-003	2.9623630E-003	0	-1.053363823031670E-004	2.5278379E-004	5.0198483E-005	1.0410925E+002	1.6945420E-002	-4.1308128E-003	-1.6434221E-002	-2.3308466E+001	1.8240438E+000	1.6751797E+000	7.2173983E-001	4.9905437E-001	2.1936919E-001	5.4514045E-001	2.3728836E+001	3.4912396E+002	7.9424030E+002	8.6758582E+002	-6.6271164E+001	0.0000000E+000	0.0000000E+000	0.0000000E+000	6.6271164E+001	0.0000000E+000	0.0000000E+000	0.0000000E+000	-6.6271164E+001	0.0000000E+000	0.0000000E+000	0.0000000E+000	-2.3728836E+001	0.0000000E+000	0.0000000E+000	0.0000000E+000	2.3728836E+001	2.2749522E+000	6.6271164E+001	-1.719019932852178E-005	-2.0797632E-004	-1.3240393E-008	-2.0796309E-004	3.9704032E+000	7.5807227E+004	4.8261142E+000	7.5802398E+004
7.9433273E+004	1.7939816E+000	8.2159054E-001	1.9731652E+000	-2.4606382E+001	6.853563952172408E+000	3.9706702E+000	-4.7765248E-002	2.4387217E+000	4.2281097E-001	1.000000000000000E+000	9	5.4508783E-003	2.7625049E-003	0	-9.985878661383564E-005	4.6390596E-006	3.4326655E-005	7.4486778E+001	1.2425916E-002	3.3234449E-003	-1.1973225E-002	-2.4249748E+001	1.9712396E+000	1.7973050E+000	8.0961734E-001	4.6077731E-001	2.1102241E-001	5.0679994E-001	2.4606382E+001	4.2281100E+002	9.2322754E+002	1.0154399E+003	-6.5393616E+001	0.0000000E+000	0.0000000E+000	0.0000000E+000	6.5393616E+001	0.0000000E+000	0.0000000E+000	0.0000000E+000	-6.5393616E+001	0.0000000E+000	0.0000000E+000	0.0000000E+000	-2.4606382E+001	0.0000000E+000	0.0000000E+000	0.0000000E+000	2.4606382E+001	2.1835470E+000	6.5393616E+001	5.477595689331387E-006	-1.8966004E-004	-2.2158583E-010	-1.8965983E-004	3.9706657E+000	8.3128852E+004	9.7122066E-002	8.3128758E+004
6.3093824E+004	1.9102722E+000	9.2560774E-001	2.1227081E+000	-2.5852152E+001	7.236517197015928E+000	3.9706702E+000	-4.9922988E-002	2.7252498E+000	5.1817888E-001	1.000000000000000E+000	9	5.4447697E-003	2.5650111E-003	0	-1.033015021527083E-004	4.6390596E-006	2.2969416E-005	6.8658485E+001	8.9548994E-003	3.2589231E-003	-8.3408421E-003	-2.5611113E+001	2.1220226E+000	1.9135312E+000	9.1726691E-001	4.2395008E-001	2.0542175E-001	4.7109634E-001	2.5852152E+001	5.1817883E+002	1.0694192E+003	1.1883462E+003	-6.4147850E+001	0.0000000E+000	0.0000000E+000	0.0000000E+000	6.4147850E+001	0.0000000E+000	0.0000000E+000	0.0000000E+000	-6.4147850E+001	0.0000000E+000	0.0000000E+000	0.0000000E+000	-2.5852152E+001	0.0000000E+000	0.0000000E+000	0.0000000E+000	2.5852152E+001	2.0638032E+000	6.4147850E+001	-3.442715538872618E-006	-1.9822772E-004	-2.3159571E-010	-1.9822748E-004	3.9706657E+000	7.9535906E+004	9.2924319E-002	7.9535813E+004
5.0122477E+004	2.0516899E+000	1.0257139E+000	2.2938004E+000	-2.6562126E+001	7.619553615193581E+000	3.9706571E+000	-4.7802467E-002	3.0957177E+000	6.1901706E-001	1.000000000000000E+000	9	5.4963734E-003	2.3961866E-003	0	-1.094588377511051E-004	1.1916739E-004	1.2700393E-005	3.2467861E+001	5.3002522E-003	4.4717840E-003	-2.8453155E-003	-2.6448742E+001	2.2965324E+000	2.0561616E+000	1.0228686E+000	3.8994241E-001	1.9494632E-001	4.3595773E-001	2.6562126E+001	6.1901709E+002	1.2381923E+003	1.3843057E+003	-6.3437874E+001	0.0000000E+000	0.0000000E+000	0.0000000E+000	6.3437874E+001	0.0000000E+000	0.0000000E+000	0.0000000E+000	-6.3437874E+001	0.0000000E+000	0.0000000E+000	0.0000000E+000	-2.6562126E+001	0.0000000E+000	0.0000000E+000	0.0000000E+000	2.6562126E+001	2.0002553E+000	6.3437874E+001	-6.157335598396866E-006	-1.8980721E-004	-5.6964953E-009	-1.8980150E-004	3.9705379E+000	8.3063852E+004	2.4929130E+000	8.3061359E+004
3.9814059E+004	2.2136338E+000	1.1243999E+000	2.4828310E+000	-2.6927977E+001	8.002520113397622E+000	3.9706872E+000	-4.0548041E-002	3.5551906E+000	7.2913873E-001	1.000000000000000E+000	9	5.4758447E-003	2.2054843E-003	0	-1.203861864825012E-004	3.2913600E-004	2.2198737E-005	1.9549000E+001	1.0065244E-002	9.4850389E-003	-3.3679605E-003	-2.6760025E+001	2.4897730E+000	2.2231188E+000	1.1210320E+000	3.5909674E-001	1.8240070E-001	4.0276605E-001	2.6927977E+001	7.2913873E+002	1.4354731E+003	1.6100393E+003	-6.3072021E+001	0.0000000E+000	0.0000000E+000	0.0000000E+000	6.3072021E+001	0.0000000E+000	0.0000000E+000	0.0000000E+000	-6.3072021E+001	0.0000000E+000	0.0000000E+000	0.0000000E+000	-2.6927977E+001	0.0000000E+000	0.0000000E+000	0.0000000E+000	2.6927977E+001	1.9687246E+000	6.3072021E+001	-1.092734873139609E-005	-1.6100358E-004	-1.3345820E-008	-1.6099024E-004	3.9703581E+000	9.7925500E+004	8.1171865E+000	9.7917383E+004
3.1621139E+004	2.3758624E+000	1.2392012E+000	2.6796160E+000	-2.7545622E+001	8.387525625032140E+000	3.9706790E+000	-4.3449819E-002	4.0616341E+000	8.6863905E-001	1.000000000000000E+000	9	5.3182077E-003	1.9846903E-003	0	-1.294976667104687E-004	1.5734350E-004	1.1646771E-005	4.0585705E+001	5.8683064E-003	4.4565895E-003	-3.8178307E-003	-2.7429272E+001	2.6818073E+000	2.3803189E+000	1.2353834E+000	3.3088431E-001	1.7258248E-001	3.7318781E-001	2.7545622E+001	8.6863904E+002	1.6654009E+003	1.8783221E+003	-6.2454376E+001	0.0000000E+000	0.0000000E+000	0.0000000E+000	6.2454376E+001	0.0000000E+000	0.0000000E+000	0.0000000E+000	-6.2454376E+001	0.0000000E+000	0.0000000E+000	0.0000000E+000	-2.7545622E+001	0.0000000E+000	0.0000000E+000	0.0000000E+000	2.7545622E+001	1.9172531E+000	6.2454376E+001	-9.111480227967447E-006	-1.7252528E-004	-6.8365464E-009	-1.7251846E-004	3.9705217E+000	9.1385398E+004	3.6212695E+000	9.1381781E+004
2.5116910E+004	2.5552449E+000	1.3459413E+000	2.8880503E+000	-2.7777424E+001	8.646540490648476E+000	3.9706593E+000	-5.5875368E-002	4.7079058E+000	1.0225170E+000	1.000000000000000E+000	9	5.2352613E-003	1.8127320E-003	0	-1.325653844845430E-004	-1.2897734E-004	7.5790681E-006	3.0692385E+001	4.1810195E-003	3.5953429E-003	-2.1341119E-003	-2.7706776E+001	2.8902390E+000	2.5588403E+000	1.3438072E+000	3.0635363E-001	1.6136770E-001	3.4625435E-001	2.7777424E+001	1.0225171E+003	1.9412299E+003	2.1940635E+003	-6.2222576E+001	0.0000000E+000	0.0000000E+000	0.0000000E+000	6.2222576E+001	0.0000000E+000	0.0000000E+000	0.0000000E+000	-6.2222576E+001	0.0000000E+000	0.0000000E+000	0.0000000E+000	-2.7777424E+001	0.0000000E+000	0.0000000E+000	0.0000000E+000	2.7777424E+001	1.8984817E+000	6.2222580E+001	-3.067717774074297E-006	-2.2186205E-004	7.2066562E-009	-2.2186925E-004	3.9707882E+000	7.1062781E+004	2.3083041E+000	7.1065094E+004
1.9948785E+004	2.7455640E+000	1.4535093E+000	3.1065755E+000	-2.7896870E+001	8.905556049634470E+000	3.9706666E+000	-5.1373906E-002	5.4889069E+000	1.2015938E+000	1.000000000000000E+000	9	4.7556018E-003	1.5308181E-003	0	-1.348175955173792E-004	-3.3537053E-005	1.4906350E-005	-8.8912758E+001	9.7375056E-003	1.8476712E-004	9.7357528E-003	-2.8053730E+001	3.1113055E+000	2.7457488E+000	1.4632450E+000	2.8449050E-001	1.5061006E-001	3.2189786E-001	2.7896870E+001	1.2015938E+003	2.2697156E+003	2.5681582E+003	-6.2103130E+001	0.0000000E+000	0.0000000E+000	0.0000000E+000	6.2103130E+001	0.0000000E+000	0.0000000E+000	0.0000000E+000	-6.2103130E+001	0.0000000E+000	0.0000000E+000	0.0000000E+000	-2.7896870E+001	0.0000000E+000	0.0000000E+000	0.0000000E+000	2.7896870E+001	1.8889208E+000	6.2103134E+001	-2.252211032836285E-006	-2.0398866E-004	1.7229295E-009	-2.0399038E-004	3.9707003E+000	7.7289563E+004	6.5280324E-001	7.7290211E+004
1.5847683E+004	2.9783492E+000	1.5490412E+000	3.3570957E+000	-2.7478968E+001	9.288545401155716E+000	3.9706666E+000	-5.0927479E-002	6.4832296E+000	1.3803520E+000	1.000000000000000E+000	9	5.0162156E-003	1.4942129E-003	0	-1.402568695456333E-004	-1.0988928E-004	3.8528096E-006	5.7572956E+001	2.5784879E-003	1.3826503E-003	-2.1764368E-003	-2.7435129E+001	3.3573191E+000	2.9797318E+000	1.5468647E+000	2.6427019E-001	1.3744707E-001	2.9787654E-001	2.7478968E+001	1.3803519E+003	2.6540098E+003	2.9915112E+003	-6.2521034E+001	0.0000000E+000	0.0000000E+000	0.0000000E+000	6.2521034E+001	0.0000000E+000	0.0000000E+000	0.0000000E+000	-6.2521034E+001	0.0000000E+000	0.0000000E+000	0.0000000E+000	-2.7478968E+001	0.0000000E+000	0.0000000E+000	0.0000000E+000	2.7478968E+001	1.9227051E+000	6.2521034E+001	-5.439274028254040E-006	-2.0221605E-004	5.5963842E-009	-2.0222164E-004	3.9707766E+000	7.7967078E+004	2.1577601E+000	7.7969234E+004
1.2590930E+004	3.2102125E+000	1.6629382E+000	3.6153600E+000	-2.7384834E+001	9.547542693471769E+000	3.9706712E+000	-5.5242945E-002	7.6012712E+000	1.6081827E+000	1.000000000000000E+000	9	4.7611566E-003	1.3169246E-003	0	-1.426175931219607E-004	1.1916739E-004	9.1386810E-006	-1.2405581E+002	6.9394112E-003	-3.8860715E-003	5.7492498E-003	-2.7494089E+001	3.6145604E+000	3.2063265E+000	1.6686875E+000	2.4560131E-001	1.2722516E-001	2.7659762E-001	2.7384834E+001	1.6081825E+003	3.1045095E+003	3.4963167E+003	-6.2615166E+001	0.0000000E+000	0.0000000E+000	0.0000000E+000	6.2615166E+001	0.0000000E+000	0.0000000E+000	0.0000000E+000	-6.2615166E+001	0.0000000E+000	0.0000000E+000	0.0000000E+000	-2.7384834E+001	0.0000000E+000	0.0000000E+000	0.0000000E+000	2.7384834E+001	1.9304460E+000	6.2615166E+001	-2.360723576327379E-006	-2.1935157E-004	-6.5831576E-009	-2.1934499E-004	3.9705520E+000	7.1876531E+004	2.1571515E+000	7.1874375E+004
